!Created with skrf (http://scikit-rf.org).
# Hz S RI R 50.0 
!freq ReS11 ImS11 ReS21 ImS21 ReS12 ImS12 ReS22 ImS22
4.0 -0.8404264715540585 -0.2478776448686241 0.00021222671475622083 -0.0002540578499002611 0.00017901175572226826 0.00010514667035106353 -0.9644737062657942 -0.129545843398661
4.0004285714285714 -0.8467702431616247 -0.24212739683579643 0.00023170927578478395 -0.0005315949363236128 5.1730985807631904e-05 -6.43339027484715e-05 -0.9709421760573365 -0.12417605475502114
4.000857142857143 -0.8514766957875576 -0.23219253668104806 0.00018062098163739812 -0.0003136390734005056 0.00014123563586258437 -1.2904522958598996e-05 -0.9654067153507216 -0.11603894762764151
4.001285714285714 -0.8444038153095306 -0.22596236908924194 2.980790586369119e-05 -0.00035106048706955016 1.257746548525332e-05 -0.0002881422203419572 -0.9632509793098323 -0.11611536593914638
4.001714285714286 -0.8508395640348082 -0.21786684181272253 -0.00012908777516542347 -0.00034864468158493335 -7.643579771550957e-05 -0.00013477144795601652 -0.9652616852653945 -0.11763569126603805
4.002142857142857 -0.8500622856624025 -0.21854193728008264 -0.00014696090681608434 -0.00024867541567492266 4.6648191448809874e-05 -1.5788952790608457e-05 -0.964118730576924 -0.11060051748120008
4.002571428571429 -0.8531191747596731 -0.20862449514545356 -6.536696994950244e-06 -0.0002424199558519338 -2.5244574274905876e-05 -0.0003509053046426703 -0.9693208276527011 -0.10457098669541268
4.003 -0.8570673875030032 -0.19777556426808593 -0.00016267887571527658 -0.0007085080528617788 0.00011279016954623268 0.00023744839272576683 -0.9677636299504938 -0.10443721159521875
4.003428571428572 -0.8601293778314473 -0.1952887687332527 0.00012873407023495604 -0.0008723147992097808 -0.00023012984625863885 3.723042563306205e-05 -0.9608897496510734 -0.09714561666197104
4.003857142857143 -0.8555650537500373 -0.18532188207856753 -0.00037027138912296267 -0.0007301326689333298 0.0002757679644721335 -0.0002568953764344192 -0.9705981256260057 -0.11054179000877415
4.0042857142857144 -0.8666152464836954 -0.1788443771869979 0.00011375499003277491 -0.00023688582431782436 -0.00017103379377899752 7.994852658515317e-05 -0.9653321020088472 -0.09922136649951876
4.004714285714286 -0.8622026145308869 -0.168923570034615 -1.2748748793853163e-05 -0.0007031457617170915 -0.000164131474941031 -0.00010628814633001115 -0.9590934873933527 -0.10769463831123618
4.005142857142857 -0.8647524425873644 -0.16121204991984103 0.00042223861667876634 -0.00033517649834682135 0.0001196893276571065 -6.076800536508143e-05 -0.969376063963429 -0.09502100482959513
4.005571428571429 -0.8645373532503452 -0.1564092060976889 -8.613751592718089e-05 -0.0007132756707564897 -7.801456117572942e-05 3.37811765322549e-05 -0.9599518273662732 -0.09536008146688693
4.006 -0.8677901497823894 -0.15106905577299973 0.000280205374047761 -0.00045235075088547236 -0.0001467365500825567 0.0003504416701043864 -0.9708647353433796 -0.0926290171993371
4.006428571428572 -0.867425686744376 -0.1464474935956768 -8.374389323674889e-05 -0.00044790171209744243 3.861095253200695e-05 0.00024491579344785815 -0.9691506615738575 -0.09196714341623373
4.006857142857143 -0.8713924134067073 -0.13465821517590537 -0.0003908941165858421 -0.000423200245603101 -0.0001011963712885371 -6.200111870072604e-05 -0.96334511837253 -0.08537055403802753
4.007285714285715 -0.8736723156248312 -0.12951616107148267 0.0003320035917355083 -0.000457537927164611 -0.00012840318235356497 7.325872201609071e-05 -0.9681112017548636 -0.07872394214477607
4.007714285714286 -0.8724725475106633 -0.12279827197279164 -0.00015433746410375618 -0.00045860793059364916 9.636345732230047e-05 0.0003730842215111388 -0.9629224697938993 -0.08253274506653875
4.0081428571428575 -0.8717927977216102 -0.11972301556855366 1.711618817194282e-05 -0.000628788114169891 -0.00011863635756811136 -0.00011445661292240406 -0.9674798658903309 -0.08770454891552155
4.008571428571429 -0.8756372190235038 -0.10633903856997168 -0.000337044879305456 -0.00032635461437691463 -1.692613615568111e-05 1.2178186715503134e-06 -0.9626146921204557 -0.07782645341829149
4.009 -0.8759692769681121 -0.10012047191421877 -0.00015600917661262465 -0.00029118003116129125 0.00012953614099358966 -2.4490686326804653e-06 -0.9747829808205414 -0.08605590086697737
4.009428571428572 -0.8744559283872161 -0.09727461540471935 4.651099407084164e-05 -0.0005410036800297189 5.767588262787994e-05 2.976435279247583e-07 -0.9771957202149375 -0.07550015619647456
4.009857142857143 -0.8778137363673191 -0.08575856822168491 -0.0003085862680485651 -0.00016641779657573227 0.0002401780574945458 -5.692343198305818e-06 -0.9679612047178321 -0.06863698443943853
4.010285714285715 -0.8787011673314559 -0.07799264616395168 -0.00018058945011099894 -0.0002245081383153065 0.0002385794772529555 -0.0001151707934863462 -0.9658860876083283 -0.07175214177819318
4.010714285714286 -0.878612034347418 -0.07291013477266282 7.160322993228933e-05 -0.0007364698219042983 0.00023530027193003833 0.00022642608539924456 -0.966822882242014 -0.07041919492692492
4.011142857142858 -0.8755255234503827 -0.06946418396008185 0.0003654547894172609 -0.00013151108063793815 0.00025251189294031026 8.466328202422224e-05 -0.9694851301191221 -0.06665134031099378
4.011571428571429 -0.8746784319953808 -0.056585524061822684 8.424209361527239e-05 -0.00037202284488977713 0.0004298388433162649 -0.0004205372834373771 -0.9692268803090331 -0.06657939748001518
4.012 -0.8797235845019008 -0.05224759057022663 -0.0005932057700269347 -0.00033852524084690595 -3.273415249265878e-05 -2.4725651988865133e-05 -0.9751404839486425 -0.06114676942769383
4.012428571428571 -0.8786545527137605 -0.041240369117577905 -6.782498652387905e-05 -0.0003599361229309993 0.00022304410009171688 -0.0002125876104995223 -0.9626805620971289 -0.05597223159111454
4.0128571428571425 -0.8850282630756369 -0.0332910112139974 -0.00011435795862708998 -0.00025219657930597916 0.00032937275193294574 -4.7366668880607044e-05 -0.9645395271885879 -0.063804608714081
4.013285714285714 -0.8740722529272101 -0.029033358422402143 0.0001686987054339946 -0.0005750969535848077 -0.00024113186936032283 -9.693820463523375e-05 -0.9629191071414734 -0.05825477904116198
4.013714285714285 -0.8786527418741058 -0.02038621406962051 -0.0005605992277020595 -0.00042896800738815465 0.00041995835940513316 -6.911685932207208e-05 -0.974487819547531 -0.05032384236382893
4.014142857142857 -0.8773652234294805 -0.012532047467643508 1.9572085715032015e-05 -0.0005131791854765247 0.0002678067017962355 9.560946714709564e-05 -0.9720666250607456 -0.0462828390877196
4.014571428571428 -0.875944218390566 -0.009929214746792562 0.00010075489372996177 -0.0005570053434981371 -0.0001359760316315958 -0.000155064334640022 -0.9697833753662596 -0.05164569359075195
4.015 -0.8859348814215158 0.0017811401518980563 8.930898215496462e-05 3.289906492542759e-05 -0.00023620263213876963 -0.0002688516099966716 -0.9649129284494283 -0.04995721292116849
4.015428571428571 -0.8816976338300664 0.012020192835176219 -0.0002613790073544734 -0.0004598283837767268 0.00011172123766107181 -7.25612979040804e-05 -0.971608999473216 -0.05024250049768442
4.015857142857143 -0.8793523866607414 0.016933423769753347 -0.00029572776298956386 -0.0005927955401251589 -0.00021062360916760046 -0.00012543191612387325 -0.9700690332922055 -0.04530937460351482
4.016285714285714 -0.879862421800448 0.02379355371365736 -0.0007199660956531596 -0.00039301573097502387 -0.00029361811422208605 -0.0002083795441555569 -0.9641959084587363 -0.040368623152619264
4.0167142857142855 -0.8803314789218729 0.030629877580170526 -7.211222207468465e-05 -0.0004344097205760526 9.384349164784577e-05 1.6638443450953064e-05 -0.9643097577635208 -0.04864132011041046
4.017142857142857 -0.8778510033532158 0.0408956191835212 -0.00033425177979302083 -0.0006837939547610165 0.0002570515137158786 -0.00045126693644526565 -0.9611269534974066 -0.0380950228441473
4.017571428571428 -0.8818205464032739 0.04412181971111865 8.976941103837431e-06 -0.0006769116329924702 0.00027645197246417585 -6.954376993861937e-05 -0.973410630887053 -0.04033685841829405
4.018 -0.8755430903802537 0.05101011514301725 -0.0007952472641247857 -0.00028437413121059057 7.70739622005162e-05 0.0004246036448149565 -0.9691146601414641 -0.0412264314584081
4.018428571428571 -0.8816917918777673 0.05954895078309019 -0.0006061732071517416 -0.0002824337292159248 8.664103051914976e-05 -0.0003275818004241612 -0.9710087635701784 -0.033457950035434204
4.018857142857143 -0.8717091109044706 0.06777096234659967 -0.0004302121958867061 -0.00039048611187123683 0.00023573659217863415 0.00019926971347605639 -0.9601087211522266 -0.026306767642862196
4.019285714285714 -0.8715789037002947 0.0780455741361536 -0.0002334505249120853 -0.0008338348534928486 0.00015172160094259083 -0.00016403172914939213 -0.971223649152272 -0.03002450995528974
4.019714285714286 -0.877653334858697 0.08491189099692979 -0.00020550581468728048 -0.00045133461709600967 0.0002474268768478771 -8.074534107813636e-05 -0.9625381515244096 -0.02605519362810919
4.020142857142857 -0.876913899899907 0.08821284737594988 -0.0005266210677087799 -0.0005069908521658707 -7.929238955034106e-07 -5.55795451784396e-05 -0.9664782023810885 -0.024625199635586195
4.0205714285714285 -0.8744921884312028 0.10350957800883279 -0.0003606514897770964 -0.0005973947540526628 -0.0004653873887038031 0.0003690902755112607 -0.9686933625735461 -0.025364346156181224
4.021 -0.8731087150472424 0.10213459800320601 -0.0005133376208993817 -0.0007111621401473279 0.0001963033311767912 0.00037944710515157954 -0.9661168664100056 -0.020292423410845545
4.021428571428571 -0.8708959159037744 0.11432418044877143 -0.00029269731594808315 -0.00045024111278857247 -7.108166566231354e-05 -7.918746867223238e-05 -0.9688401372389855 -0.0191908093645584
4.021857142857143 -0.8733068563961855 0.1172815972294549 -0.00018476792378123094 -0.0005711570431616647 0.00018524765796991096 -0.00029504278046799966 -0.9656528510127556 -0.013494322489926222
4.022285714285714 -0.8655219042098484 0.12124350041028045 -0.00046816548869207616 -0.0008080479400860499 0.00041249593647697434 0.00011415724139213508 -0.9750678202012862 -0.007166676555690547
4.022714285714286 -0.8698922086577278 0.13693438424864612 -0.000372793813583002 -0.0004134700701302203 1.9030146891545066e-05 8.602026954485458e-05 -0.9650088064903184 -0.014047304697050041
4.023142857142857 -0.8670283257395981 0.14364901861889953 -0.0001510274771391635 6.5182481879992e-05 5.840673043245458e-05 -3.3687756795733304e-05 -0.9681429165836385 -0.006529935640953991
4.023571428571429 -0.8697220929033216 0.1439685651361071 -0.0005731712081126846 -0.0001755040954293179 9.417941941914092e-05 -5.876908655596577e-05 -0.961484980122529 -0.003556568303581895
4.024 -0.8614868786417192 0.1568070622393808 -0.0006361484834103608 -0.00021086896562568205 -0.00011411397236281262 -0.00011172022124753065 -0.9683214089014817 -0.007740125482426722
4.0244285714285715 -0.8632039792980198 0.1607763462712377 -4.152560641593011e-05 -6.330336152727482e-05 -0.000284319000704284 1.9006540325716763e-05 -0.9695891708667222 -0.0016533906982515694
4.024857142857143 -0.865493291474126 0.17204749013579465 -0.00040597652041378927 -0.0001325287364064145 -4.726601529500596e-05 -0.00014604157139766456 -0.9674095225498947 -0.0010772886531577432
4.025285714285714 -0.8651209609989331 0.1795772503787603 -0.0006098484284182299 -0.00010098555355834121 -0.0003887324052852418 -0.00017356362099050729 -0.9646693484950709 0.003460528245684989
4.025714285714286 -0.8615488034561963 0.18548649933366843 -9.70377113869906e-05 5.414943176637867e-06 4.458292543565591e-05 4.0724431877005504e-05 -0.9747753877301882 0.009412014454200522
4.026142857142857 -0.8655423543217005 0.19023267005934286 -0.0004455901033881311 -0.0003531365199750524 -0.0001797698223405277 0.00040353857529390073 -0.9682772223946559 0.0038131437535431543
4.026571428571429 -0.8518652988406316 0.20189278798241053 -0.000702181592340199 -0.00011796206975693065 0.00013210356818412305 -0.00027030485667232484 -0.9751977833230343 0.00894806382778463
4.027 -0.854209820102931 0.2064058426560202 -0.0003994814107897415 -0.0006039070217362974 6.478001654840628e-05 -3.1405806859666145e-05 -0.9685852373264907 0.005024049767364175
4.027428571428572 -0.8578154306354956 0.2091291630591692 -0.0004911307708839143 -0.0003290050572334115 3.1270707069810156e-05 -0.0001988412541851121 -0.9665899009026349 0.015421662254629797
4.027857142857143 -0.8527635799930217 0.21520995692086853 -0.0002587269755378097 -0.0001550446120729001 0.0003939005218579213 -0.00028688854904828466 -0.9746886468880112 0.013349189390875099
4.0282857142857145 -0.8520671399976572 0.23100326071176597 -0.0002588958063797703 0.00037696015756574666 -9.913891172228922e-06 -0.00011140512102869643 -0.9703489086593159 0.020941673128903302
4.028714285714286 -0.8556470013922767 0.2298553092987081 -0.00048051685588594085 -0.0007566073132702055 -0.0002589071719714543 0.00015584304536767226 -0.9695550177630635 0.013756885002145525
4.029142857142857 -0.8493289241014217 0.24239389830167046 -0.0005058774534860579 -7.329844666538007e-05 0.0001563661891857664 -0.00024366943693660296 -0.9696898382625992 0.024972473966693144
4.029571428571429 -0.8476572746396384 0.2459706333940448 -0.0003410364562065316 3.206150361680538e-05 -0.00014209349521276176 2.7671147862235205e-05 -0.9640948162491052 0.020749521578469307
4.03 -0.8425527277756201 0.25148202345865717 -0.0003597303486632369 -0.0002569594100634906 -3.596060192407199e-05 0.00027313687636046255 -0.9734616961992048 0.03439574107197036
4.030428571428572 -0.8427153120689895 0.26351578882704013 -0.0007053058531438948 -0.00028253418557949234 0.0002991841122937718 -0.00015206891964053063 -0.9687102920120785 0.031172008788762324
4.030857142857143 -0.8442895388760536 0.26670631080466023 -0.00012479275984736033 0.00014785099201749917 0.0001863503449215937 0.0002160068521720946 -0.9712742876221465 0.02403632922585187
4.031285714285715 -0.8356158195394331 0.27618097850742246 -0.00027594159806656777 -0.0002326439758343108 0.00019048078246339668 -0.00018968858188676732 -0.9669238368141234 0.0345718563277255
4.031714285714286 -0.8326920397043753 0.27694501457741144 -0.000340278601903078 -7.915069534859335e-05 2.7550625996101153e-05 -1.90728308397115e-05 -0.9626841982669994 0.02487358467428475
4.0321428571428575 -0.8291762074878004 0.2878924554341955 -0.000800968664315634 -0.000135114344169173 -6.846955819646932e-05 -6.485692376107366e-05 -0.9718460147565123 0.03611435069685231
4.032571428571429 -0.8296914597226902 0.2945381093542379 -0.0004360615247068588 3.269629572382713e-05 0.000154749144733878 -7.764221404438148e-05 -0.9654787038511544 0.045616591111650125
4.033 -0.8293518501411664 0.30072243441371227 -0.0006110927246145466 -8.935946475323177e-05 6.902805598890887e-05 6.001527993413531e-05 -0.965237506059467 0.04660949792791479
4.033428571428572 -0.8326542347900087 0.3086865081413345 -0.00023444203768613244 1.0499257606742375e-05 8.659237157406091e-05 -1.4858595396353621e-05 -0.962764659427121 0.041407636922793624
4.033857142857143 -0.8258595503091954 0.31608592305865624 -0.0005338359351966451 0.00024172877431628633 -0.00013300778092194195 -0.00014594683851170892 -0.962043934054509 0.04321876035813079
4.034285714285715 -0.8184128172346513 0.3193499129935382 -0.0005784830083527081 0.00018556934572926362 0.00015385987143122897 -3.873718223495431e-05 -0.965430637000507 0.04312994254701926
4.034714285714286 -0.8115387505794711 0.3316890737235541 -0.000336800699074226 3.559030819275849e-05 -0.00022366818445534434 -6.346958951992117e-05 -0.9651246662836569 0.05175626243568723
4.035142857142857 -0.8128319732201124 0.33751447065651496 -0.00045992987241564616 -0.0001963140040294408 0.0002974972688972049 -0.00022763058133537344 -0.9675809817177627 0.04977569987085458
4.035571428571428 -0.8048313625418303 0.3433966125192554 -0.000637419478785419 -6.688400005031227e-05 9.779610661807543e-08 0.00017142855485066834 -0.9675054428736631 0.057064165773311776
4.036 -0.8035886569771603 0.35277314365842494 -0.00024070690399438383 4.5394993650261545e-05 0.00012035473362236152 -0.0003754387300124985 -0.9690012227165407 0.05840638956635622
4.036428571428571 -0.8108616602371871 0.35020977792497415 -0.0002537713414296901 -6.401966085354791e-06 -0.00012216579222460342 0.0001157154158233169 -0.9676174004789797 0.05230195733929177
4.0368571428571425 -0.8054846343655127 0.3649634008117066 -7.989155454281228e-05 -0.00011999955572226072 -0.00012961558719980798 0.00021730108783811643 -0.9692499562300514 0.05536182317569047
4.037285714285714 -0.7951833969482539 0.37014654003322833 -0.0007165320377088098 -0.00015183921968653344 5.650704823234185e-05 -0.00010874071536901876 -0.9626417438981283 0.059743879933504274
4.037714285714285 -0.7952482861027786 0.37076320444314614 -0.00029356978040581607 -0.00015281723760809032 -0.00016573286815678193 2.1332147810113238e-05 -0.9699867023011188 0.05637346627431153
4.038142857142857 -0.7911450356245296 0.3901338070414254 -0.0003050070764714678 -2.2655080585201444e-05 0.0002510163360339848 -0.00015156423979673092 -0.9628756939322323 0.06309367484736231
4.038571428571428 -0.7908245538379288 0.3894933256984563 -0.00047199060961145917 4.7554756430140014e-05 -1.3709428288591873e-05 1.9680301133207953e-05 -0.9592004895232488 0.0667876223904159
4.039 -0.786064761650737 0.3929664591512316 -0.00043330995249850026 0.00034293725944222354 0.00011568384674171313 -0.00018339461645116147 -0.9591354565024397 0.06494284682501847
4.039428571428571 -0.7778698949219649 0.41164672947529457 -0.00036858376594537285 0.00017057282446963798 -0.00025472392559005967 0.00010810293520628516 -0.9644645543790586 0.0708459824618343
4.039857142857143 -0.7819552462754199 0.40917167253132375 -0.000324579784356704 0.00012847116878671484 3.097106952653801e-05 0.00010534632267029919 -0.9700139985194551 0.0725638924690644
4.040285714285714 -0.7783013017437782 0.40959857428789187 -0.00020187448595810551 -0.0004930001408481016 0.00022991770233382117 -0.00012881464122275286 -0.9645476567442205 0.07578769958691772
4.0407142857142855 -0.7780330620058544 0.4214987946495614 -0.0006606587859529938 -4.57885789359188e-05 -0.00010480399057348899 -7.766935008582676e-05 -0.9590100781432939 0.07846714959415503
4.041142857142857 -0.7647890192119327 0.425297544390332 -0.0004886469131192428 -2.117764899833844e-05 0.00024125201806161174 -0.00019648029597259928 -0.9687275170430173 0.08609700885981789
4.041571428571428 -0.7648234373108512 0.4352992527197501 -0.0003841496489994209 -0.00011506290044698326 7.127436538499229e-05 -0.00022325440460563734 -0.964900434080797 0.08419828386596692
4.042 -0.759361655837201 0.44343662121811106 -0.0006149257908520908 0.00022826104389001535 -1.1513250019465207e-05 0.00029933938043241585 -0.9618966566607495 0.0890159424330138
4.042428571428571 -0.7550965756423454 0.4470344828713188 -0.0005273744374755661 -5.2366414305886934e-05 0.00026274698750251884 0.00020532641436992816 -0.9574275729463906 0.09185485896038129
4.042857142857143 -0.7544876662956633 0.44452195322165744 -0.0003688183373880056 0.00019878011113169436 0.0001424180399702566 0.00020606696207635627 -0.965568347592749 0.08929502789201747
4.043285714285714 -0.7491083540611891 0.46230099669530156 -0.0005206314586745493 0.0002122104600658403 -0.00023025343264497492 -0.00016293661467330162 -0.9641750218323384 0.08513755164471917
4.043714285714286 -0.7438130660767176 0.4627520136658781 -0.0005117946878192401 6.233614348025878e-05 -7.562921311126624e-05 -0.00017098493021413817 -0.9665882769400476 0.08480048358522733
4.044142857142857 -0.7424232195662581 0.4718027225473382 -0.00016043207926172182 0.00023951500812125273 4.474402334810168e-06 -0.0002403205640809457 -0.9632632190070428 0.0966044203701062
