!Created with skrf (http://scikit-rf.org).
# Hz S RI R 50.0 
!freq ReS11 ImS11 ReS21 ImS21 ReS12 ImS12 ReS22 ImS22
4.0 -0.8280098911144331 -0.2521721086935658 -8.171377969741454e-05 -0.00025663373367397133 0.00016594297156324205 0.00013596239417636586 -0.9623191136959691 -0.13032339482375888
4.0004285714285714 -0.8357359070562854 -0.24639701004665251 -0.00019242997873647095 -0.00047773503657506667 2.3296806054469792e-05 0.00014718786209109769 -0.9712971968780961 -0.1227720088336339
4.000857142857143 -0.8389991893338329 -0.2361119997136824 -0.0001609293894882489 -0.00045160014054213807 -0.00022367023459252553 0.0002700334467063619 -0.9666230310071444 -0.1155803665814191
4.001285714285714 -0.8329507554719704 -0.2327046164797096 -0.0004172903762426427 -0.00033604325808084793 0.000130690615367016 0.00021512226700673285 -0.964525450242967 -0.11787553018216512
4.001714285714286 -0.8397808889209621 -0.22455844350652862 -0.00033252069954175085 -0.0004986197963891448 5.2080041531386345e-05 0.00028187326775855646 -0.9657708379348838 -0.12226942459348217
4.002142857142857 -0.8388392335773502 -0.22443095777613697 -0.0004329996918813944 -0.0009441424278693485 6.868200425981078e-05 9.584012141498839e-06 -0.9649458235487304 -0.11250053972649318
4.002571428571429 -0.8422162033047462 -0.21470317855812993 -0.00039402700449177276 -0.0004607913286018148 -9.440314261203836e-05 0.00014263788469060518 -0.9689406836968354 -0.10624177539908719
4.003 -0.8455879330837683 -0.20096315958209515 1.953711989158433e-05 -0.00038941363021145704 9.399979821979605e-05 7.112740426729656e-05 -0.9677873649935783 -0.10526560184456049
4.003428571428572 -0.8487787011742707 -0.2000851684397631 -8.813478307020839e-05 -0.00028841351824230747 2.7267552076286862e-05 0.00034562571460341297 -0.9624741373181854 -0.0994568459768895
4.003857142857143 -0.8444055957214487 -0.19156306793499328 -0.00024514880286859403 -0.0008349354026786298 0.00013655135394141654 0.0001132046738278591 -0.9702919258149846 -0.10994753546218348
4.0042857142857144 -0.8559540244194344 -0.18342908912031358 -0.00040596193022876493 -0.0009412319305584668 1.9227401585513613e-05 -0.00013447740705771672 -0.9652613219971311 -0.10034916803432117
4.004714285714286 -0.8509500138163117 -0.17517008420839386 -7.707848981477806e-05 -0.00044418624145437473 6.434179088389768e-05 8.306131242678595e-05 -0.9612278083303372 -0.11012946618286198
4.005142857142857 -0.8531294385990644 -0.16655982393206398 -9.535968671685991e-05 -0.0004927440810984564 -0.00012549236431212783 -7.833939743366426e-05 -0.968988975453596 -0.09652254350790293
4.005571428571429 -0.8536115629836823 -0.16093655365243775 -6.736769617030633e-05 -0.00047302708348217316 5.625608613266553e-05 -0.00012747386567402714 -0.9605944768519085 -0.09491685417506762
4.006 -0.8555245383918918 -0.15705412391888482 -0.0001775287281694512 -0.00013437288577279575 -9.275960207275561e-05 -0.00012911153588173786 -0.9717241714655563 -0.09361606538247674
4.006428571428572 -0.8558047844646509 -0.15362829264091107 -2.3198186313117638e-06 0.00010094899170534223 -0.00014241600377419794 1.7274047056473238e-05 -0.9681771448597679 -0.09406282270155393
4.006857142857143 -0.8611171072067417 -0.13924182392439113 -0.00018627477258426119 -0.0004071938657199553 0.0001617316044577451 -2.86651544086179e-05 -0.9644500356957202 -0.08644729451163992
4.007285714285715 -0.8638496055603648 -0.13341779574971335 -0.0002214415173864814 -0.0005900517079973278 0.00011248998004067664 8.445395103526597e-05 -0.96866113958935 -0.08189310247978633
4.007714285714286 -0.8603827374072601 -0.12878470138454898 -0.0005611537871065203 -0.00014403465682811558 0.00014714038535516177 6.360229904482232e-05 -0.9630100648909868 -0.08454002838141272
4.0081428571428575 -0.8635283158130475 -0.12694726285045874 -0.0003608884725925225 -0.00019644162942817364 1.4926613101357083e-05 1.2477716380972658e-05 -0.9689493395212896 -0.0886156438996513
4.008571428571429 -0.8644531273656245 -0.11315770217273217 -0.0004602854649143084 -0.0003995206197780678 0.00021146461912986185 0.00013718986396561508 -0.96299419725594 -0.0794396016461334
4.009 -0.8655017252827203 -0.10722102065237515 -0.0002477239113626529 -0.0001523282670712484 -1.819114073850709e-06 -0.00011142846082500575 -0.9754878856454889 -0.08487264236694528
4.009428571428572 -0.8616606490672353 -0.10318745307203811 -0.0004923685790494105 -0.0001188304538181631 -0.00010424468594687787 -4.134063820918352e-05 -0.9753098832419406 -0.07635376187505528
4.009857142857143 -0.8651658261444869 -0.09164077946015489 -0.00040824976744048655 -0.0005428930585624593 4.444095977520465e-05 -0.00011058222099532494 -0.9680255956573226 -0.07096650500334231
4.010285714285715 -0.8687390665957659 -0.08570721245989794 -0.0003736311248107562 -0.0002741702033414055 0.00020106767579120767 0.00018159607619267965 -0.9652444276208932 -0.07294912930314923
4.010714285714286 -0.8686490238303334 -0.08067584676027562 -0.0005051426534172553 -0.00027953550932415655 1.64307108288437e-05 -0.00010852649049041563 -0.9689597407146768 -0.07288973166297318
4.011142857142858 -0.8644431528825995 -0.07538444002848171 -0.0005036032614133027 -0.00020998311047580053 7.59921586365691e-05 -3.1311041683478094e-06 -0.9699228669211271 -0.06588868903581709
4.011571428571429 -0.8662970639844682 -0.061448938188382256 -0.00037591769641160674 -0.00018003963979634075 -0.0004005236595096911 0.00017934014706909654 -0.9715139338852036 -0.0676714733589654
4.012 -0.8694577780726288 -0.057966806959408416 -0.00040193133085448076 -0.0001409719158709388 -7.892182793333928e-05 0.00017221151339423077 -0.9762981676942291 -0.06461974319804359
4.012428571428571 -0.8658348528332241 -0.04863844265034454 -0.0005590789845018129 -0.00038763589317704973 0.00011158777549685898 4.2198100455058095e-05 -0.9621563851725906 -0.05561464160680632
4.0128571428571425 -0.8749878189658303 -0.04022047101886145 -0.0005084360804111276 -0.0001454092100372852 -0.00027619820826370713 0.0003088608117427885 -0.9655535327557823 -0.06348068401290359
4.013285714285714 -0.8637086690352715 -0.03613881990890775 -0.00031190876017333754 -0.0004372648053347815 0.00013888981548635103 0.00015522365802724276 -0.9604125149417169 -0.05781991226802336
4.013714285714285 -0.8667596847866301 -0.025196228626618942 -0.00016414875357599853 -0.0003634268581744693 -8.60191578521551e-05 -0.00010624717908005122 -0.9753751566219457 -0.05303692000514575
4.014142857142857 -0.8668075225423416 -0.019691715569872006 -0.0007108892489292908 -0.0005385955459832886 2.0539717448482667e-05 -4.238452544385867e-05 -0.9702316933603148 -0.04688228334117514
4.014571428571428 -0.8653306713823486 -0.01681188009258899 -0.00021309589275086632 -0.00048335458538567805 -0.00014233804540842712 9.025340223312752e-05 -0.97052308323034 -0.05240965137529079
4.015 -0.8758898484608245 -0.003997216604075716 -0.00038481179450191135 -0.00028565162484938203 -0.00013232850777717802 -0.00017714642925247055 -0.9644205954447799 -0.05175228170337164
4.015428571428571 -0.8708942017430898 0.006060329573945577 -0.0007234384953328847 -0.00038530153651404944 8.782336419542274e-05 0.00011950858198564652 -0.9723144459768096 -0.05177307856829393
4.015857142857143 -0.8693112716107939 0.011234654051698606 -0.0002728587107394991 -0.00018941791438917106 0.00013219426698206696 7.379781113830324e-05 -0.970721622383518 -0.045396585307152515
4.016285714285714 -0.8692443864430759 0.017284432550859694 -0.00045179690803301447 -0.000311903772221571 8.86366520687069e-05 -6.464907668844376e-05 -0.9641146621226526 -0.04358754210132446
4.0167142857142855 -0.8689879231016631 0.02325857933843191 -0.00017210665323287827 -0.00043566614929092275 -0.000222245318308594 5.830262186667176e-05 -0.9660291505419778 -0.049684350865262746
4.017142857142857 -0.8666395497552689 0.0316830342836977 -0.0006794337993074239 -0.00017982431954530748 0.0002504374579092412 5.4980184946851235e-05 -0.9622815898729441 -0.04041990466295295
4.017571428571428 -0.8702622788627569 0.037694759258140746 -0.00030560181908813295 -0.00016941966320581728 -0.00019261206389766124 -7.751657085069103e-05 -0.9721709840614176 -0.04376314952957161
4.018 -0.8672168383649639 0.04190743549564972 -0.00016372717820617292 -0.00016647977359786684 -9.256863006042207e-05 -0.00010606600363322391 -0.9705709953647021 -0.0403445598973822
4.018428571428571 -0.8717570506471626 0.05002206162739336 -0.00040168412632279334 -0.0005762143992637138 -1.730679796257633e-05 -0.00019335600610372784 -0.9713468412364542 -0.03392434479777521
4.018857142857143 -0.8634556752280711 0.05951115158331127 -0.0005786313449618829 -0.00040420654735419994 0.0006473879222999176 2.6120265701680236e-05 -0.9610589558019018 -0.026482103557190634
4.019285714285714 -0.8632403335930239 0.07093927183107487 -0.0008389502548341429 -6.2432015412085355e-06 -0.00023233061914096505 0.00035790457253586093 -0.9699344577237416 -0.029756296356779885
4.019714285714286 -0.8678115991269474 0.07899070065983528 -0.0005824291787097566 -2.7878418936325375e-05 -3.4333765781905112e-06 7.834066624901964e-06 -0.9635678266335861 -0.02890943323463191
4.020142857142857 -0.8673542115604124 0.08090834539345428 -0.0006469416019620898 0.00012743901557746239 -2.2868861333673394e-05 7.8408924826584e-05 -0.9677713050303022 -0.026282717474864065
4.0205714285714285 -0.8670610012980631 0.09396087866926847 -0.0005984700795804765 -0.00044830443622099873 0.000361274249974744 -2.4010676822239323e-06 -0.9686588636082858 -0.0262675174121118
4.021 -0.8641304620472728 0.09365881706007635 -0.0006804382576294711 -0.0001360118304405641 -1.3033670974624276e-07 -0.00014226678150615926 -0.9664594229832809 -0.020999396164411144
4.021428571428571 -0.8617064169129997 0.10640174454903324 -0.000495731741753469 0.0001760591371011755 0.0001352362051569323 -5.557801335290484e-05 -0.96894057201763 -0.019020685257335607
4.021857142857143 -0.8640722861861521 0.10839402836050277 -0.0003875923925914966 -0.00032056877887227193 -7.746652946591166e-05 0.00011100383046338299 -0.9678170570048672 -0.01405299337565964
4.022285714285714 -0.8535650206267716 0.11294626210877731 -0.000542698191329253 0.0001495606477358212 5.177793897057401e-05 0.00011503409514009725 -0.9749970387252772 -0.009291076827784475
4.022714285714286 -0.8591849233477395 0.13053061710798136 -0.00038464987561693105 -0.00021352610072363266 0.00010616856595327668 8.484964250911103e-05 -0.9661432427988585 -0.014389984266133369
4.023142857142857 -0.8586547353783148 0.13470766682304625 -0.00037833613365653766 6.933055790277833e-05 -9.14665434693925e-05 -0.000391122391326503 -0.9670052727971251 -0.008477882381297543
4.023571428571429 -0.8578709817960392 0.13657098942057072 -0.0007447188242494676 -0.0001173916545626679 -0.00012293259525203096 -0.000336588491493428 -0.9638741000711766 -0.005327752563172006
4.024 -0.8535262390321399 0.14712031028896327 -0.00013989014521242687 -0.0005893289165727806 -0.00022354848949019155 -0.00025620351210718715 -0.969377382400475 -0.00889901095779362
4.0244285714285715 -0.8569730234785686 0.15116536109508832 -0.000937268553388095 0.00011037785634650001 0.00010434519046837522 5.642465182493718e-05 -0.9682234997979352 -0.004744034533331723
4.024857142857143 -0.8554981041656033 0.1633053133602374 -0.00010188026460174098 0.00014514939837802197 -4.945931206344539e-05 0.00022935876881298762 -0.967765091651492 -9.647077220384877e-05
4.025285714285714 -0.8555403439632129 0.17046092171271035 -0.001017487736262129 1.742242281125596e-06 -5.794209760578374e-05 0.00020583784643950803 -0.9671563957968528 0.003168042288475944
4.025714285714286 -0.8529641133776018 0.17742794944140625 -0.0009146714402640236 -0.0004575968609980409 -0.00023525931684578497 0.00041194465030435266 -0.9747768508364864 0.007873609018179665
4.026142857142857 -0.854188201363936 0.18248624142362577 -0.0005803189046119847 1.10151408505027e-05 0.00017194161488635751 0.00022127583968883013 -0.969220051637318 0.003265616502619182
4.026571428571429 -0.842092542233019 0.190547708107533 -0.0008413618420413677 -0.00010970151612002255 0.00016821246832304272 4.656733669223971e-05 -0.9748202240409761 0.006742912500639285
4.027 -0.8454419162552554 0.1964236248348151 -0.0008036631389685367 0.00020321393117539557 -0.00019692581774931109 -8.086663838545083e-06 -0.9693103446063515 0.003753448254388801
4.027428571428572 -0.8492378063468022 0.19886741545466308 -0.0005616934445933792 -9.968000020971237e-05 -0.00021603259166138778 -5.092064398084069e-05 -0.9649234435264125 0.016083319131876987
4.027857142857143 -0.8427962945438748 0.20729051615449184 -0.0005233918232366439 0.0001571374378501193 -9.95443970761468e-05 0.0004138854615161484 -0.9742157176413098 0.009410859215345613
4.0282857142857145 -0.8427876589424989 0.22148959528458417 -0.0006434099133951328 0.00018525553753575376 -0.0004024975021400835 -1.5159113638537653e-05 -0.9738040639862331 0.021782853319919304
4.028714285714286 -0.8464259515774586 0.2200457606495711 -0.0006178537796881743 0.0007756235244622549 0.0002529962157970088 -0.0001838344586368604 -0.9701146596826848 0.013356685885217223
4.029142857142857 -0.8419590222713222 0.23564953603319574 -0.0004365868320049543 -7.406041599401734e-05 7.426195521673188e-05 -0.00020610469146467388 -0.9699980220094251 0.023726220900783263
4.029571428571429 -0.8405701266712909 0.23785526466924312 -0.0006360559677661643 -0.00013087499938829394 5.539094432213451e-05 9.637081271690854e-06 -0.9643238695957286 0.02004300813621213
4.03 -0.8337804375700332 0.243136052856033 -0.0006704093452828851 9.133016780271257e-05 -0.00010694376996375082 0.00020606663960991007 -0.9731451788268863 0.03257982638372502
4.030428571428572 -0.8327747661349267 0.2553193611049857 -0.0005818187534326993 -0.00010990031162293938 0.000117036204865472 0.00018730077966570287 -0.9690878966641826 0.02794833300587634
4.030857142857143 -0.8349742602422611 0.25744397569028926 -0.00040385988122771 -0.00017559234215279145 -0.0002752617964814852 -0.00012008396885180908 -0.9704874744084786 0.022807688071500767
4.031285714285715 -0.8283521270647796 0.26597210926805276 -0.0006321298247032896 0.0001471403082313953 1.2472217180771822e-05 2.6995482003965947e-05 -0.9686904109481292 0.03571179663211165
4.031714285714286 -0.8242574023081787 0.2670248561936367 -0.0006290552246275244 0.00021308962581477827 -0.0001578384493449763 -0.00012357585930452135 -0.9638832594718428 0.02444675408939074
4.0321428571428575 -0.820963900939635 0.27885393005324577 -0.0003764538163071748 0.00024264717438413807 -9.116860231245022e-05 0.0003358892281934938 -0.9699681139588684 0.035823755149827344
4.032571428571429 -0.8217853828903181 0.2859411731781105 -0.000310111548515459 1.0620192776598512e-05 6.427230324116824e-05 4.104949997760585e-05 -0.9639988835780179 0.0431683776755467
4.033 -0.8228990892585573 0.2914005717562922 -0.0005910668706801427 -0.00011141102032052052 0.00023953518145605494 0.00013572222700942576 -0.9637367533015817 0.044156064435726325
4.033428571428572 -0.8251181340819455 0.2998707587326943 -0.0007189186003978629 2.48311659437953e-05 0.0002944769727768361 -0.00019741845164415059 -0.9634040552045732 0.038685865489366277
4.033857142857143 -0.8165193899416135 0.307256929086638 -0.000928234287756197 -0.00011003062799549987 1.736668143768836e-05 9.423959648654335e-05 -0.9647798640191788 0.044805113690898936
4.034285714285715 -0.8100552836640589 0.31191356558020994 -0.0004740538502747669 8.054162063462282e-05 -0.0002372438044136277 -9.708376697364462e-05 -0.9661262021403919 0.042792624847537826
4.034714285714286 -0.803816518128214 0.3229031774713439 -0.00036417865765253914 7.070071550001062e-05 -0.0002818759617442513 2.2942509039636125e-05 -0.965713738038514 0.050490843571080975
4.035142857142857 -0.805906805127942 0.32524170829658017 -0.0005943901546892199 0.0003035914788381899 0.00029793936394508777 0.00019608779718805277 -0.9675949133325088 0.05135411116701516
4.035571428571428 -0.7980851069403266 0.3323292528866166 -0.0001714675677432498 0.0002771336633156104 -0.00033003945570364476 0.00021632871416927938 -0.9686413393813216 0.05677959957834799
4.036 -0.7958892368798307 0.3429977797006558 -0.00022199466759976352 0.000591982102428668 0.0001240924881452298 1.9232701789445043e-05 -0.9714689516620953 0.05490024166228616
4.036428571428571 -0.8051792985185643 0.3422536162623449 -3.5895327416885956e-05 0.000338494347681393 -4.0220045858622006e-05 0.00016437179666444168 -0.9686153810809742 0.052258465259239203
4.0368571428571425 -0.7979658029316397 0.3546602049180165 -0.0005807349580002754 -5.7880436000170756e-05 -0.000251300811704856 -0.0001663817333274114 -0.9685076144170379 0.05387300694040024
4.037285714285714 -0.7880827681232856 0.3611288466465144 -0.0007411071516894092 0.0004040544364383226 0.00016844403898868084 6.829645851473078e-05 -0.960607070256775 0.059165143468847756
4.037714285714285 -0.7886625565574747 0.36103186783176167 -0.0006324785927179075 0.0005291882553006469 0.00017758868612080086 2.4078075972162452e-05 -0.9713499093007716 0.055052234282088504
4.038142857142857 -0.7850915554648832 0.3806646468319231 -0.0005647454715507336 0.0005454443853444973 0.00010014925152140962 -6.789902752305909e-05 -0.9632909613516234 0.06027129499539513
4.038571428571428 -0.7833447257311682 0.3800387416492884 -0.0006027265474054573 0.0007492824278563112 4.161319452057958e-05 0.00016988390839197816 -0.9622575615594449 0.06634431269711863
4.039 -0.7810340486348188 0.3834152487873824 -0.0008322520327177121 8.109079217289369e-05 0.0001431255514618445 0.0001810086946456746 -0.9586365463393036 0.06415376420316801
4.039428571428571 -0.7712620940901193 0.4008157810844419 -0.00047713893739636317 0.0003793463243588276 1.5165359816282485e-05 0.00024010887870554723 -0.9639330380720726 0.06818541283705133
4.039857142857143 -0.7754766193428008 0.3983253776737618 -1.3243975567595464e-05 0.0008483728711628948 5.019808158189691e-06 0.00010231702406973365 -0.971390531481511 0.06884045736616998
4.040285714285714 -0.7714018692097887 0.39851435970657123 -0.0003208322410106548 0.0006163857340043615 6.922443988344921e-06 -3.258204207756887e-05 -0.9646550902912306 0.07457624823421614
4.0407142857142855 -0.7721384187248802 0.4125718612916193 -0.00045817570428853744 0.00021913454158460622 0.00015036625314008973 -9.440508686733088e-05 -0.959821990619946 0.07442134669202881
4.041142857142857 -0.7577518386132343 0.4150195952131414 -0.0008892664588370325 0.0003313450046708723 -7.910094653713688e-05 -0.00011365548985705155 -0.9696622642902084 0.08469233906569552
4.041571428571428 -0.7558934253186043 0.42362305946836365 -0.0008899962898700948 0.0005089126865766588 0.0002890637628626264 -3.4977465940607532e-06 -0.964340738175799 0.0830992062986456
4.042 -0.7528131605743698 0.43414175026449653 -0.00022595684699842087 0.0003881595650886649 -0.0001697445913205983 6.184110307788679e-06 -0.964034398848285 0.08863241552522369
4.042428571428571 -0.7498448975265861 0.43639273055417854 -0.0004634375623647281 0.00010884061683214154 3.0129842738850027e-05 0.00011086752381930783 -0.9595834480828231 0.0908033419755659
4.042857142857143 -0.7478873518865203 0.43293837756176234 -0.00032569761743715697 7.336312709432662e-05 -7.363805745857211e-05 9.139158854367078e-05 -0.9670106457982649 0.08770254802772369
4.043285714285714 -0.7418765767048624 0.45096537249120466 -0.000260371386926707 0.00022196267969555288 -0.0003059744289207905 -9.414793623369416e-05 -0.9644243538739121 0.08605369485634404
4.043714285714286 -0.7346860222614156 0.4522657904391984 -0.00021142832336160317 0.00069258044025121 -0.00011772093832272138 -0.0001321542347590954 -0.9666667088649757 0.08264728321880968
4.044142857142857 -0.735905379887162 0.46088682783410634 -0.0005801449271864388 0.0003360908303490527 0.00020856263211439224 0.000130473600412201 -0.9619747782328201 0.09728235156467746
