!Created with skrf (http://scikit-rf.org).
# Hz S RI R 50.0 
!freq ReS11 ImS11 ReS21 ImS21 ReS12 ImS12 ReS22 ImS22
4.0 -0.8489707537549325 -0.2526127626955269 1.2688542915134778e-05 -0.00032583027507366577 -9.096363441957806e-05 -0.0001461709038656691 -0.9631124322475932 -0.13023884903667135
4.0004285714285714 -0.8543503831779192 -0.24689963211917426 -8.629331435292242e-05 -0.00026829413125347925 0.00020540354017950047 -6.278583419134006e-05 -0.9703696617154443 -0.12200420466591962
4.000857142857143 -0.8589855329961209 -0.23686842555828022 0.00011391889297866427 -0.000518425308194873 0.0001648898354943739 -4.877533969297339e-05 -0.9666160955145978 -0.11671352584492105
4.001285714285714 -0.851077897482478 -0.2308131157841042 0.00039380220223491887 -0.00045608524536233305 0.0001903478858443823 3.919415739529879e-05 -0.9641017068302872 -0.11582193454766293
4.001714285714286 -0.8596470627220782 -0.22295661754364882 0.00011995223333250264 -0.00047670027838446683 0.0001380450462649318 -0.0001467415177908701 -0.965767934289182 -0.11995147221382348
4.002142857142857 -0.8577545292174817 -0.22223520202168773 -0.0001189647370904067 -0.00036955108102707597 -0.00015089432848869222 -6.302625751238917e-05 -0.9647150035642248 -0.11211202219961304
4.002571428571429 -0.8617452098648134 -0.21315270786042118 0.0003784328643492304 -0.0005339720298928602 9.437559106570592e-05 2.7930586324131013e-05 -0.9699804321308896 -0.10707510375284184
4.003 -0.8653906672409813 -0.2012720146891653 0.00014381314550605153 -0.0005763544972343608 3.122226092012366e-06 0.0003270649171147111 -0.967956000498013 -0.10460482610386887
4.003428571428572 -0.8672012515916928 -0.19723447983216594 0.0002091174258861925 -0.0004304000806578892 1.6009289370660228e-05 -0.00010519706980413758 -0.9609819568327511 -0.09772875816646293
4.003857142857143 -0.8637466193582201 -0.18883283178760835 -0.00016452042621278073 -0.0001569949990907457 0.00012636964812832478 -0.00023103676091951054 -0.9714644809461219 -0.11127392383898459
4.0042857142857144 -0.8739331083775105 -0.1826679537314762 -0.0004573153503289695 -9.743686680634913e-05 0.0003269694062572575 -0.0001809752369660472 -0.9657495616779368 -0.09817617873380134
4.004714285714286 -0.8714854231993181 -0.1732752333186732 0.0004004243910236309 -0.00038909472001598237 3.435750028655754e-05 0.0002137255832467991 -0.9595220416495266 -0.10675954340708453
4.005142857142857 -0.8719312965415791 -0.16426868684907 0.0001375350930870529 -0.0004641570109733552 -5.830632785608985e-05 2.569374850325231e-05 -0.9674699851838919 -0.09554276784182349
4.005571428571429 -0.8737734931475992 -0.1589266088360972 5.755790406827073e-05 -0.00043522207630334323 0.00022468671285205393 -6.826817253671285e-05 -0.9589859433567859 -0.09489732714153652
4.006 -0.8743649818259377 -0.15418588018176546 0.00013180185060649103 8.462534526565534e-05 1.180757249772587e-05 0.00018477025195311116 -0.9711738361467958 -0.0940547156330906
4.006428571428572 -0.874597291935398 -0.1496916852077751 -0.000277094455335602 -0.0006570852859064076 1.0954392035567021e-05 -0.00016011721624738825 -0.9678613452644229 -0.09218332141554057
4.006857142857143 -0.8806066923056934 -0.1385829341270565 0.0002957965329268957 -0.0001913526843810562 0.00041514241110946653 0.00024037948803314215 -0.9658466490284751 -0.08675134697586591
4.007285714285715 -0.8826714038992536 -0.13117093507597657 0.0001537819861576397 -0.00040986451851887174 -0.0001039473971282402 8.664018341851522e-05 -0.9695981067538318 -0.07943063174246526
4.007714285714286 -0.8801215204769818 -0.12688434576705435 8.808368052470675e-06 -0.0005424707453486641 6.9717408857448576e-06 6.714123232593751e-05 -0.9637470682658783 -0.08336592437976502
4.0081428571428575 -0.8814720911609626 -0.12225583623739018 -0.00010737647765222864 -0.0003478617389881788 -8.898767186122087e-05 0.00018112529503172127 -0.9666936203710952 -0.08794707173704164
4.008571428571429 -0.8843808871759608 -0.1089214702317267 0.00010000920412994382 -0.0006750144161967277 2.7781398672165092e-05 0.00016501252476830926 -0.9645897045060057 -0.07794341947445042
4.009 -0.8837399226411122 -0.10379663596464482 -0.00030928907162557876 7.570522002941719e-05 2.2819268440161958e-05 0.0001913347848960472 -0.9736091623264175 -0.08476839823721274
4.009428571428572 -0.8823547508433409 -0.10071938474972122 5.952267895865174e-05 -0.0004062274584301505 0.0001554277458938758 -9.761206578401017e-06 -0.9771442911918176 -0.07595908054236457
4.009857142857143 -0.8864680060310801 -0.08919499997271242 -0.0001576280720612478 -0.0007774745717104895 -0.00010326890173721081 7.84755017439684e-06 -0.9668681189750186 -0.07040833309718621
4.010285714285715 -0.8885897469703459 -0.08188402877286557 1.858355745196642e-05 -0.0005099740733808054 0.00040090682269381544 -1.998175362304488e-05 -0.9669584498103245 -0.07382738753112791
4.010714285714286 -0.885864894141704 -0.07554979187420671 0.00015364399858329065 -0.0003603795473296109 7.16512795977227e-05 -0.00020504233610757006 -0.9689888516227859 -0.07213640211661411
4.011142857142858 -0.8820631187642136 -0.07206616631087742 -0.00021716412281314404 -0.00023531472336201835 0.00014872801931314553 -0.00026662757864556795 -0.9701163237012124 -0.0658617412299169
4.011571428571429 -0.8851567994773202 -0.05860022326772323 -0.00010043797827174603 -0.0004902243889543369 0.0003015509642540775 0.00014156490052652607 -0.9719180733185826 -0.0671767246677105
4.012 -0.8899603486902773 -0.05448252286690117 -0.0002821418272553862 -0.0003125613284984838 3.931934869581067e-05 -0.00024091407305158966 -0.9751533758888695 -0.06269336815512758
4.012428571428571 -0.8852093888148372 -0.04682773940093382 -0.00042215258341137966 -0.000602252226853147 0.0001533265635455116 9.603491162280601e-05 -0.9627453079704418 -0.05367297730627385
4.0128571428571425 -0.8929229517173009 -0.03713265199538363 -0.00019523007677087065 -0.00031706907240970975 -0.00011977550961079467 4.381704156503302e-06 -0.9645729314940741 -0.0635291466344636
4.013285714285714 -0.884398904965028 -0.03259426133953807 -0.00019260307665164238 -0.000588906695271111 0.00014329308092230123 -0.00015043847153369935 -0.9639720281518452 -0.05900277122998064
4.013714285714285 -0.8863482796719995 -0.02238558616847237 -8.832663442527645e-05 -0.00037159277382494175 0.00017903711493171158 5.5020487790064436e-05 -0.9773932717925213 -0.04967100512590837
4.014142857142857 -0.8860905992082212 -0.01459879383878787 0.00048530174385010753 -0.0007715937659748398 0.00017660654516534204 6.295846504824689e-05 -0.9720435938090775 -0.04773829513781915
4.014571428571428 -0.8867266525990135 -0.012596361583049697 -2.729025413710637e-05 -0.0001678061438299915 -0.0001311148077992994 -0.00011271210113393898 -0.9688543642952863 -0.05225215715041942
4.015 -0.8939581011989501 -0.00212459605251577 -0.0005226670909501067 -0.0005193954913602345 4.251314758318145e-05 -0.00036170387439830344 -0.965004132271394 -0.05084097479072591
4.015428571428571 -0.8898151457767469 0.00964486115526185 -8.486416148273526e-05 -0.00047723439164032184 -5.3605002191018437e-05 -0.0001671837170546582 -0.9731321527379666 -0.05002905745675097
4.015857142857143 -0.8878100446542662 0.016345110687117432 -0.00015136783202006373 -0.0008379266504051599 -0.00025030937743059615 0.00012158451027210564 -0.9709667732805016 -0.046645103562088557
4.016285714285714 -0.888913698307503 0.02094367463355919 -0.00021803782974772997 -0.00036868675825531803 -0.0002005499390311873 3.493637570979622e-05 -0.9673505298712866 -0.04193463863106684
4.0167142857142855 -0.888538874814774 0.028042807182560563 8.139263417817704e-06 -0.0006232222015720574 0.00019004854326155302 0.00013038579568852923 -0.9659229509520717 -0.04849376327979828
4.017142857142857 -0.8850858809985924 0.03804028505929661 7.745001143802119e-06 -0.00028465323593920616 -0.0001535246090033886 -0.00014661711760090385 -0.9606639357858637 -0.039450638856137754
4.017571428571428 -0.8883738538902748 0.042591325617714906 -0.0002547039151362569 -0.0005415142414578389 2.522313095220045e-05 -0.00031953881898339457 -0.9727502583157803 -0.040261315351541316
4.018 -0.8860201774383579 0.04810657107363586 1.7942324502587444e-07 -1.4849690305233649e-05 0.00027041372163066527 0.00046463318717906125 -0.9682353060435681 -0.04035337204056395
4.018428571428571 -0.8909932003896757 0.05847923799565865 -0.0004247722380002033 -0.000376413799897194 0.0004158487062011336 1.442296593383341e-05 -0.9720438043378872 -0.034686434856658635
4.018857142857143 -0.8812212612471444 0.06773756466967189 -0.00010309937587333864 4.569883546727363e-05 0.00026651703914576115 0.00029519384069583675 -0.961957237543833 -0.02732882598738274
4.019285714285714 -0.8810657748352538 0.07798910364389211 0.00023222258891341654 -0.0004312956406574601 9.226091917379417e-05 7.884260961641619e-05 -0.9698115312418985 -0.02735513853493577
4.019714285714286 -0.8858630518112741 0.08610874648757837 -0.0004593300615960734 8.006970222038221e-06 -0.0003031695277756646 0.00015804717434293267 -0.9651783943518023 -0.02882564406184399
4.020142857142857 -0.8849544574480649 0.08742136820836803 -0.00039766580971293316 -0.0007170361634168661 -0.00011138278952615054 -0.0003749088291754015 -0.9705808796342512 -0.023106516811955954
4.0205714285714285 -0.8835493177628788 0.10197164110225154 -8.326691085778236e-05 0.0001348355163205788 0.00033673711655815466 0.00019696938962023334 -0.9676842523134771 -0.02578277697619758
4.021 -0.8809447809035333 0.10274578430945135 -0.0006194499413395038 -0.00019095066196792585 -0.0002469738499636598 0.00011014383261349493 -0.9684904833401558 -0.019921663986404575
4.021428571428571 -0.879553739771533 0.11463165704236199 -0.00043398834610354806 -0.0002603496201882804 -0.0001364864316886509 -1.4227395258908909e-05 -0.9681833124956882 -0.020142274000062698
4.021857142857143 -0.8816770830724641 0.1176741904614279 2.2608017211892977e-06 -0.0005010672602417459 -0.0002115458960524785 -9.699111988301383e-05 -0.967616841597018 -0.015463817392783573
4.022285714285714 -0.874214204812368 0.1210375149452649 1.0194622737002121e-05 -0.0005090735121469483 1.8962251134777605e-05 -0.00011032259782063611 -0.9748371791947165 -0.00757969808506488
4.022714285714286 -0.8783790161727426 0.13566799867069324 -0.0007391868677293223 -6.745422651983188e-06 0.00026938002435764535 -0.00023931887746303908 -0.9651281450410633 -0.012467326511202682
4.023142857142857 -0.8744486313189027 0.1419166765803913 -9.944533799366724e-05 -0.0004971243862237266 0.0002527983092228666 3.764255413183148e-05 -0.9677081764255742 -0.006662877360046553
4.023571428571429 -0.8752091015759623 0.1433642190178705 -0.0002338375314522246 -0.0005545895602893747 -1.6435926029073248e-05 0.00011129919729804024 -0.9630053289757559 -0.004923013923709864
4.024 -0.8711697289700817 0.15551261211008655 -0.00043962343897012505 -0.00019502884059605606 -6.25865623725616e-05 8.78401839008023e-05 -0.9712511461153157 -0.007196318658505264
4.0244285714285715 -0.8752707125768925 0.15790012461747813 -0.0002404221638128498 -0.0008009991175514243 0.00016160130383576505 0.000290231058622139 -0.969307208082433 -0.004387733407422173
4.024857142857143 -0.8745434245070837 0.1727990958113179 -0.0005487274673104747 -0.0007886750383334025 0.00031729144895902586 3.0697165544779776e-05 -0.9673910911899473 -0.001838551210845468
4.025285714285714 -0.8732194487633341 0.17946150573012382 -0.0005709788353386663 -0.0004317710394739079 -0.0007830327128882078 0.00028393879021043053 -0.9662246991842349 0.0021154604752649598
4.025714285714286 -0.8723909967747466 0.18424468846122397 -0.00022662436836928834 -0.00022885510304746951 0.00012433777753670172 0.0002921881296050436 -0.9755721947582396 0.011105150348076258
4.026142857142857 -0.8731013269759847 0.1916014012013145 -0.00047504479016706555 0.0001021983917493621 -6.273657303221322e-05 -0.0001409998603336839 -0.9712857377386446 0.0036629407083913204
4.026571428571429 -0.8610985355887836 0.1993610711707581 -0.0010863037118300266 -0.00020106374715416525 -6.763659648970256e-05 -6.8447834453612e-05 -0.9718843116129218 0.009646711732351536
4.027 -0.8616083632504363 0.20725773308762868 -0.00029826335637028604 -0.0001229316735438232 0.00011095505038755913 0.00016460760665361915 -0.9692633184449706 0.005967007575443449
4.027428571428572 -0.8673970206870173 0.207034732132752 -0.0006254981718750609 8.782124999032001e-05 0.00012326057547270238 4.153915652718217e-06 -0.9660759368322812 0.01714336636372605
4.027857142857143 -0.8615759827912843 0.21550583730212886 -0.00033472487154092515 -0.0003538090053778455 0.000361952044166178 0.00030524986304510647 -0.9733829701860812 0.010888962048604596
4.0282857142857145 -0.8605088551157395 0.23075301691209962 -4.703617494414632e-05 -0.000309902756509597 0.0001757918071914051 -0.00020811240286939774 -0.9722872985215678 0.022003739943136372
4.028714285714286 -0.8648851519366064 0.22908805715745412 -9.996099115773478e-05 -0.00016398491336897696 0.00016519426550680867 5.107368495557973e-07 -0.9681375929427077 0.013140694106366948
4.029142857142857 -0.8584570713983753 0.24200741321370195 -0.0002589052151402595 -0.0002813271264419084 1.9902772076945336e-05 -0.0004125469424845148 -0.9691418554411287 0.023179304930280566
4.029571428571429 -0.8550630902320501 0.24570702319863735 -0.0003057223434385521 -0.00028250653463408003 -0.0003334520907784872 2.543761106656204e-05 -0.9632779241656808 0.02209475865345471
4.03 -0.8497299195422542 0.25290492904673 -0.0001377111816563304 -0.000263543183005067 0.00039010996324721347 -5.53515591424125e-06 -0.9735689890848656 0.03426236885354619
4.030428571428572 -0.8494974972644155 0.26406529538414086 -0.0001635451449947859 -0.0003118682316638259 -9.426452098551073e-05 0.0001890553102306163 -0.969797576495933 0.02872329397051505
4.030857142857143 -0.8530761510381433 0.2665144849065989 -0.0006557295304188615 -0.00031931409619877276 8.50461467261231e-05 0.0004199113863193626 -0.9718723671747092 0.023166751306187824
4.031285714285715 -0.8446467752357322 0.27579572686351406 -0.00042860450999827643 -0.00024218804267210452 0.0003749408229826449 2.4993256576188046e-05 -0.9683085225595938 0.03436057010710865
4.031714285714286 -0.839840825032315 0.2781739127821953 4.516429919419179e-05 -0.00012783122753293636 7.503843405516666e-05 -5.153055903359705e-05 -0.9650155520875158 0.026600481443075523
4.0321428571428575 -0.836797177809326 0.2873276922558739 0.00010528851952418619 -0.0005285472479416138 0.00025773499901105267 -7.940532636281494e-06 -0.9713520522121355 0.03448687216793294
4.032571428571429 -0.8385865711685617 0.295750226617835 -0.0004638712185520796 -0.00015506669109504765 -0.0003623634472275795 -2.6481932873563638e-05 -0.9656746142935929 0.04509094085330463
4.033 -0.8371070590076045 0.3011449444743762 -0.00044449028770754076 8.91267687381182e-05 0.0002583442650401391 -7.167912679043701e-05 -0.9664415472243821 0.0451569098901049
4.033428571428572 -0.8413047541494263 0.3103244297664452 0.0003607528704312923 0.0001979582494559322 -0.0001236320989232716 -0.00023250550165145953 -0.9629490959491209 0.039197848273328985
4.033857142857143 -0.8343494729188866 0.3170545518217903 -0.0006992000886674181 0.0002385833535535583 0.0003612415444288732 3.293467430155027e-05 -0.9633196366957428 0.04361941728609543
4.034285714285715 -0.8258581523935284 0.3210460700191364 -0.0002353758868011128 -0.00011967812199587272 0.0003446363995791754 -0.00021237182672405157 -0.9655281586593818 0.04175823216896952
4.034714285714286 -0.8205354469848744 0.3343750884632713 -0.0005320984486709157 -0.000284402204247899 5.643539368670194e-05 0.00018242674251124993 -0.9650509770893763 0.051179332083173566
4.035142857142857 -0.8205494589697158 0.33568028433246944 -0.0005030480992953226 -4.271307701025428e-05 -0.0001427966193824648 -0.00035691279804011996 -0.9681850877863211 0.05193115296362156
4.035571428571428 -0.8151269443939778 0.3445606225152616 -0.0001447532878540509 0.00024413171334436873 -2.550883316105449e-05 -7.17733414484621e-05 -0.9660437522696042 0.057210388947403726
4.036 -0.8127978680590214 0.35464947712210776 6.76917262847741e-06 0.00015576999047273204 -4.172543376239688e-05 -0.00012277425364282473 -0.9687174682544882 0.05687396213340816
4.036428571428571 -0.8197469279057703 0.35224294834736986 -0.0005908556074233313 -0.00020994374827893697 8.936579192639113e-05 -0.00012474240225620776 -0.9689349656833001 0.05303925905456081
4.0368571428571425 -0.8133424020031644 0.3663205565992873 -0.0005261897162294158 -0.00019672045506983628 0.00013708085456170567 -1.8504358216601063e-05 -0.9707827739668231 0.054643363187280955
4.037285714285714 -0.8044721373208303 0.37186739403171787 -0.00043402644927764965 -1.549039385136928e-05 -0.00019009499753394526 0.00010772220894744 -0.9638993209793699 0.06027295806097783
4.037714285714285 -0.8034001277645932 0.3725806343187318 -0.000722687828907236 -0.00023202404231190734 -0.00010934226115664102 -0.00015404853770823338 -0.9687821271025199 0.058015537161514696
4.038142857142857 -0.7968177952902634 0.39253307156605516 -0.0002969011808082289 -8.988005420934413e-05 0.00027056737358695877 0.00010697700905284425 -0.962961862748155 0.06240756337550472
4.038571428571428 -0.8016845915325252 0.39228392416792635 -0.0002646194790123826 -0.00021650755581900823 8.56828621268761e-05 3.491457968318541e-06 -0.959533835547578 0.06753351415462362
4.039 -0.7959887593164706 0.3951261573657314 -0.0007039065614643077 -6.174452330227376e-05 -8.643307906370891e-05 5.8721971345354433e-05 -0.958987420405066 0.06533131137809808
4.039428571428571 -0.7879635487320028 0.41195363759152076 -0.0005080767623935563 -8.452176702712846e-05 -0.0003265037845018052 0.000174072935170007 -0.9632969292279443 0.06819911071774755
4.039857142857143 -0.7920959943093182 0.4105731789027222 -0.000298332927237532 0.0002256381262751371 0.00016864850558198386 -0.0001186447426103379 -0.969318411522365 0.06861648212920558
4.040285714285714 -0.7867049378017189 0.41086652061301965 -0.0004177089895389852 4.818387145295853e-05 -6.672280786790159e-05 0.00011965272500976908 -0.9654164991379593 0.0754990010421353
4.0407142857142855 -0.7868107306814298 0.42308810988268625 -0.00032833845636250054 3.827996654494834e-05 -0.00036646466017447546 7.17385782018037e-05 -0.9609871268845112 0.0780589736582743
4.041142857142857 -0.773854330690939 0.4277342779680341 -0.00035957082429447483 0.000224123464358297 0.00033381613469219844 0.00018041487277049354 -0.9703589073359999 0.08483805860118492
4.041571428571428 -0.773566035985824 0.43677856474125953 7.042924491860083e-05 -0.0001505538416721702 9.581968582460117e-05 -1.4104584558907436e-05 -0.9647864281917223 0.08419009508012193
4.042 -0.7679844670089423 0.4459213673414374 -0.00032788941644494753 0.00019499771635123056 -0.00023503535018248688 0.000250405888471722 -0.9635424999756719 0.08891846759970462
4.042428571428571 -0.7639309390130554 0.4494036900052805 0.0002082477038181525 -0.00020438905646624287 -0.00013961011029064717 7.294679472633902e-05 -0.9578523220871425 0.093253921378423
4.042857142857143 -0.7645539644856666 0.4456051428207509 -0.0001221103404054585 -4.084378809066269e-05 -0.00016314642460615023 0.00011167829827473713 -0.9654555482228696 0.09001765000287747
4.043285714285714 -0.7574811144047967 0.4627876046478192 -0.0005238985621071403 8.001239653865473e-05 0.0001099550892741242 -0.0003417005567406828 -0.9652791505940961 0.08567280393310596
4.043714285714286 -0.7491424219603838 0.4655072642933059 -0.0006656012356208532 -0.0002968824933569158 2.5003817057423263e-05 -0.0001643442819856982 -0.9672609728230235 0.08384559076727166
4.044142857142857 -0.7514805627227646 0.47396458841589784 -0.00047568757435469876 4.302825569158792e-05 -0.00035959209669636977 7.377255109724404e-05 -0.9626297833026314 0.09605089423125776
