!Created with skrf (http://scikit-rf.org).
# Hz S RI R 50.0 
!freq ReS11 ImS11 ReS21 ImS21 ReS12 ImS12 ReS22 ImS22
4.0 -0.8492972262178894 -0.25387658621322756 -8.476444047612888e-05 -0.0004148684022325993 -0.0002227671939239395 7.977103740398028e-05 -0.9649265158551462 -0.12831809271650096
4.0004285714285714 -0.8577199834134492 -0.247820347451968 0.0002955179258866521 -0.0001399414534926733 4.5599593052989355e-05 8.005055691968156e-05 -0.971254220170403 -0.12223608767382739
4.000857142857143 -0.8601690558138078 -0.23740568222756792 1.8837293385953965e-05 -0.0006081844508744748 0.00015912293983854465 0.00014583987470023435 -0.9672641400680134 -0.11469006122104096
4.001285714285714 -0.8527985137396693 -0.23117725296636432 0.00017232197721421107 -0.0003654845433491109 -9.286099114456731e-05 0.00032885019638254754 -0.9659932981325551 -0.11739925069294571
4.001714285714286 -0.8615384875733261 -0.22205090151710402 -9.663122418456682e-05 -0.0002647544606899285 -0.0002950280555218539 -2.3845107709318642e-06 -0.9673567300977205 -0.11954073419432328
4.002142857142857 -0.8594418588749583 -0.22196398729213554 5.331784331617143e-06 -0.0005239825706549336 3.640550035043386e-05 0.0001611011140857154 -0.964470654117827 -0.11184340827545076
4.002571428571429 -0.8638046907030166 -0.21116740810075924 0.0006224006632819861 -0.00015939078334544244 0.00029429125068569856 2.8248203270611587e-05 -0.9707150783123817 -0.10594988550488224
4.003 -0.8676043851227454 -0.20087826317682983 -5.5274461341918985e-05 -5.048155946426991e-05 0.000212869934784927 1.2460049261206995e-06 -0.9691525913192738 -0.1035564382823272
4.003428571428572 -0.8688777820187923 -0.19823249902847018 0.00024867279158477263 -0.0006037981330957017 5.142045240380485e-05 -0.00019703577363509089 -0.96146454266524 -0.09832448263103849
4.003857142857143 -0.8655088608816278 -0.1895793044865745 -0.00024256638173433747 -0.0006050539641992141 0.0001593229116772367 4.922702161346988e-05 -0.9703489151474762 -0.11205933173001442
4.0042857142857144 -0.8770991295896107 -0.18263764982505268 0.00013803696127871404 -0.00038257734998388296 0.00026086109586260294 3.641366300015426e-05 -0.9669517625601161 -0.09844591897947487
4.004714285714286 -0.8713586204865641 -0.1727735218264834 -0.00015796764794279326 -0.00042400105315597715 -1.5618304492021434e-06 -0.00013469234082868326 -0.9589607380028324 -0.10780988662330089
4.005142857142857 -0.8733683832806749 -0.1649897558585236 -0.00033440234529137977 -3.0639747031965125e-05 0.00027801508998231067 -7.495911824301504e-05 -0.9696348858739262 -0.0948675019338425
4.005571428571429 -0.8735878609970065 -0.15850077318770392 0.00011156451428565607 -0.0005679545987090117 0.0001432663677581715 -4.143061532272977e-07 -0.960344620332901 -0.0949711527490282
4.006 -0.8780804571400558 -0.15454959955886702 0.0001720519413995672 -0.0003448307407883231 -0.00014749593822691807 -9.56441191858865e-05 -0.9696752623533168 -0.09259205172948642
4.006428571428572 -0.876085364900106 -0.15016455905840548 -0.0002902269433165486 -0.0005292633469865687 0.0001823503737088969 7.677074827166867e-05 -0.9682403715670579 -0.09295891168464271
4.006857142857143 -0.8820499223905808 -0.13793673488622737 -7.466078907382122e-06 -0.0004081920309606965 0.00022186382244732586 -1.8315679029529531e-06 -0.9648243757733086 -0.08628064854550377
4.007285714285715 -0.8839885460386936 -0.13060080893486917 0.0003905542981850579 -0.0002042518185570714 -0.00011489785165207937 -5.936408375564078e-05 -0.9673772355168335 -0.07963285435348785
4.007714285714286 -0.8812399356533035 -0.12535840609591717 -3.725251460558824e-06 -0.0003081690599939028 8.195134852634273e-05 -4.488966863939283e-05 -0.963352289784882 -0.08181957088672506
4.0081428571428575 -0.8838343094833772 -0.12309019187548548 4.8380090757600776e-05 -0.00036578181405398636 -0.0002446847015553924 0.0001410816366279242 -0.967436721753652 -0.08772335286963076
4.008571428571429 -0.8863655696291751 -0.10859314837355807 0.00036866594892710314 -0.00023451433265882812 6.480148017033926e-05 -1.4370852259523978e-05 -0.9647409131418905 -0.07784999486496098
4.009 -0.8862906130779654 -0.10540146326402508 4.968477708533101e-05 -0.00035884522383848393 4.381775430327834e-05 4.376238441882956e-05 -0.9744969628529211 -0.08411051731909505
4.009428571428572 -0.8840267961916667 -0.10100660445554233 -5.000657602674088e-05 -0.00023833876018785735 -0.000234963308753987 -0.00017851838768194754 -0.9781417217991147 -0.07455548118837253
4.009857142857143 -0.8867712872901943 -0.08816569747158368 0.00031997958273715727 -0.0006010514516289772 0.00016554807116139525 1.5252880478071666e-05 -0.9672103839092329 -0.06985137181874156
4.010285714285715 -0.8881405699918901 -0.08201189212686802 0.00011122573728231047 -0.0004867077748069858 5.551513147361976e-06 -0.0002490721329539985 -0.9641086465720451 -0.07312456162924597
4.010714285714286 -0.8879113478718098 -0.0747300731283828 0.00017215431895462895 -0.00013589711518270891 2.3723643710101244e-05 2.8497390714732674e-05 -0.9683818708409616 -0.07085780040586108
4.011142857142858 -0.884097689602588 -0.07046700027518485 6.426200692392883e-05 -0.0004799632985904447 -5.8057090842530096e-05 -0.00010992029475581717 -0.968807284093535 -0.06461473407366064
4.011571428571429 -0.8858047979784964 -0.058022812826847514 0.0001760676444895349 -3.5412242449175556e-05 -0.0001808548031355282 -0.0001898912287646058 -0.9727077340692313 -0.06736418627446654
4.012 -0.8907148124026273 -0.054021038935953634 -0.00012389617604279557 -3.83843104360344e-05 -3.603663319748309e-05 -3.330923349974289e-05 -0.9772692127311825 -0.06454394006047001
4.012428571428571 -0.8868273091931207 -0.04490139315077948 7.122562086686235e-05 -0.00028401900862481716 0.00033739481082687393 -0.0001971791710176985 -0.9640887878048973 -0.0560596907635924
4.0128571428571425 -0.8951679645091237 -0.035662958439604334 -0.0004911411643491499 -0.0002816953222746131 -0.00010569152199181455 -0.00021844769283232396 -0.9656954977554695 -0.06310138463109215
4.013285714285714 -0.8837377108572471 -0.03147628180951715 -0.00016017992927736506 -0.0003032973961556316 -1.964129107857963e-05 -2.8771250787351944e-05 -0.9613153056979653 -0.05861851079908696
4.013714285714285 -0.8867037912920732 -0.02285326149296769 0.0002548865077216653 -0.00036199711667300386 3.6269020953505954e-05 -1.757263854914487e-05 -0.9741440919386154 -0.05248034877412477
4.014142857142857 -0.8884051595065008 -0.014950497577793546 0.00022971511705246241 -0.0005473462960963388 -8.837463691680596e-05 0.0003152761644086919 -0.9720204185872316 -0.045243639081434764
4.014571428571428 -0.8869548144532171 -0.012558371232312637 0.00024564388382907886 -0.0005914929186985454 -0.00024810677521766426 9.086639182520772e-05 -0.9701835052073654 -0.05205783702960382
4.015 -0.8956574720593652 0.00011680672862988944 6.772803700066313e-05 -4.024329861617373e-05 0.000130298928194541 -1.012774482664678e-06 -0.9638898659478968 -0.05042194136815106
4.015428571428571 -0.8906472032165785 0.010238491944192633 -0.0002642803130774367 -0.0002241104439651894 0.00025567887166793614 -6.262158589704336e-05 -0.9725572771730028 -0.05139244480267772
4.015857142857143 -0.8910108583293695 0.015942763228878765 0.00041308575448503087 -0.00012373815662385012 0.0002852925632523565 -0.00015920596088638884 -0.9684365432018456 -0.04686393003579221
4.016285714285714 -0.8878383231960068 0.023879111885835094 -0.0006364169933247174 0.0001108515742011459 9.853739700926967e-05 -4.0625908095778774e-05 -0.9658215771902741 -0.042329369621116365
4.0167142857142855 -0.8882180853672006 0.028212396930882358 -0.0003592591195699108 -0.00022389354276765633 -0.0002952308540557384 -0.00010934589962209731 -0.9659037327282206 -0.050708473031179625
4.017142857142857 -0.8853800332966679 0.03778497692320117 -9.803131161232126e-05 -2.4527509214535912e-05 0.0002397481334138773 -0.0001283727166022404 -0.9614911222887641 -0.0393478429062791
4.017571428571428 -0.8902703755477558 0.04149849148151015 0.0001588011231406401 -0.0003857713200216592 -0.00019401615674002304 -0.00010673747523093936 -0.9724535791060748 -0.040889964089549924
4.018 -0.8868375809871981 0.04927132424795748 -9.221125247637969e-05 9.457290175359653e-06 -0.00044081192277000184 -0.00013199492694173734 -0.9699043848608131 -0.03933542088667054
4.018428571428571 -0.8907064883584213 0.05954436885400196 0.00020283391412578166 -0.00024226357581136581 5.278769213857144e-05 3.942346054522048e-05 -0.9717911118966982 -0.03340098885749748
4.018857142857143 -0.8823619487133672 0.06753138753312572 -0.00017600008389126099 -0.0004807838986424294 5.896468581418298e-05 -0.00012085988989327746 -0.9626626665875242 -0.026475831229046124
4.019285714285714 -0.8808887792468469 0.07664063482913283 -0.0001325737295542228 -0.00039307914566288503 -0.00018530917242218055 0.00029511711468852914 -0.9698885702334523 -0.027073576735695933
4.019714285714286 -0.886363832012796 0.08377455109619264 -0.00015988835811078393 -0.000372931859585471 3.0587713126485825e-05 -0.00011137322942484775 -0.9646468890038348 -0.029179499207945794
4.020142857142857 -0.8864029617061274 0.08879864927086924 -0.00014717970561350867 -0.0004272551295324772 -5.9776616540671617e-05 3.563909374898639e-05 -0.9684826875948845 -0.024205733166850724
4.0205714285714285 -0.8852689819959796 0.1036621658357262 2.856448386302725e-05 -0.0005527942035956283 -1.3011758388903682e-05 0.00020767064638153458 -0.9691414497911277 -0.0251058155471347
4.021 -0.8814831559249415 0.10129610413380467 -0.0006902053555276331 -0.00014073077837389365 3.801539070447187e-05 -0.0001176925280110498 -0.9673048084746098 -0.020929281226194415
4.021428571428571 -0.880803800300807 0.11370353442958529 -0.00020056754840357667 -0.00017666896368501492 8.707490439556907e-05 0.00014481655485730014 -0.9677555533622879 -0.018984992609343703
4.021857142857143 -0.8827100942787539 0.11707731260002262 -0.00019471894120682526 -0.0006744814304041778 1.641199212430127e-05 0.0002821126987618117 -0.9662218869289392 -0.015824443215024804
4.022285714285714 -0.8748248332284011 0.12253134312783706 -0.0006872861204100897 -0.0002987740596908309 -8.511876420944699e-05 0.0001068859965106817 -0.97542209496725 -0.008343666402202002
4.022714285714286 -0.8800660775862397 0.13931590807443497 5.7386374754085974e-05 -0.000524168184643285 6.82243876389961e-05 0.00023930628266618728 -0.9649965602392209 -0.01324071312377241
4.023142857142857 -0.8744759905329739 0.14188934709135684 -0.0008258195694718363 -0.00016380767399040204 7.352447621537458e-05 0.000295161149788995 -0.9659739984312896 -0.006785803060524651
4.023571428571429 -0.8782510001236409 0.14314528719844544 -8.340473402281155e-06 -0.0005468835757416198 -0.00041498863859478705 -0.00018937762941162665 -0.9624719641720311 -0.005191521176682258
4.024 -0.8710837996663666 0.15634265362111674 -0.000137804312115966 -0.00012757779131224677 6.348208004937262e-05 0.0001188081195628014 -0.9703264023991736 -0.0063433950045492125
4.0244285714285715 -0.8760584185729221 0.16184730625542681 0.0001413630791903213 -0.0002885407772872145 6.819206845410223e-06 -0.00029387452942433766 -0.9691703761806871 -0.001702723216906331
4.024857142857143 -0.8735448830209503 0.17048846497371953 -7.21501667489539e-05 -0.00017960509437162296 -0.00018682876341955923 -8.54219943811966e-05 -0.9680137571161505 -0.0007525392085531306
4.025285714285714 -0.8749025937290869 0.1793179357594519 -0.00047759672184810966 -0.00040878835596831287 0.00013359087561206959 -8.006054704965795e-05 -0.9651410075339483 0.0035418516108333535
4.025714285714286 -0.8730715518332999 0.1855408262965903 -9.674657665761201e-05 -0.00024819167546493576 0.00011563656963909867 -2.4923212435679215e-05 -0.9746371713503844 0.009709263071234228
4.026142857142857 -0.8741751529729065 0.19093130292367716 -0.0003380712736290148 -6.94359670569949e-05 -0.00017816711722254245 5.907608238676636e-05 -0.9691444489984081 0.0035485278923164483
4.026571428571429 -0.8611590005258171 0.20040066006671317 -0.00023858903784455438 4.9355219538757776e-05 1.6196325387460864e-05 -0.00011604031810845583 -0.9734779179654811 0.009962437299342382
4.027 -0.8642308424120863 0.20589975767857405 -0.00021936752936339106 -0.00021063405323469743 -0.00012108434015392529 0.0002781353467451427 -0.9692598473429009 0.00530783112353087
4.027428571428572 -0.867246931611574 0.2095398032931282 0.00022787036912328866 -0.00035163790376747933 0.0002381188352647596 -0.00012229230878396013 -0.9663787343377089 0.018205762565646932
4.027857142857143 -0.8623481296337995 0.2164192049499249 -0.000692188494677322 0.00011425551918215753 -1.0836629178879711e-05 -2.8955200001146188e-05 -0.9736942434769006 0.011565036277608593
4.0282857142857145 -0.8595193659954122 0.23056978497259328 -0.0002594615839798667 -0.0004977729661160664 0.00034462112187023724 -0.00017387773005007648 -0.9703222896124695 0.023174338138669634
4.028714285714286 -0.864791746772956 0.22922453991117603 -0.00021080055923820915 -0.0003967698239059386 -2.2594037457216237e-05 0.00017470904318331993 -0.9695559284063299 0.015092986912158657
4.029142857142857 -0.857498996186342 0.2442420262658842 -0.00016938225973438213 -0.0004375564771295073 3.3682634742464576e-05 -0.00012186483644995427 -0.9707950949097516 0.023620793530819677
4.029571428571429 -0.8579207188458781 0.24762942165741858 -0.0002952021923678417 -0.00012604087437249913 -8.732009579748484e-05 0.0001527899359913793 -0.9606838391849816 0.02211028260190638
4.03 -0.8518558184153969 0.2517463739849833 -0.0001132553403837076 -0.0002813676697850538 -0.00012489995950209807 -0.00024131798105239317 -0.9730088492039792 0.0338548668418557
4.030428571428572 -0.8506478279556221 0.2642273102487306 -0.0004592116498267083 -8.142691147494655e-05 6.411779836685784e-05 -0.00022476785471485828 -0.9693705376074124 0.02871190028854195
4.030857142857143 -0.8525490589535468 0.267535950059861 -0.00012555259819609354 -3.657572994190363e-05 0.0003760880523126833 0.00019620705889325933 -0.9721599038234879 0.022218422863857126
4.031285714285715 -0.8439770083925104 0.27598426930649766 -0.0003295890581572117 -0.00013115630798422412 0.00021469276931569705 0.0002545556235137543 -0.9668584029273775 0.03408340271462341
4.031714285714286 -0.8419421832784715 0.27787398042876404 -0.00013193311892199295 -0.00032920647173115557 2.7042760090573083e-05 -4.820890426687799e-05 -0.9650098690526931 0.027483634077127256
4.0321428571428575 -0.8391272868756872 0.28851037408798785 -0.0008205996629164032 0.00012603514595089022 5.326911322851095e-05 8.169051993830825e-05 -0.9751287411091928 0.03628381001066779
4.032571428571429 -0.8388991250517874 0.2959303144428721 -0.0002572834445120909 -6.377700651411842e-05 9.360269230655612e-05 2.7003831017525788e-05 -0.9660664696241128 0.04602121909986871
4.033 -0.8398068608237163 0.3027584044656277 -0.00019060342236711005 -0.0001985461560801799 0.00025111007762135105 9.737821545701456e-05 -0.9654378166537598 0.044811338097771665
4.033428571428572 -0.8411205399429706 0.31125871597408444 -1.592626121550639e-05 -0.00021047496412109236 -0.00017364081739601507 0.0002225084034851113 -0.9623480619288916 0.03945307265895923
4.033857142857143 -0.835111235255654 0.31688541259613384 -0.00030708771423401904 0.0003387186508468331 0.00011945153574699136 6.727039326527183e-05 -0.9627500473685427 0.04280519491518932
4.034285714285715 -0.8279169075777475 0.32117538966468 -0.0001902842686669943 0.00019213731903154147 0.0001954493876951302 6.215295028346304e-05 -0.9655064971979509 0.04378617905415911
4.034714285714286 -0.8194465356411166 0.33584648087395963 -0.000664025360494374 7.323270885416538e-05 -7.88230030062744e-05 -0.00020530995320142004 -0.9679003776320766 0.05202396427609191
4.035142857142857 -0.8226714689767005 0.3386939863249828 -0.00032242433675186324 0.0002105481066140883 -7.68509367318767e-05 -0.00019381325718607496 -0.9668999106912625 0.05277191206570795
4.035571428571428 -0.8148974095772338 0.34369838876189696 -0.00046424138311556824 0.00023835603902769978 -0.00022995784665156397 -0.00010976012251802004 -0.9663861418217533 0.057919443940703905
4.036 -0.8131800709716761 0.35530565826077226 -0.0002800017953460569 -0.0002152016724571802 0.00017032641512599735 0.00012713775831212524 -0.9702312739011487 0.05712978762817231
4.036428571428571 -0.8221421745419516 0.35435146887043545 -0.00032200089687495296 3.2718459810085495e-05 -0.00010661614190534113 0.00018756928425584147 -0.9669978346278028 0.052476337270352114
4.0368571428571425 -0.8144836824761263 0.36598674485580274 -0.0005198478160438238 2.7911284451138412e-05 0.0001302830887406727 -0.00010695467557552081 -0.9708965097206973 0.05464637901365634
4.037285714285714 -0.8053263290785546 0.37371941155482213 -0.0004350506263942078 2.6310529016038963e-05 0.00022937638037049917 -4.526589384105387e-05 -0.9636550310835459 0.06047161158694512
4.037714285714285 -0.804848208823878 0.37263711900023533 -0.0001414914167066854 0.00024126471973914422 0.0002981682910776465 -8.046937105042214e-05 -0.9690234469038105 0.05881200023177101
4.038142857142857 -0.8013938879925083 0.3926039664489346 5.0318379235887006e-05 -0.0001865247612663639 -5.259922306781229e-07 -4.9357229505155306e-05 -0.9630830580147032 0.06265011211418017
4.038571428571428 -0.8013117973259273 0.39287395106661377 -0.0007138813465919782 4.901435108144312e-05 -1.9654971423698164e-06 1.3405843943760531e-05 -0.9621944625933707 0.06661784172776507
4.039 -0.7972176118028594 0.39754600834119486 -0.0002355986015882189 -1.783283744918507e-05 -6.294342800442227e-06 -7.90657402121276e-06 -0.9579321651584042 0.06571160370552971
4.039428571428571 -0.7894681685221966 0.41311626954423053 0.00022946073992781259 -5.873369966775278e-05 0.00019915047227393964 -1.267444823501959e-05 -0.9630828311995844 0.0682538991090766
4.039857142857143 -0.7928177453103122 0.41228370013411636 -0.00029242022589569673 -0.0001764531814181116 1.5992621852927892e-06 -1.909448731773573e-05 -0.9705303598268576 0.07123691019071393
4.040285714285714 -0.7868426998916831 0.4126423619321567 -0.0005273300714345379 -7.751110824518695e-05 -0.00012787670797797412 -7.747889053687611e-05 -0.9643924188810514 0.07476316006005986
4.0407142857142855 -0.7876607965386757 0.4256640934751869 -0.0004401573865991561 -5.763439396450653e-05 -0.00020189754679380555 1.3385687321428863e-05 -0.9590029050780375 0.07707244936617574
4.041142857142857 -0.7747313486554274 0.4295331889003123 -0.0005866749424148946 0.00024083490111801418 0.00017207230922113627 0.00024768054023702955 -0.969280754913371 0.08456952726996757
4.041571428571428 -0.7726432246333488 0.4372144936091845 -0.00030329650815040873 0.0003874410672733196 -0.00012511656630635916 6.142250971615295e-05 -0.965672263154865 0.08390348323053605
4.042 -0.7705594974814609 0.4465757716429093 -0.000448601614745904 -0.00044036307470844645 -0.00011764057205775211 -6.076292761603213e-05 -0.9640873105207519 0.08895939695367955
4.042428571428571 -0.7640623167878817 0.44974093263427395 -0.0004500059702911356 -0.00027358077056009077 3.0102598247747267e-05 -0.0002972407982627513 -0.9589996117058863 0.09299627204050047
4.042857142857143 -0.7655420532151792 0.4459798615738214 -0.0004188419210454003 1.3854281997479599e-05 -9.585293282817084e-05 -0.00015261436384748003 -0.96516044340372 0.08824744244646167
4.043285714285714 -0.759271654679163 0.46303743450638457 -0.0005235121351515105 -0.0001252651049481597 -8.423086507226698e-06 8.111310929009689e-05 -0.9642093513477927 0.08544241867425006
4.043714285714286 -0.7521126468459496 0.46657449575346793 -0.0004655141337106858 4.648585075897702e-05 0.00011141341033426727 1.0698110034776373e-05 -0.9656494982286016 0.0844249816227309
4.044142857142857 -0.7516440047111997 0.4753224269523193 -0.0002544522449220227 1.2943607212080282e-05 0.0002578060407434206 0.00014733577961014072 -0.9638577163819613 0.0970166629664879
