!Created with skrf (http://scikit-rf.org).
# Hz S RI R 50.0 
!freq ReS11 ImS11 ReS21 ImS21 ReS12 ImS12 ReS22 ImS22
4.0 -0.8420853819277642 -0.24980144105077207 9.439971853489719e-05 -0.0002851485977575415 -7.616503519797507e-05 -6.527933718014682e-05 -0.964284635355129 -0.12959529785956478
4.0004285714285714 -0.8486737284570821 -0.24248798226553514 -0.0001831423831287454 -0.0003390414983754232 0.00018871956190551448 -5.0903213960681424e-05 -0.9699248020334211 -0.1235560996834319
4.000857142857143 -0.8532353208257397 -0.23431261699085362 6.554831415829617e-05 -0.0007378756264232768 6.618660513254376e-05 -0.00011693825870743492 -0.9658723208256634 -0.11574474702619245
4.001285714285714 -0.8484439442259131 -0.22786337562497064 7.6053114602632006e-06 -0.0005129143453362766 0.0003175649646870737 -8.521178057260234e-05 -0.9649604117552762 -0.11693238827402822
4.001714285714286 -0.8537833159763715 -0.22130222814263492 9.663985953618026e-05 -0.00037944341554943577 -5.077148354845842e-05 -3.2842640869654825e-05 -0.9665547206932839 -0.12127555665988042
4.002142857142857 -0.8528086129066278 -0.22213781900040452 0.0002494162126522352 -0.0006578160459559619 -9.053467210253123e-05 -0.00014814023167443926 -0.9647211058735883 -0.11235213920158993
4.002571428571429 -0.8555247983791652 -0.20941481053384658 5.879314769905333e-05 -0.00039398492177740565 0.0002837947187922777 3.0580029838777535e-05 -0.97028688812267 -0.10604046572679979
4.003 -0.8603939927995702 -0.19861128837169012 -0.00022212418052953086 -0.0009174289370612011 -1.1991865496316704e-05 4.2795472466411405e-05 -0.9687049280221199 -0.10470578880217116
4.003428571428572 -0.8634016894538407 -0.19576531597238273 -8.910372640943174e-05 -0.0009365489445085121 0.00010342640177315038 2.9020297880265423e-05 -0.9620787379848743 -0.09835067511465974
4.003857142857143 -0.8578066601445544 -0.18836375404982966 -0.000158804979313354 -0.0003565954959103303 -0.00017223391033438872 -0.00020206426984424852 -0.969317620013067 -0.11081201663539782
4.0042857142857144 -0.8684381492595503 -0.18023481846812808 -5.733323481230999e-05 -0.0005397786907294055 -0.00023203930986957243 -0.00024733282236169974 -0.9662688412718693 -0.09850783174889839
4.004714285714286 -0.8638428397929571 -0.17252066670679858 -0.000328562243936518 -0.0006354527398697874 -0.0002123226310347636 6.062624841402079e-05 -0.9603710090335442 -0.10857373222463243
4.005142857142857 -0.8660479790744398 -0.16173811918662784 0.00029276992057482385 -0.0005641179515851567 -9.322727109622543e-05 -4.7650022908392595e-06 -0.9671270510732783 -0.09431958427990875
4.005571428571429 -0.8667712441176422 -0.15667823755729868 -0.0003516484878692855 -0.00032595202451496857 0.0001358685775101641 -2.0136280012681138e-05 -0.9588923335341116 -0.09234176994249588
4.006 -0.8706859333748597 -0.15272358988814078 -0.00029542610247350565 -0.0004657508291682251 0.00013956163701640497 -0.00010474652615919465 -0.9726077488306359 -0.09325686886013776
4.006428571428572 -0.869508335765828 -0.14779046091508863 -8.196179721484111e-05 -0.0008385305827255643 0.00017797316316979072 0.0002104330631752059 -0.9692687815164371 -0.09170758905332864
4.006857142857143 -0.8740593987283409 -0.13618045551610472 0.00020097779510528117 -0.0006199046741896107 -8.856221470122926e-05 -0.00011447263804308168 -0.9650923286379768 -0.08661502322159698
4.007285714285715 -0.8760298412439871 -0.1280193403414918 -0.00015337134618236215 -0.0006157523508841627 -0.0001829364236116929 3.240752079729661e-05 -0.9683492202213088 -0.0792734994308859
4.007714285714286 -0.8755692362550459 -0.1242699802318341 -0.000226923870692031 -0.00017231976342353033 -9.670884361924072e-05 6.680183275231856e-05 -0.9642324517039512 -0.08233589960091954
4.0081428571428575 -0.8765993841047851 -0.12041330785890655 0.000205220239738633 -0.0006646932982335991 -0.000252078560285396 0.0001361181402042021 -0.9666096236155357 -0.08769585274463935
4.008571428571429 -0.8761714420088557 -0.10756028175822477 -6.899042478172216e-05 -0.0005250939314681427 7.105794201342088e-05 0.00030755597058936446 -0.962288102826819 -0.07809963496096925
4.009 -0.8793149499041927 -0.10183817848612335 0.00026172310563359085 5.775377096187668e-05 0.00019534349650173207 -0.0003786104931053105 -0.9749121114271537 -0.08434226921225281
4.009428571428572 -0.875876554123228 -0.09780212236016181 0.000245039661108307 -0.0005207698689140869 -3.381797584277247e-05 2.2080513291577595e-06 -0.9771503132082818 -0.07686240245805644
4.009857142857143 -0.8794917410939087 -0.08706653470261189 -0.0001810914217793004 -0.00032745933572923293 0.00023689740150160902 4.883820239310584e-05 -0.9656900185075622 -0.06874033448698207
4.010285714285715 -0.8819170861852232 -0.08149130010340187 -4.5422352646340604e-07 -0.00036386890591460656 -0.00017742306843859557 3.865260406252675e-05 -0.9650812795244168 -0.07240859900355207
4.010714285714286 -0.8820189788970595 -0.07423213838121359 -7.74752449267059e-05 -0.0002523119053840502 0.00019552953028726945 0.00015294151582741038 -0.969953046519373 -0.07134010634733932
4.011142857142858 -0.8776148335185401 -0.0697667414985131 -4.792738179967343e-05 -0.0004841570076318455 -0.00016368671332412128 -0.0002541769153939473 -0.9695947684978922 -0.06525595489704354
4.011571428571429 -0.8795075892005684 -0.05734506275781812 -0.0003474489665220587 -0.000512908513731413 -0.00010410315686891336 3.151604073988709e-05 -0.9689450007847966 -0.06619523793383661
4.012 -0.8820912456034319 -0.05260267117659254 -0.0005251320931242002 -0.0003649817382025559 0.00011178225547990344 -1.409415101222475e-05 -0.9750836994645671 -0.06426095444635818
4.012428571428571 -0.8798290802758846 -0.04387090327241387 -0.00038907458426774475 -0.0006645634773687918 -0.00035050826604790834 -8.782669290236969e-05 -0.9617739841133759 -0.055931076859359455
4.0128571428571425 -0.8878098955541602 -0.03432797285502265 -0.00021758848913947632 0.00020019274732648292 -0.0001438820679679096 0.0001802208788766375 -0.9656954046173406 -0.06487375408005433
4.013285714285714 -0.8772901977605418 -0.03134483827994046 2.4771402393976464e-05 -0.00046455704078064003 9.749393237853684e-05 -0.00019883296060508606 -0.9631219472916169 -0.05934873262469665
4.013714285714285 -0.8800955324439024 -0.020469007033855263 -0.00033034274126358346 -0.0005177099079625936 -5.9570254145260135e-05 -0.00015402830207271765 -0.9756836710738833 -0.05275768844661389
4.014142857142857 -0.8809215188665911 -0.013934686307921837 0.00010048964163160996 0.0001633191190220077 8.147927601432074e-05 -0.0002823713900236275 -0.969982240859524 -0.046758553602252194
4.014571428571428 -0.8791615527992911 -0.01204610970980653 -7.381868736184484e-05 -0.00028504714601034235 -0.0001259400283166328 0.00026805438366661095 -0.9694038726854523 -0.05229108100353412
4.015 -0.8894185451500259 0.00040782401688598495 -0.00028426225577643565 -0.00023393200835532122 -0.00019680128480384116 -4.033803544628184e-05 -0.9657859304909109 -0.052311025038980476
4.015428571428571 -0.8846815478677532 0.010387282114047845 -0.000522646286743868 -0.00039901527219835605 9.678255022010892e-05 9.550798234347106e-05 -0.9716218018598252 -0.050474213320939834
4.015857142857143 -0.8821387690091135 0.01602971651582567 -8.607620517395228e-05 -0.00032331988476671614 1.0742692673782662e-05 -6.893459878833124e-05 -0.9714542379164823 -0.04455150266081949
4.016285714285714 -0.8819319405790725 0.02438668362381476 -0.0004889201764988843 -0.00044350180209000705 5.3213433876328644e-05 0.0004124496613917345 -0.9643957778577087 -0.040434945201663186
4.0167142857142855 -0.8817843712259035 0.029102268453135585 -0.00016596737136810962 -3.851243296085223e-05 0.00020594363323967726 5.398037311149071e-05 -0.9644231888353417 -0.04857242576783726
4.017142857142857 -0.8787998909103235 0.0384200507921937 3.201487252033291e-05 -0.00031586131037788243 0.00020986504052233185 -5.949179057634303e-06 -0.9639612584791954 -0.03897690506508674
4.017571428571428 -0.8831200526068065 0.04359601560049559 -6.34489893164235e-05 -0.00035929284977415663 0.0003825559600053461 -2.0717517478920342e-05 -0.9725738116058461 -0.042494554102354455
4.018 -0.880519362970785 0.04861944100536703 -7.670895170309776e-05 -0.00012208274313620757 -0.0001451889492714896 -9.6149593046334e-05 -0.9683408019598795 -0.04183231999818931
4.018428571428571 -0.8849790485552494 0.0588026669470655 -9.963323770844151e-05 -0.0003612941725366567 -0.0004344994982581432 0.0001762673151707016 -0.9711500611808908 -0.03443492671299275
4.018857142857143 -0.8772508787870895 0.06919403600058001 -0.00023672026023496286 -0.00018840215135227701 -0.0002594901764970048 -0.0002372272135081147 -0.9626002782980088 -0.02739419328386212
4.019285714285714 -0.87471630630494 0.07742442204445814 -0.0003364268117498191 -7.482429044956625e-05 0.0004097275560274785 -5.807303243019588e-05 -0.9717601740515155 -0.029969366023306916
4.019714285714286 -0.8801760477250103 0.08448743967941318 -0.00048345086862216314 -0.0002889614475779375 -7.566173512591703e-05 0.00010304800339615421 -0.9648779099402816 -0.02789622200399774
4.020142857142857 -0.8788962461349659 0.08910632982148721 0.0002357488201983478 -0.0007825020252212381 6.769970085681139e-05 -6.235654157591162e-05 -0.9696407882765293 -0.02391992300272997
4.0205714285714285 -0.8779709437363564 0.10435879932278369 -0.0004272052234901426 -0.0001195225545593426 -0.00019575083950765462 0.000145934860093613 -0.9679960495812953 -0.027157017676619745
4.021 -0.8753762636684375 0.10168024667524245 -0.00018261214758625452 -4.7205661320088426e-05 -0.0001434689324334912 -0.00016716099874797817 -0.9653807054644282 -0.022832143552446567
4.021428571428571 -0.8727376785036881 0.11246748721986963 -0.0004704859291149222 -0.0005055472642872204 -0.00021741895490680552 -8.216212856806842e-06 -0.969825596008237 -0.019929260597337767
4.021857142857143 -0.8765880095855136 0.11712667227996368 -0.00032475312851166284 0.0001908312218487851 -0.0004453608278033518 -0.00010692784450998641 -0.9658805281143701 -0.015303689576150041
4.022285714285714 -0.8674587206510778 0.12101689808279227 -0.00035707927747346315 -0.00022872776438024665 2.897762612304418e-05 -8.594182064091392e-05 -0.9752715887621352 -0.00811191151251946
4.022714285714286 -0.8718986096788751 0.13652779157599243 2.0624614508133334e-05 -0.0005738227782343369 1.1440273316757808e-06 1.2588197346623662e-05 -0.964555644507765 -0.013503271765109116
4.023142857142857 -0.8700432979083067 0.1415387792707392 -0.0006624612427102291 -0.00028403035298297553 0.00025433730057223576 -8.356960324436403e-05 -0.968443495381949 -0.008835003403240617
4.023571428571429 -0.8701947257020204 0.14278608892016864 -0.0006987483365737972 -5.1979711795368853e-05 0.0002501694206661735 -1.923522070183556e-05 -0.9630233153918659 -0.00497028547853729
4.024 -0.86469053636079 0.1556433571621364 -0.00018774689941466091 -0.0007589130558225577 0.00016378757963734003 3.177756241676184e-05 -0.9715832214747604 -0.008261278695809378
4.0244285714285715 -0.8669586599569997 0.15977800699948905 -0.0002905651175653521 -0.00033918594961074327 -0.00022911632883062245 -0.0002988716284761773 -0.9696788793250705 -0.0030493070755236926
4.024857142857143 -0.865840909636844 0.1712267232115959 -0.0006183244972264757 -7.552702760019967e-05 -9.400141833024713e-05 -0.00024999488781308896 -0.9670621402974526 -0.0010264427568948812
4.025285714285714 -0.8669258880969086 0.1783936037945899 -0.0003983573674664651 -0.00040721618648063135 -0.00024096457860178896 -8.74063853546942e-06 -0.9658492077515675 0.004644332384283763
4.025714285714286 -0.86427766554541 0.18551281820897209 -0.00043066871304746606 -8.54149243365432e-05 -0.00016989857024517623 4.8769528675136424e-05 -0.9756888565666535 0.008899348393868163
4.026142857142857 -0.8675054768962427 0.19193883606459294 -0.0002272637852291023 -0.00031131447114459126 0.00024609535622913185 -0.00017714325724675942 -0.9697052959413763 0.0030577440699212214
4.026571428571429 -0.8535184720106375 0.19969709439812844 -0.0007101830261420063 -6.606719514170008e-05 0.00016271846152219333 -0.00027268849628745453 -0.9752831675697056 0.007638873234770574
4.027 -0.8553703569855944 0.20623883966720297 -0.0005631681712243263 -0.00041359876485954917 -6.912199537986877e-05 5.038195335928061e-05 -0.9701829671302385 0.003475957175078066
4.027428571428572 -0.8605771419601117 0.20739865896186344 -5.748942737080394e-05 -0.0003725053275866962 -0.00013242653367841583 -5.097417343555166e-06 -0.9663769383538463 0.016559112907450716
4.027857142857143 -0.8543697272794379 0.2153610642515856 -7.43215249439394e-05 -0.00040954163503895054 0.00036062869992097203 -0.0004442673569368016 -0.9746749133090022 0.011865717160647807
4.0282857142857145 -0.8541150148045485 0.23083100937832207 -0.000565869313597152 -9.701736801536537e-05 2.6496762895488503e-05 0.00026464062308859045 -0.9705524491216574 0.02053451710175615
4.028714285714286 -0.8583372717492376 0.2279179039061827 -0.0005794084153204385 2.0225608756533694e-05 0.00023536932106501233 -0.0001261575821483689 -0.9687593203743495 0.01413568798193129
4.029142857142857 -0.8534095556388056 0.24229165173238823 -0.0006332783212652163 0.000420764693380832 0.00017047176234362215 0.00024216968472357464 -0.9682339883813057 0.02297871085351796
4.029571428571429 -0.8498170527746687 0.24507576067649184 -0.0002084621882633357 -0.00040823674511950947 5.8832132310835765e-05 -0.00013009742013951912 -0.9647287287187374 0.021746181342552254
4.03 -0.8457326813142961 0.2511488715190839 -0.0009463430326573978 -0.0004971302937715282 4.534417414063866e-05 -0.0001045696289361679 -0.9723365350716204 0.031093318152337946
4.030428571428572 -0.8429484863402792 0.2618916862010591 -0.00028580097714388464 8.41307491588848e-05 0.00031619962107281685 6.0076760455945135e-05 -0.9706992079410433 0.02776235191725627
4.030857142857143 -0.8454447119757985 0.26607147394326935 -0.0006261801733861186 -0.0006042276869350766 4.894318872471376e-05 6.0610430236299e-05 -0.9717234037963721 0.021487476780977732
4.031285714285715 -0.8384569080796794 0.27514694622751085 -0.0002518091967578862 0.00029225234521264667 -0.0002923300700174924 0.00028767115547925705 -0.9682364439200234 0.03415183371512084
4.031714285714286 -0.8351761052394805 0.2779272401681059 -0.0002738082475530833 2.4630359609721595e-05 1.5119114203296199e-05 0.0005757338851439447 -0.9636551038256976 0.023504809412561112
4.0321428571428575 -0.8303539323710122 0.28764250285891474 -0.0008653022106542175 -0.00019298939837815394 -0.0002876802814703097 9.597465829443983e-05 -0.9731447189772782 0.03554104132748964
4.032571428571429 -0.8313256318067092 0.29494894615994044 -0.0007087121624111807 4.3490838017021694e-05 6.970149489715294e-05 9.308159487890587e-05 -0.9640497225333988 0.043067713539122816
4.033 -0.832346239437184 0.3009099993907503 -0.00048621308319092576 -8.32890058915839e-05 -5.928270058295091e-05 0.00012364574617713972 -0.9663057590659456 0.044387558856361135
4.033428571428572 -0.8343552425637648 0.308512175735055 -0.0006517580871429914 -5.925530654863453e-05 -0.00015339348314938935 9.920772480137236e-06 -0.9634131101827003 0.03720665274164104
4.033857142857143 -0.827578582792921 0.3165515200512736 -0.0004232145327024554 -0.00020609055675408492 -6.53586575459775e-05 0.00024354833267287667 -0.9632603864859094 0.043083277170879085
4.034285714285715 -0.8196498891752297 0.3204289523389774 -0.000458879039717496 0.000154092039353836 -0.00011003035206475149 -0.0001480327025047702 -0.9656617842794023 0.04239438544827427
4.034714285714286 -0.8136665969762337 0.3340168513877157 -0.00076626639594522 -0.0006389056862183407 2.492719776837342e-05 3.293167725415132e-05 -0.9655890246963565 0.05396484995197293
4.035142857142857 -0.8159538698645465 0.33658410845164616 -0.0006493891544995237 -0.00015890544907751683 0.0001509999830138394 0.00028832388899892715 -0.9696216474949393 0.05118509328494935
4.035571428571428 -0.8083966258907807 0.3429216830960348 -0.00016645784387865902 -0.00010707054764236279 -8.508809352556084e-05 0.000110765129384593 -0.9667741074846777 0.05457818340030565
4.036 -0.8055121451550766 0.3531083959675293 -0.0005143058409528312 1.5195264876839428e-05 -0.00019944077618988925 9.536059791954297e-05 -0.9710000977400559 0.05538489679728743
4.036428571428571 -0.8132021038578058 0.35215009030233374 -0.00018668145038765535 -0.00013596687044717856 -0.00016867140982220315 -0.0007459135078367957 -0.968308745401283 0.0507867238355927
4.0368571428571425 -0.8069176921112469 0.3629674022794208 -9.454165903468621e-05 8.045382668607029e-06 0.00010521696182710021 -6.771096860522545e-05 -0.9710852375951732 0.05118667065899768
4.037285714285714 -0.7991075049675017 0.3699747436234011 -0.00062090953554265 0.0003724289604361834 0.00010900542944377414 3.7640506149438685e-05 -0.9632214127156805 0.05909798736369177
4.037714285714285 -0.7987564213756102 0.36995033551892637 -0.000237002676942609 3.858580939678647e-05 -0.00011657883332865728 0.00014738095774364892 -0.9712744123398425 0.056948995169729455
4.038142857142857 -0.7935348349161633 0.39147766671103007 -0.0004602050264772287 6.206667123237445e-05 7.654926485331842e-05 -0.00014705944319328982 -0.9634069238013973 0.06093559785896278
4.038571428571428 -0.7922074709415055 0.387820228321467 -0.0007786268590647246 -7.94822860565487e-05 -3.115892529916305e-05 2.9074860419006808e-05 -0.9619352623961682 0.06524136036893831
4.039 -0.7892989389771268 0.3929519093094828 -0.00038918147226261633 -4.04850155531115e-05 -7.734019381688385e-05 0.0001097505710596461 -0.9586572928809524 0.06300212594092941
4.039428571428571 -0.7822578317975337 0.4118244853253181 -8.981717693974333e-05 -0.00014400638341078876 6.053552561204175e-05 0.0001317367348283088 -0.9636375926339626 0.06843265696413728
4.039857142857143 -0.7855804618003998 0.40943404412423856 -0.0006644648804030244 0.00012851610102992175 0.00010486576581911343 -0.00013506620108247083 -0.9710725174645146 0.06938807351044014
4.040285714285714 -0.7820075934451763 0.408710737741417 -0.0004869358770030874 0.00021774473611849165 -0.00012310732466779152 0.00020698669262288698 -0.9631726970866571 0.07430809202229978
4.0407142857142855 -0.780561484766221 0.42288482829283836 -0.00032188534172206666 -0.00017113254861064392 -3.914409666924416e-05 -0.00010977184473219227 -0.9588475618179698 0.0758606789488589
4.041142857142857 -0.7670719549336131 0.427752542280015 -0.00039525248722087065 0.0004571118224953351 -0.0003559312431597677 -0.00012905034363052607 -0.9676739987616148 0.08323519918330623
4.041571428571428 -0.7665371863662768 0.43495508514215453 -0.00022249935169363502 -0.00010108361846755444 -0.00018360572521952515 -9.479709858129351e-05 -0.9661354338335781 0.08358454600295263
4.042 -0.7626312715830429 0.444079513478432 -0.0003375539042948213 0.00039717267926943004 -2.2422405256136388e-05 6.037320677676984e-05 -0.9624796243062975 0.08916713437126093
4.042428571428571 -0.7571279981054946 0.4473741192867034 -0.0004476811412247762 -0.00021514536180959934 -8.135082916228656e-05 -6.202315641737048e-05 -0.9610887059081474 0.09121060610229595
4.042857142857143 -0.7576632322953671 0.44427120813986404 -4.0492196464874776e-05 -0.00024659506299288175 -6.436222850588329e-05 -0.00014954515978781726 -0.9653004456572601 0.08579871427479026
4.043285714285714 -0.7519795026936471 0.46145590102888423 -0.0003748865994848322 0.00014461513034231678 -0.0003136286656554702 -0.00015939120950692363 -0.9648270374217428 0.08672186072834052
4.043714285714286 -0.7453147288509433 0.46354819080555704 0.00022740843275171263 0.00013336314791823718 0.00010768257701716775 0.00011639611718463694 -0.9667386135496344 0.08217718614012666
4.044142857142857 -0.7458854841875304 0.47322806740765483 -0.0005565875180913527 0.00015035459561649905 -0.00012474188707002856 -0.00027689607303703746 -0.9640835787515144 0.09660215856905824
