!Created with skrf (http://scikit-rf.org).
# Hz S RI R 50.0 
!freq ReS11 ImS11 ReS21 ImS21 ReS12 ImS12 ReS22 ImS22
4.0 -0.8494188380767914 -0.2519892151784218 0.00041884077254353275 -0.00022264693109824604 0.00017519309278004341 -0.00010336263580617464 -0.964385741859477 -0.13287661670664447
4.0004285714285714 -0.8540951191972941 -0.24734684872916138 0.0001578279259250822 -0.00026828817323151034 0.00015402434004863213 -0.00024503839066600323 -0.971688175669816 -0.12287020817606861
4.000857142857143 -0.8591354646809802 -0.23514920607440265 -0.0001627760065043455 -0.000145585397120014 8.628205638690113e-05 0.00013864441374141707 -0.9649202500721704 -0.117934027645097
4.001285714285714 -0.852923683098006 -0.23110764480641624 -3.585427377344129e-05 -0.0004111731878744828 6.825917932559536e-05 5.6379285888056586e-05 -0.9647954856965817 -0.1176208022946062
4.001714285714286 -0.860544260896038 -0.2230160702981953 -0.00011783341243449597 -0.00034992140854362666 -3.21481274950418e-05 -0.00017394853569523684 -0.9661439465423998 -0.12042786909815087
4.002142857142857 -0.8598402196481361 -0.22295199159331128 0.00022474109558251695 -0.0005219868195146511 3.362818691064881e-05 -7.942456253809754e-05 -0.9646360100330783 -0.11192078300579592
4.002571428571429 -0.8617444113883338 -0.21217727961426663 -0.00038862440215573884 -0.0003537700281889984 0.00030470405992133584 -5.272913173881996e-05 -0.970524890779535 -0.1070549625795933
4.003 -0.8673884870730733 -0.20132273901007733 0.00011751067900321717 4.7281585645522444e-05 -0.00021052332003953107 -0.0001694647477946129 -0.969536795421104 -0.1064203360383331
4.003428571428572 -0.8703213800617385 -0.19783684577976804 0.00013931617225744695 -0.00045089388216568784 -0.0001426702009326983 6.806273664922639e-05 -0.9625876407110625 -0.09942951872015822
4.003857142857143 -0.8639611939305599 -0.18774492062466133 9.520967326074346e-05 -0.00024767073586442085 -0.00012342027934264955 -2.446465653196604e-05 -0.9716700397232307 -0.11103706580520768
4.0042857142857144 -0.8746581702055289 -0.18217817528563165 -1.2242566617430468e-05 -0.0002460332132255963 -7.629950246521337e-05 1.6675357145356074e-05 -0.9663654701031628 -0.09883613233362204
4.004714285714286 -0.8710396362171189 -0.17268460077362424 0.00014163354713553282 -0.0004837408556864767 6.570889297791946e-05 -0.00020908528583987634 -0.9601612362784516 -0.10831045497137798
4.005142857142857 -0.8712483518737456 -0.1649202098810497 -0.0002855014963405543 -0.0007413485771280976 0.0003327521846047024 -2.8750443932527933e-05 -0.9682982372165326 -0.09714632526102271
4.005571428571429 -0.8738563904361327 -0.15822384295492992 3.522859170477604e-05 -0.00028299871579894845 -3.560294771503462e-05 -2.4986060956012374e-05 -0.9604237403058551 -0.09632366902722177
4.006 -0.876770777515901 -0.15527552845426862 0.00010144278230695783 -2.5348251658952604e-05 -5.9807137024519584e-05 0.00012871542347400971 -0.970910672674378 -0.09593653743457374
4.006428571428572 -0.8758822902523401 -0.14969840098282 -5.759487773688813e-05 7.08105881763955e-05 -4.303522487601382e-05 0.00016139499804982704 -0.9687542351282492 -0.0941454998340558
4.006857142857143 -0.8815904788898089 -0.13842777277974194 0.00024834940184422595 -0.00015401366128652745 4.631250925358785e-05 8.059992944999343e-05 -0.9641293519927102 -0.0871269434574616
4.007285714285715 -0.8830529782561056 -0.1306607719009103 0.00013323942750158448 -8.432328810089419e-05 0.00016953506027201148 0.00014197304516111028 -0.9693228372592869 -0.08069726296012314
4.007714285714286 -0.8805513065524917 -0.12645201819992608 -8.342191219798494e-05 -0.0005708348046098423 -0.0001403364637502998 -0.00024234350169627383 -0.9636704846453715 -0.08429082133689958
4.0081428571428575 -0.8809862811728436 -0.12264098747566286 -4.504123097677025e-05 -0.00040498006457246715 7.800526155738081e-05 -3.193083498918056e-07 -0.9678628891508216 -0.08715564424928214
4.008571428571429 -0.8847717102523032 -0.1102691836301235 -0.00018547380669184594 -0.0003256531612285866 0.00015596114335730197 -7.48126917040862e-05 -0.9631426988238173 -0.07924673146022819
4.009 -0.8844425655295881 -0.10362416159672966 9.791148645094075e-05 -0.0004179453166360783 4.3348716069077533e-05 -0.0002802234783055004 -0.9737493715536248 -0.08544211022969632
4.009428571428572 -0.8835874088913497 -0.1002268461540796 -0.0004969274804679354 -0.0001495890850786878 3.4181490173200996e-05 -0.00010220976984064845 -0.9759273939948951 -0.07652917483154068
4.009857142857143 -0.8850554866347295 -0.08801193878495772 -0.00018525432053387753 -0.00019979204091456654 -0.00018326286644230485 8.109238044128721e-05 -0.967001564695386 -0.07069981074776832
4.010285714285715 -0.8868718946011094 -0.08144709747656889 0.0002801755706942268 -0.0001658194314621231 -7.899174871747172e-05 0.0001873318034982535 -0.9655943325835413 -0.07378467688193728
4.010714285714286 -0.8867723462031898 -0.07500679437700891 0.00013265021427138964 0.00022805496237230825 -0.00018891058371996582 -0.00036714568937886 -0.96815020270112 -0.07249104715244299
4.011142857142858 -0.8837070459778115 -0.07160372146585174 0.00034489520232940855 -0.00010008286946877203 0.0001618192686682127 0.0001720263795308292 -0.9713123043426243 -0.0661541698495411
4.011571428571429 -0.8850863651642177 -0.056821788265937624 0.00014784140546056606 -0.0005843976246917847 -0.00013053719163695087 -0.0002041929572328878 -0.9715919332011925 -0.06786696978746937
4.012 -0.888022820242989 -0.05444087781191921 0.00042665994791660504 -0.0005300369689753203 2.9066698283022726e-05 1.3226093131153224e-05 -0.9753945782421773 -0.06357627593016477
4.012428571428571 -0.8864814514888574 -0.046237613495243426 -0.00014855837628669378 -0.00028186268872848003 0.00020491276134341845 -0.0003708919868859467 -0.9619390580607267 -0.05738347635565696
4.0128571428571425 -0.8938644620849101 -0.03561588126212704 -7.740335914749617e-05 -0.00034851435156921733 -0.00012033931647613471 5.2356299112368234e-05 -0.9656248486927591 -0.0648230412736377
4.013285714285714 -0.8834652435277018 -0.0311543228359364 -0.00029104827580833046 -0.0002972754290194582 -0.00021378086860649432 0.00015277287028425454 -0.9632936124815671 -0.05998723692447286
4.013714285714285 -0.8861252471029207 -0.02143605357502967 -0.00025234248332352033 -0.0007032398380839044 0.0003701148573378801 -4.104377121597496e-05 -0.9750476616910407 -0.05270136678906824
4.014142857142857 -0.8864360300268657 -0.014510959726005562 -7.24163600710383e-05 -0.00023610063065540387 -3.5635153618243684e-06 1.842277974372752e-05 -0.9699450956178607 -0.04705632176279283
4.014571428571428 -0.8862636907904519 -0.013021467751040608 -3.883135804209703e-05 -0.00014913262627137534 -0.00027920704324922735 -0.00012836407362955282 -0.969966463378455 -0.052598683940838005
4.015 -0.8961116473613902 0.0010445692228934164 -0.00012895683912274224 -6.848681166927791e-05 -3.2244995043736804e-05 -0.00027251473532828135 -0.9656873826399336 -0.05238090951577224
4.015428571428571 -0.8911764303042902 0.009855881771256602 7.192311443031725e-05 -0.0001342183071510094 0.0001970759128629784 -0.00032538161482215225 -0.9720440055651812 -0.04947377608183762
4.015857142857143 -0.8899064753505943 0.015782560375997175 9.051246653131746e-05 -0.0004134442346183598 6.935517955155627e-05 -0.00019507155287820196 -0.9722530138364234 -0.04665273445221038
4.016285714285714 -0.8909170511729236 0.022079340799300146 -8.726311527692091e-05 -0.00027082930731585006 0.0003098090697245237 0.00019776772517701463 -0.9658674835220444 -0.04346384069052557
4.0167142857142855 -0.8887285715749742 0.02810613506180066 -0.00027727144453220764 -0.0005547088690382085 -1.9495376628222698e-05 1.748709539398901e-05 -0.9668558445522079 -0.05024253591166731
4.017142857142857 -0.8859941392938242 0.03776484122089814 -0.0002314247879697682 -0.00025075894418735933 -1.97483748516555e-05 3.4721932630607286e-05 -0.9629471249781653 -0.039944361871303555
4.017571428571428 -0.8899512385176257 0.04299410721504962 -0.00015924342532572925 -0.0003933158943027641 -0.00013480616559080692 -3.942864648628352e-05 -0.972413499876348 -0.041552070967357094
4.018 -0.8854873299139275 0.04734012652155794 -3.212116643547274e-05 -0.000423982072753612 7.997452751652943e-05 -5.7295713293164496e-05 -0.971432026812182 -0.0398444206460269
4.018428571428571 -0.8904024469001985 0.05779200133109692 5.159603628757832e-05 -7.787068228035996e-05 -0.0001929308052609499 0.00011848751016864377 -0.9721410830227823 -0.03469280585436766
4.018857142857143 -0.8824197633313483 0.06570597617599802 -7.632084942081216e-05 -6.984437437823537e-05 7.991083527883858e-05 -0.00016515843540784513 -0.9629815832791133 -0.02804827488407438
4.019285714285714 -0.8813089051704437 0.07820157535874732 -0.0006295772720942422 9.503081043267072e-05 -3.9966756052605745e-05 0.00016584565238472257 -0.9723707097221055 -0.030173993551384393
4.019714285714286 -0.8868647381179715 0.08375319182707593 -0.00015864137911809437 -0.0005815340148094761 -8.643550578957972e-05 -0.0003593476422454543 -0.9639992419313093 -0.028419746962457592
4.020142857142857 -0.8853068113837207 0.0880058970245836 -0.00019705744117170672 -0.00017373564022070295 0.00011684799784423014 5.404383884481763e-05 -0.9684031351697525 -0.027509237637054117
4.0205714285714285 -0.8846465738564703 0.10393467747942227 -0.0002630360141709065 6.460507284967914e-06 -0.0002260534961964992 0.00034136181031040676 -0.9686761860989445 -0.027079770116470177
4.021 -0.8803579669136522 0.10156212502863161 -0.000352864373940999 -0.00018010716527977916 -8.950798009151036e-05 -0.0002875328375528703 -0.9660920702159065 -0.021690692810343772
4.021428571428571 -0.88127636414978 0.11368084108244 -0.00027538935357487615 -0.0004727145695400221 0.00011856938393775139 -1.6893683125086438e-05 -0.9698863941205679 -0.020657722534320373
4.021857142857143 -0.8826027341423094 0.11685157775390725 -0.0005357760902709769 -0.00019551087904824376 0.00029493376878465973 1.072604116669551e-05 -0.9672534331232705 -0.01629388184955187
4.022285714285714 -0.872578250736428 0.12061588939808296 -0.0007034586121516999 -0.00045742072030908695 7.823754156828129e-06 0.0001297666566402159 -0.9755518538337111 -0.010507453695433848
4.022714285714286 -0.8801461446127599 0.13722109606793279 0.0001775479013594209 -0.0008442459316136446 0.00029289198833269334 -0.00038085588635685335 -0.9633820399260485 -0.014457484370680198
4.023142857142857 -0.8753605738443497 0.14081079098849034 2.631675890267164e-05 -4.5579552247969446e-05 -2.874813413225385e-05 0.00019484811468343838 -0.9678860545458363 -0.00929361009376143
4.023571428571429 -0.8761598324999291 0.14385695356386644 -0.0003366137688834169 4.298754695214875e-07 0.00020421542874089253 0.00010587425819222371 -0.9632912678948571 -0.00536521151552843
4.024 -0.870604554915875 0.15512917651292663 -0.0004715679052682687 -8.331858992905847e-05 0.00031228571155783743 -0.00030841582472606043 -0.9712148604878001 -0.006625069068614727
4.0244285714285715 -0.8749889638167291 0.160762389655676 9.039481811753725e-05 -0.000504578692293111 5.554820838377792e-05 5.0750166418923584e-05 -0.9715843396651125 -0.002757942000599724
4.024857142857143 -0.8736291775605405 0.1706855844587606 -3.362982297912452e-05 -0.00022415140243979727 -6.0791882501294394e-05 0.00019946034396443023 -0.9670371816628124 -0.002613722562422164
4.025285714285714 -0.8736378191436452 0.17826212489114723 0.000346739110925074 -0.0001510769820042507 0.00012679317010785067 -0.00015050969733797147 -0.9656651340927725 0.0029819786464761206
4.025714285714286 -0.8706113220944623 0.18460463548149508 -0.0004766269726600125 -0.00018744067494419998 -9.043716164816607e-05 -0.0003503229605978496 -0.9751121722315346 0.008929194477152664
4.026142857142857 -0.871905351836728 0.1923845821925307 -0.00025113805565825213 -0.00030155990568821704 -4.287017424221871e-05 6.0254632698357975e-05 -0.9694318347532342 -0.00010889389699066006
4.026571428571429 -0.8598334074125344 0.2010331789034485 0.00017812563824888731 -0.0006399707695164702 6.134053067990542e-05 -3.398624372811946e-05 -0.9744633458183707 0.005763104458512923
4.027 -0.8636008712825783 0.20635267616808914 -0.0002259534516678535 -0.00021443157222265233 -0.0001865205798563538 -0.00011882854642618127 -0.9710376203800467 0.0054898550704372525
4.027428571428572 -0.8694536233257991 0.2082033591020983 -6.514236847254576e-05 -0.00029766292440811345 6.007840246365564e-05 4.351701000926648e-05 -0.968057293568109 0.016635845526855153
4.027857142857143 -0.8605788449565963 0.21500178156132058 -0.000364435750826476 -3.8378605693419625e-05 6.16606669838923e-06 -0.000254894232308164 -0.9739305839928513 0.012240039265022292
4.0282857142857145 -0.8618560342333786 0.23123552955882412 -0.00024184163146893543 -0.00012475938707751615 -0.00040478062779343587 0.0003466323078430008 -0.9713654706136929 0.0223737869182333
4.028714285714286 -0.8644699919969625 0.2284913508797298 -6.640996155611755e-05 0.000218162056557378 -0.000212788589608375 7.494222295784343e-05 -0.9684971220464311 0.012401617232638669
4.029142857142857 -0.8591926530374886 0.2437177676333738 -0.0003439751473027756 -0.0003852884305984208 -0.00015781561874503273 -0.0002133596983617734 -0.9688448046408701 0.022181184295095073
4.029571428571429 -0.856103347401914 0.24674991523191125 -0.00044359115819737075 -0.0004360802547255245 -0.0002658982696816315 -0.0002247283756916722 -0.9646603571109201 0.02108058455594201
4.03 -0.8494283771171467 0.25111161303717905 -0.0004630236965237051 -0.00028918453934257885 -0.00010978658412044274 -0.0001411384748560536 -0.9720753767823035 0.033626207697488884
4.030428571428572 -0.8515751395823054 0.2624798697581311 -1.994684113679712e-05 -0.0001991301184903014 5.5888138613668914e-05 -8.701839573835078e-05 -0.9723515573184193 0.02608279092924804
4.030857142857143 -0.852866501528745 0.26756977852987385 -0.0004384538588853641 -0.00020939743181918395 4.197604751683133e-05 4.773624588367737e-05 -0.9737973422483168 0.02437121807170965
4.031285714285715 -0.844868113795971 0.27525804708047774 -0.0005642034592036234 -0.00012743820985045573 -0.00014130819296233124 8.415475855783531e-05 -0.9690810289480566 0.03501332677271151
4.031714285714286 -0.8417067706861109 0.27691181569932655 -0.0004906131820106352 -0.00017833862731291494 -7.641270931444523e-06 2.3461670397233425e-05 -0.966435691467359 0.021978140118752272
4.0321428571428575 -0.836790597539681 0.28803754322767605 -0.00033491003201984387 -0.00026694294791698513 5.5058482407906834e-05 0.00014051963603932074 -0.9737487226424664 0.0339294229158518
4.032571428571429 -0.8396987101429481 0.29530617390003044 -0.0004615172492143263 -0.0002747161104723411 -0.00015844006265550303 8.086910178011368e-06 -0.9658370198599032 0.04215899249378408
4.033 -0.839183622921194 0.302848435032 -0.00025030574156108395 -0.00025082658831028325 0.0001257224368463067 -0.00039928155612271393 -0.9669912923265322 0.04465186918561102
4.033428571428572 -0.8414796148946515 0.30947768367601325 1.93877026643937e-05 0.0001926270535448915 0.00011263186862251707 -0.00021702927076388268 -0.9647225932044677 0.039292603884805516
4.033857142857143 -0.8335513149629261 0.3172645226842292 -0.0003580041824600359 -0.00031510628021100517 -6.572094035987332e-05 0.0002608450549223545 -0.9632794844096421 0.04404072197456558
4.034285714285715 -0.8252825396832629 0.3219693935239124 -0.0001708280612473063 7.646561086984721e-05 -0.0004116509172496587 -6.168123942345065e-06 -0.9682443676765757 0.0411947666267575
4.034714285714286 -0.8196639295736762 0.3343318736952561 -0.00011933524856726059 -0.00025656561675879393 0.00019694650684374518 0.00019818928221952586 -0.9674000323249555 0.05106759431989303
4.035142857142857 -0.8225215861373872 0.337834944579168 -0.0008633107710813161 -0.0001836716296130924 0.00017864427337168907 0.0002813062056932393 -0.9683203974509953 0.05098060045138987
4.035571428571428 -0.8146457234708077 0.34377557704558004 -0.0004490007572996541 -0.00024388311947293428 -0.0005124040370449044 -3.167976996587495e-05 -0.9677048973223173 0.0566865584838131
4.036 -0.8130491521492251 0.3537619077580106 -0.0004141702785125014 0.00025703722472665384 -0.00010914439706220485 0.00046740394800250383 -0.9715448005447966 0.05552658570917222
4.036428571428571 -0.8200604318179284 0.3530287022476685 -0.00033124147657010794 -6.674086025636872e-05 0.00022734159367393712 -1.1423131598545175e-05 -0.9707710444527178 0.05137099561874357
4.0368571428571425 -0.812975877782886 0.3643959257394109 -0.0004932150262507845 -0.0003259825453023108 0.0003520502829850251 -0.00018120538545152826 -0.9716310267228643 0.05258080759933959
4.037285714285714 -0.8062165430444442 0.37348670151800323 -0.0002927356580546848 0.0001336545950849446 -5.0923419623497774e-05 8.892074819404113e-05 -0.9637363574037522 0.05989446158362225
4.037714285714285 -0.805779996276192 0.37064762276565766 -0.00030398374704517585 -7.406205632436281e-05 -9.534990370368565e-06 -4.937134430074071e-05 -0.9706920350453387 0.055459168794860916
4.038142857142857 -0.7996076084458982 0.3922594795729293 -0.0005255835266593182 -5.96363217861818e-05 0.00027081578121545543 8.356028980704995e-05 -0.9630430791139066 0.061706976659955254
4.038571428571428 -0.8008777462311194 0.39129195504638653 -0.0002530548601010504 -0.0004033990451786729 -3.952086324096817e-05 3.212858251174978e-05 -0.9628924628682629 0.06679497141517415
4.039 -0.7946235949629445 0.3949357540969364 -0.0003728522719942807 0.00026882790771697604 0.00019292323045354138 -4.923448534576764e-06 -0.9595534976991636 0.06302630101176594
4.039428571428571 -0.7886233834524989 0.41260593803968076 -0.00044838862184256353 7.104273128501314e-05 8.495871778066697e-05 -0.00014116508503496497 -0.9640483458137419 0.06736434666617465
4.039857142857143 -0.7901079934734914 0.4119011274544458 -0.0003295906424318613 -0.0005732488994497723 0.000133193802008904 0.0003557709695378486 -0.9728528078149028 0.06790017486971914
4.040285714285714 -0.7875256976916468 0.41295379947775845 -0.0003638539227290091 -8.347194327719758e-05 -0.00021622551706037662 -0.00022331387575561304 -0.9625776474397197 0.07323037519786443
4.0407142857142855 -0.7869181250192432 0.42478371768975104 -0.0007043468552043352 6.619670345910126e-05 -0.0002435284968611136 -0.00014912183291029368 -0.9595068174587745 0.07383759632787674
4.041142857142857 -0.7731638889922835 0.42916377362277536 -7.332303654437045e-05 -4.350077794531268e-05 3.61945530599097e-05 -3.0402141835469776e-05 -0.9703413271077611 0.08439800826085844
4.041571428571428 -0.7739724724522178 0.43602034544720464 -0.0004687552361457951 8.77512233670148e-05 -0.0002826683527757634 4.488953940764076e-05 -0.9642335065238369 0.0837399138148597
4.042 -0.7687422306345728 0.4449758644170188 -0.0003319321288433804 -0.000276783262379476 0.00014085204748357684 0.00011599615074521907 -0.964039488524834 0.08910036071090498
4.042428571428571 -0.7640554053288584 0.44922397036987893 -0.00024618415485546096 -0.00016328785876994158 0.0002761675922074002 -5.38543766623824e-07 -0.9593282868850806 0.09148593609183162
4.042857142857143 -0.7642440085637269 0.44508780172497786 -0.00010501870575373539 -0.00018798429609642544 0.0004339946818337706 0.00013234763721845882 -0.966191475131895 0.08812297256921332
4.043285714285714 -0.7574744782116652 0.46221170023459013 -0.0006022217679086131 -5.2558145921405825e-05 3.329582859511272e-05 7.64405219279538e-05 -0.9651461721161838 0.08446521375969877
4.043714285714286 -0.7521550627494438 0.46552268098788224 -0.0006743642180896089 0.000186688426416378 1.625096987767234e-05 -0.0002777156573419694 -0.967081171908813 0.082842983663626
4.044142857142857 -0.7510893691600913 0.4750539983223043 -0.0003612897967805559 0.00011334598284185453 8.949883856648287e-05 0.00010818255467190455 -0.9652559713197384 0.0981274313125515
