!Created with skrf (http://scikit-rf.org).
# Hz S RI R 50.0 
!freq ReS11 ImS11 ReS21 ImS21 ReS12 ImS12 ReS22 ImS22
4.0 -0.8318120389449635 -0.25342183375508365 -0.00019508023218447099 -0.0003915825937151706 3.7841552725435956e-05 -1.0144323781376984e-05 -0.9637346490072557 -0.13000037879231738
4.0004285714285714 -0.8372747483881829 -0.24760928887353165 -0.000503687560343217 -0.0006072240377134486 -0.00016959894363053935 0.00011122590645038842 -0.9705930511206373 -0.12359606802817732
4.000857142857143 -0.8423925649543995 -0.23829208565750673 -0.00016430742168219688 -0.0005482487905811223 -0.00016207108416766588 0.00020499221938370983 -0.9669053574054323 -0.11566447689098476
4.001285714285714 -0.8360414679368584 -0.2317000233837001 -5.8906377508612635e-05 -0.000342260639849326 1.2950899363725157e-05 -0.00027986260895090486 -0.9642420494802493 -0.11551603081131126
4.001714285714286 -0.8427020516776824 -0.22393291332195048 -0.0001972636473605496 -0.0004317540414731655 -1.2803159796538543e-05 0.00020187755111114152 -0.9667252727666973 -0.11965757409213483
4.002142857142857 -0.8418455285763018 -0.2253820163275626 -0.00013276714439162054 -0.0004731273007945976 -8.878566458726373e-05 -4.0936464487717375e-05 -0.9641375855924962 -0.11112418460662708
4.002571428571429 -0.8441443974186201 -0.21510404394061963 -0.00029884187148632125 -0.000335447489329617 -3.440551531484896e-05 0.00014393080407272863 -0.9708794473236143 -0.10464738667761875
4.003 -0.8481157654422794 -0.20377025320773956 3.4116686682917705e-05 -0.00043976260695925695 -7.844252408441782e-05 8.519073375836497e-05 -0.9683753334049721 -0.10431890446931046
4.003428571428572 -0.8511154155188196 -0.19970929972128534 -0.00045458826823819524 -0.0004735460245594292 -0.00015577488003992073 8.008755108532654e-05 -0.961520568859915 -0.09700448228374507
4.003857142857143 -0.8474177976751796 -0.19215749337827892 -0.0002950637500291862 -0.00046817890123269695 -0.00020484680365017802 8.570507813963732e-06 -0.9703521364071183 -0.11103513599900941
4.0042857142857144 -0.8596410787359257 -0.18526492982436826 -0.0006593735079318307 -0.0006733516703394273 -0.0002337911057656147 -0.00012152994122839937 -0.9661264266593436 -0.09907121844214398
4.004714285714286 -0.8531969353782508 -0.17426047537527056 -0.00036008084926019264 -0.0006430067075948182 9.431799593024996e-05 0.00010652116147012025 -0.9611038130600956 -0.10826177331606548
4.005142857142857 -0.8553469149407086 -0.16650683793592133 -0.00023631006285599116 -0.000547994292071912 0.0001281253937600876 -0.0002464527887789462 -0.968015445448005 -0.09424689281810024
4.005571428571429 -0.8573829730344648 -0.16062043814048327 -0.0003063592903854333 -0.0002788580438772721 0.00036405076036780007 5.960535129513245e-06 -0.9602406759779354 -0.09459394148309261
4.006 -0.8598706414582086 -0.15934187135483976 -2.3236373746896566e-05 -0.00044559250876457124 0.0003340510776895664 -0.00011623683208475955 -0.9722918140442599 -0.09340126411857815
4.006428571428572 -0.8600017906498073 -0.1533253045713929 0.00018605739333808657 -0.0002912968471937796 -4.26755879691889e-05 7.661239973549283e-05 -0.9681250060042327 -0.09192486909430157
4.006857142857143 -0.8634205975714977 -0.14059472241953497 -0.00044603678718181726 -0.0005486634196823631 4.295357181923418e-05 1.8496959818190304e-05 -0.965705267968079 -0.08650122884825386
4.007285714285715 -0.8674885328030075 -0.1346973605165535 -6.664259726391927e-05 -0.0005715583512680922 -0.00028810132486446153 0.000102851343668291 -0.9689868669048483 -0.08070620088046775
4.007714285714286 -0.8632175597372724 -0.13016652970382958 -0.00042354744218094857 -0.00026708002651484235 -0.00011386056913074489 0.0002375177850859616 -0.9647081337579204 -0.08354707792283844
4.0081428571428575 -0.8664729281612787 -0.12663181500939394 -8.916315354625825e-05 -0.00017392791229746301 2.7401124410999017e-05 -6.112484756712443e-05 -0.9681735101050812 -0.08736968543041805
4.008571428571429 -0.8678011937020472 -0.11358472466586428 -7.679989985042639e-05 -0.00017572845875963436 -0.0002192937809724588 -5.469665691789513e-05 -0.9635217466404998 -0.07751144862562148
4.009 -0.8691542484901513 -0.10717136979662495 -0.00020855867952604824 -0.00044456250561192496 -0.0002622208482692703 0.0002082535530067533 -0.9743199278560277 -0.08364627156936218
4.009428571428572 -0.8668630387180197 -0.10378691125410922 -0.0004722888109935167 -0.0002081136222515623 0.00012094442808766156 -0.00022704188941276524 -0.9781660779356248 -0.07534559168944055
4.009857142857143 -0.8710251005702397 -0.0927087942175668 -0.00020213835699489866 -0.0005590328810575932 0.0003172039097040254 0.00014287601254433453 -0.9668973143383687 -0.07016130879208278
4.010285714285715 -0.8720409383999935 -0.08498480160696457 -4.232601862949564e-05 -5.4590909244457867e-05 -0.00038539884840064256 0.00011590169671942288 -0.9644178984506079 -0.07227805116841002
4.010714285714286 -0.8722309963755145 -0.08158745414969007 -0.0005262447935923592 -0.00037116501428247816 -2.5326350337914428e-05 0.0001087381042087458 -0.9677443063400494 -0.07224561894143568
4.011142857142858 -0.868202027040243 -0.0748929341926049 -0.0003662073679950025 -0.00012640799588703875 9.90432373660364e-05 0.0001644330955513209 -0.9690851512142415 -0.06619050420418875
4.011571428571429 -0.869141022393448 -0.06203318800822877 -0.0005464845059823483 -0.0004367437886947823 0.00032807872324147207 0.00017623087497374267 -0.9721867736932955 -0.0656712972164508
4.012 -0.8723649235852499 -0.05979506599009704 -0.0005639206689497735 -0.0001814259269452406 -0.00012892886691114066 -0.00018834867028212618 -0.9747213387574097 -0.06309489920282299
4.012428571428571 -0.8703647642254004 -0.05012685363013539 -0.00041675246469393497 -0.000724711102674497 -5.8172180449411095e-05 0.00010169180215596486 -0.9648875889877333 -0.05630934113035247
4.0128571428571425 -0.8785381066731671 -0.04164322227574851 -0.00029085215727714435 -0.0004395541637295699 0.0001455515668817929 -2.5272749208084296e-05 -0.9654642429158438 -0.06426459060662375
4.013285714285714 -0.8683638444832211 -0.03781448940609404 -0.0004583737311579978 -0.00034200756036045473 -0.0003262246585841005 -0.00010972770835525712 -0.9625320959129605 -0.058397115173631935
4.013714285714285 -0.8706161363792977 -0.02635892531690342 -0.0008730346497709079 -0.0002087830510045488 0.0002231839034428576 8.229049662537825e-05 -0.9758237878155623 -0.05246693378591897
4.014142857142857 -0.87202044956639 -0.0200931344209344 -0.0006066122594350213 -0.00027447154159266723 5.3521269881034693e-05 -1.8979431467027653e-07 -0.9720023442767938 -0.046301370434321316
4.014571428571428 -0.8713074234754067 -0.018595596137231208 -0.0005151388099283409 -0.0005493209978221129 0.00010473248150320712 0.00043291111708920125 -0.9679506230078404 -0.052424256634274385
4.015 -0.8781612614281297 -0.005969095956733574 -0.00046978069217507826 -0.0002412984753139573 -3.739735995561017e-06 1.8235112501733977e-05 -0.9667455744729375 -0.05132041517839386
4.015428571428571 -0.8748119944303835 0.00332985395705532 -0.0005676262026105953 -0.0007468311852352104 0.00011809179785018352 -0.00018841821329802368 -0.9724044921389008 -0.04814038593067949
4.015857142857143 -0.8743202205247649 0.009459158928347632 -0.0003520083294919674 -8.991231745373902e-06 -5.833896578771834e-05 -8.57031715225309e-06 -0.9695220650776547 -0.04656204932953945
4.016285714285714 -0.8729037446139427 0.016340281187211106 -0.0004762098697893285 -0.0005115448628308937 5.870596234485087e-05 -0.00028248092713955116 -0.9655332661408877 -0.0415583081544537
4.0167142857142855 -0.8706076509335597 0.023699105583822964 -0.00014954241613795497 0.00013233099694011033 7.288623354175942e-05 0.0002621150657344517 -0.9632523937841949 -0.05147816545995967
4.017142857142857 -0.8709575963933496 0.032638294869418875 -0.0008426994895474132 0.00014100841530753804 -0.00017630697929980137 0.0003170176372053481 -0.9622880534452123 -0.03939332454509539
4.017571428571428 -0.8740715097099636 0.03598802414682264 -0.0002495442934870423 4.0284743258555555e-05 0.00010923323945430868 2.477882018251819e-05 -0.9716141204662008 -0.039830820413897655
4.018 -0.8713104785723559 0.04125368803362343 -0.00043067059581001956 -0.00047602702448990567 -0.00022867897687031143 -0.00013828917024783204 -0.9700924485763328 -0.04024705440727492
4.018428571428571 -0.8733019043582284 0.0521066322060988 -0.0005228930220872219 -0.00010604859390266427 0.00014676390121122902 -0.0004325347869768987 -0.9700080902498842 -0.03291162526703195
4.018857142857143 -0.8659851377912284 0.059696392340993824 -0.0007900531354496212 -0.00023635498373066215 -0.0001084597394877743 0.00045511124229054143 -0.9623015977905357 -0.02582650909480392
4.019285714285714 -0.8671809769911227 0.0697820773002976 -0.00046381550477832354 -0.00022578773399458264 -6.857594583491843e-05 -3.8369052976855905e-05 -0.9694672538760318 -0.026538108351846102
4.019714285714286 -0.8712424641676372 0.0770182880636942 -0.0005335123934862269 -0.00030130328442147454 -0.00025327805590317863 -0.00015746142802980514 -0.9656031628780566 -0.027334736915783607
4.020142857142857 -0.8710118045672648 0.0800135625189675 -0.0006027736538350555 -9.549110496988706e-05 -5.01040590365043e-05 9.639748485132862e-05 -0.9685297455216353 -0.022762981165409348
4.0205714285714285 -0.8694232737728872 0.09590560297953603 -0.0008061163367705603 -0.00023376941258846645 -4.961484695256633e-05 0.0001034263071349275 -0.9686253525844074 -0.026508107406780303
4.021 -0.8664497190559982 0.09564100758208234 -0.0007427852041618424 0.00017303562106644018 -0.00018566603120597562 -0.00019067444131939465 -0.9674867470795774 -0.0206477204941646
4.021428571428571 -0.8649204840184155 0.10560734309731018 -0.0005486789561495768 -0.00016926513406042705 0.00012951755240513596 0.00018377417415877924 -0.9696384855720263 -0.0205397812383966
4.021857142857143 -0.8677901580095403 0.11010485837745992 -0.0005877975918828805 -0.0002668124643071172 9.568809533672671e-05 2.8997658596538634e-05 -0.9675507068387565 -0.014676830795376582
4.022285714285714 -0.8588140009064543 0.11371886653554647 -0.00020608324186908254 0.0001390022378489837 0.00016286782590474715 0.00013426143005441089 -0.9755792728117839 -0.00940626670839713
4.022714285714286 -0.8646574647573885 0.12909936664823468 -0.0006631743009935711 -0.0003564627864209597 7.498196810822386e-05 -5.73651379900895e-05 -0.9657537987986945 -0.013816819049237445
4.023142857142857 -0.8610204793714469 0.13402651539333263 -0.0005471120144302581 -0.00035892687363208933 -0.0005522165454751949 -0.00013342714132317672 -0.9679482630502264 -0.007803657021124107
4.023571428571429 -0.8603622035084152 0.13462566330119977 -0.001022517911006688 7.408186953320718e-05 7.405413561459188e-05 0.00010622968855248813 -0.9617332740622807 -0.004999309838199627
4.024 -0.8567575345343645 0.14808900070088762 -0.0009071703629798982 -0.00011601609213485734 -0.00037721605320803904 9.37294127743729e-05 -0.9725778385034006 -0.0070758767745570635
4.0244285714285715 -0.8604040979530416 0.1506764510862817 -0.0002775863976293059 -0.00014918343035368498 0.00022183938604335003 0.00025033912647570234 -0.9689735502015455 -0.00416921917025149
4.024857142857143 -0.8591536191295578 0.1626907745847554 -0.0007677259175973003 0.0003845652651379281 -0.0003758455339307093 0.0004923050381006545 -0.9670154770522825 0.0010618882525663302
4.025285714285714 -0.8582455080644755 0.17180834432263611 -0.0010746940354190374 0.00021177019839027433 -2.6370475610477634e-05 8.005060568663421e-05 -0.9684219955137785 0.002986842764098945
4.025714285714286 -0.8544167996859967 0.17726086018509288 -0.0010529717009075425 -0.00016125109015640792 -0.00010927753664738342 -0.0002851665318278466 -0.976202009873247 0.008760251671450276
4.026142857142857 -0.8578202876284551 0.18403702540415875 -0.00020669890251550686 -0.00017295656225748215 0.00025573752293986244 0.00015237127211481947 -0.9687150713888655 0.002951376170152431
4.026571428571429 -0.8460900033800642 0.19185214902385475 -0.0007507135824733734 -1.9178568300732687e-05 0.00017440773291248907 0.0001501917596241051 -0.9743117607631369 0.008968670066005269
4.027 -0.8490174376262375 0.19607451614529628 -0.0004973178701028652 -0.0001300070747748059 0.0001278374552660043 0.00022635631187081917 -0.9706814542221013 0.0051602575928222675
4.027428571428572 -0.8514942969309206 0.1994701154417315 -0.0006809463104336022 -8.765445812501272e-05 -0.00020611945306016515 0.0001271292019899299 -0.9644307389557207 0.017883745010331888
4.027857142857143 -0.8478025562306085 0.20653790251749146 -0.0006764227383809215 -0.00015527201924638994 -5.312222123348196e-05 -0.0004537163566083875 -0.9746615694555767 0.012096619017500676
4.0282857142857145 -0.8465593974390015 0.22162012746641727 -0.00035425920397143333 -0.00017700744754771112 -0.00038701946455735987 -0.0002528205196126501 -0.9692433942287216 0.020719663446519297
4.028714285714286 -0.8504875938268132 0.22089770539403913 -0.0004988915808014913 0.0002690339500608952 -3.120774226415557e-05 -6.304881549020063e-05 -0.9695679796574076 0.014295444312906932
4.029142857142857 -0.8437202719728227 0.23609889056291777 -0.000576868942879243 0.0004602815719704002 -0.00015667340909420003 0.0004283869281841927 -0.969843921842848 0.0228136790318765
4.029571428571429 -0.8431364049392662 0.23738172746582797 -0.0007141655806530251 0.0004089185747763858 -8.048728303291242e-05 0.00011366615153113424 -0.9640688236758267 0.02144560889710184
4.03 -0.8367301444349572 0.2433695397052565 -0.000348382806185578 9.980686335036577e-05 0.0002187721558511697 1.9201771450216003e-05 -0.9728100125403628 0.03196334561034476
4.030428571428572 -0.8365476332630637 0.25425303260997695 -0.00048568538210712564 9.346431489869594e-05 6.0375596387814815e-05 5.9163547158157937e-05 -0.9686905774763578 0.02804863860101848
4.030857142857143 -0.837680853305668 0.257047877924029 -0.00011105356775040883 -0.00041231668883039027 5.648009816419175e-05 -0.0001460168845448267 -0.9743354904264092 0.023170384268981613
4.031285714285715 -0.8299181818489988 0.2663380964917398 -0.0005118083562658415 0.00012258786922969198 1.1559267059299351e-05 -0.0002195685866661065 -0.9673222145421487 0.03638312673596951
4.031714285714286 -0.8259598862605575 0.26880741304218864 -0.00040765089251441265 0.00024191136358073576 0.0002492536994587574 -9.383782094672656e-05 -0.9640687244643383 0.025415714738356972
4.0321428571428575 -0.8222491717651409 0.2788234513646505 -0.0009377011125254391 -0.0003176991586182211 0.00014246182227897175 0.00039148805266688084 -0.9725021559811586 0.036187853722036825
4.032571428571429 -0.8254355961844025 0.2856639285740231 -0.0005920556095043688 0.00031489583518395367 -1.2252410407662633e-05 -5.4863191187886526e-05 -0.9665044000781007 0.04465565692904011
4.033 -0.8242422651252238 0.29247204920922865 -0.0006458185319140204 -0.00015240473003283475 4.6789840887518046e-05 -1.3114241906927122e-05 -0.9656449760418853 0.045300786053270994
4.033428571428572 -0.8269346324789973 0.2992829768335253 -0.0005002654427613143 0.000546170938252528 -0.00011429809063960376 6.470524798786395e-05 -0.9649486048137509 0.04048867790642902
4.033857142857143 -0.8197515265881739 0.30778169975330705 -0.0003228216072576027 0.00013110822532630314 5.815003484476208e-05 1.936422425558793e-05 -0.9620351347114016 0.046199632577444895
4.034285714285715 -0.812686252348949 0.31074253468865526 -0.0007673428804160962 0.000691738449237714 -0.00027427054065423396 0.0002198057969326749 -0.9660484012753692 0.043370411795810894
4.034714285714286 -0.8067836357174213 0.3240040193426918 -0.0004000271634246187 4.421735430041651e-05 -6.175560883083482e-05 -1.0254827552047722e-05 -0.9659089413813461 0.052811082988322156
4.035142857142857 -0.8102410233029997 0.3264680690085097 -0.0002081709968399744 0.0004957525638447549 -0.00014621200645727978 -0.00023858177852601123 -0.9674521192296666 0.05249660643937522
4.035571428571428 -0.8024893691544305 0.33352134570021585 -0.0003580278226695153 -0.00010484650867431005 -9.254373562652965e-05 -1.5391073198122306e-05 -0.9666347629453029 0.05771755532594573
4.036 -0.8003400624440008 0.3440860394816137 -0.0005237667581968079 0.00028992850941896817 0.0003788113214242914 5.900088165496062e-05 -0.9704892228566468 0.056405278508170266
4.036428571428571 -0.8069765041042496 0.3433212255040611 -0.0005019217141629057 0.000212822714228977 0.00015781107046935482 0.00014247053280505825 -0.9669192915793374 0.05119508295046084
4.0368571428571425 -0.7993635061121093 0.3544097877034909 -0.00047582533878051127 0.00015146396391452587 -7.139841228684552e-07 -7.545531589054898e-05 -0.9700419081439178 0.05290228702115332
4.037285714285714 -0.7924299338417965 0.36192528128750484 -0.0003039893971789674 4.4912718468332896e-05 0.0001953863434864311 2.044925854958281e-05 -0.9627471205906576 0.058229929273584016
4.037714285714285 -0.79019039386022 0.36101882227914667 -0.00013537372507283103 0.0004846516101887042 0.00029966768272521354 -3.08134875215567e-05 -0.969049210255333 0.05689580583748848
4.038142857142857 -0.7876896960048704 0.38212811686447995 -0.0005901220976805081 0.0008671897000674932 4.510984768916957e-05 4.894359541026679e-05 -0.9624461077311323 0.06195929885652101
4.038571428571428 -0.7863767909248036 0.37945133674555204 -0.00016758607862479884 0.000536821037554207 -0.00033901050853432077 0.00012849346974798924 -0.9614520922250456 0.06717080300527203
4.039 -0.7830612709549781 0.38405030429056547 -0.0003122235977499387 0.00020002950990985558 -1.226767794658484e-05 -1.3493874496965487e-05 -0.9607525345100343 0.06482643438432413
4.039428571428571 -0.7747006450542068 0.40050534382956837 -0.0006891256423476471 0.0002474927316998505 -0.00019554460506105204 -0.00044209968036302736 -0.9635731530832969 0.06986608434896201
4.039857142857143 -0.7780161014822929 0.3999816507642258 -8.214504547902366e-05 0.0005387639468004513 -0.0001227343778726051 0.0001519143420590955 -0.9705552109354146 0.07044395649556039
4.040285714285714 -0.7730855725685573 0.4000963560026875 -0.0005037174035315646 0.0006901986686430683 0.00023068535691238846 0.0001189895580116298 -0.9641427083665733 0.07663444727211026
4.0407142857142855 -0.7729080927638228 0.4141611814186575 -0.0004781357806398123 0.000667411343892261 -4.968148639166657e-05 -7.528148419195523e-05 -0.9594942091738463 0.0756799330412509
4.041142857142857 -0.7609828553208694 0.4174160659612449 -0.0005406738734598487 0.00036028621634086967 -0.0001544163702496712 4.499815859868112e-05 -0.9693333773649698 0.08463998639928681
4.041571428571428 -0.758789312206442 0.424587099657894 -0.00030291580551864604 0.00022939808627294367 6.726607198832871e-05 -1.0737028791880912e-06 -0.9659087534453521 0.08329517890510779
4.042 -0.7564631726829593 0.43486617811244194 -0.0008568707930483256 0.0001848418450141956 4.0157314166038035e-05 0.00011676192895136527 -0.9625260296980043 0.088658651397661
4.042428571428571 -0.7514604351453865 0.43631473392937425 -0.0005025567825087641 0.00034622114533775644 -4.658524151517829e-05 0.00011573246054043899 -0.9596279942817438 0.09187423770975243
4.042857142857143 -0.7523784144722989 0.43526307747655146 -6.44444240948958e-05 0.0005065175437675778 -3.1841662315840886e-05 0.00018692877235388373 -0.9661423761044974 0.08892652394543295
4.043285714285714 -0.747108754977221 0.45112477320423866 -0.00037517367901952596 0.0001412828967006489 -3.174018461143848e-05 3.657519805689326e-05 -0.9650158556176679 0.08586240477118544
4.043714285714286 -0.7393713643540022 0.45416686794163025 -0.00016358989617205986 -0.00021236000105118868 8.141472108636875e-05 0.00046793355111922054 -0.966310706121871 0.08379089084444617
4.044142857142857 -0.740000244632028 0.4614673948320141 -0.0004519993415987803 0.00042977996097982824 -6.659033651659292e-05 0.00010313531615561058 -0.9629531573308746 0.09771666482834498
