!Created with skrf (http://scikit-rf.org).
# Hz S RI R 50.0 
!freq ReS11 ImS11 ReS21 ImS21 ReS12 ImS12 ReS22 ImS22
4.0 -0.8494739081071865 -0.2517121078478143 0.000555045570187835 -0.0005895218841478897 0.0002078217796945302 -0.00011440493890060299 -0.9627971974613944 -0.12986527076443832
4.0004285714285714 -0.8576220317341063 -0.24711007168088628 0.0003157402872403998 2.403812345304219e-05 -0.00012176501062251292 0.0002644026242752653 -0.9705719738307601 -0.12192554503481871
4.000857142857143 -0.8595869399173893 -0.23514192919301943 6.394110378630612e-05 -0.0006898107269139027 -0.00011291795384812519 7.278504989047295e-05 -0.9664653902188197 -0.11559011025274434
4.001285714285714 -0.8553026948346287 -0.23146386730400162 -0.0003160592963679516 -0.00029391447307675875 3.0835881169707044e-05 0.00011259525070380662 -0.9637455539829758 -0.11637223334333212
4.001714285714286 -0.8603388588863283 -0.22277888423600173 -0.00011399091939877368 -4.001376146145255e-06 -0.00016624392343702964 0.0002625622717831451 -0.9675919248981093 -0.12045784674527041
4.002142857142857 -0.8598113876596482 -0.22139598885072548 0.0002974518335959532 -0.00013487900505555688 0.0001803745920195635 0.00027649912748585774 -0.9664437977947792 -0.11031093334911744
4.002571428571429 -0.8633161960196182 -0.21241938142911004 -0.00013015742901252304 -0.0002770680489843993 -0.0001606245765256381 4.0565099504000134e-05 -0.9707039956838811 -0.10489683170113781
4.003 -0.8663579288678003 -0.20074679539908877 0.00021575489550515288 -0.0004268457246471952 -2.1206464249833848e-05 0.0002231306294400056 -0.969125062672809 -0.10379026904653703
4.003428571428572 -0.8696720436758748 -0.19739763323878542 -0.00018590672891319687 -0.0003037718477455239 -2.5397547261684484e-05 -0.00012832652043209507 -0.9634312988367256 -0.09841862710686342
4.003857142857143 -0.8639844049532026 -0.1896954200337529 0.0002350224928897082 -0.0005851069298874434 -2.5693717080040423e-05 8.510028241456828e-05 -0.9725536107973713 -0.10967621222227239
4.0042857142857144 -0.8765395235595155 -0.1806697330885121 -0.0003897966812934665 -0.0003375543746249668 6.318164834223609e-05 0.0001581943656503266 -0.9658826125310375 -0.09977438255794044
4.004714285714286 -0.8705448272031807 -0.1723162939137296 -2.448567377403145e-05 -0.0003566257829835108 -0.00010688288723135033 3.364546599341702e-05 -0.9608648356938301 -0.10782455568356626
4.005142857142857 -0.8725202630647988 -0.16464017820860388 0.00014291615336862857 -0.00048652285926343723 -3.214510819162476e-05 5.8435935893515855e-05 -0.9684382209622976 -0.09502181876170554
4.005571428571429 -0.8750353863243869 -0.15839525636449883 6.563612809730394e-05 -0.00018641592304092125 0.000138613521831437 -0.0002700118296873451 -0.9601518920423635 -0.0939290997689473
4.006 -0.8769858889443478 -0.1545201195968808 -1.7156759189871715e-05 -7.838209062195693e-05 0.0001265469826373123 -0.00020092877659831822 -0.9705096280018839 -0.09169155109697782
4.006428571428572 -0.8780436940399898 -0.15009020801040082 0.00029006090221090947 -0.0003813386975662161 9.02643611877432e-05 -1.2950884135667402e-05 -0.9687606049533776 -0.09261400364275955
4.006857142857143 -0.8819997250855183 -0.13856152775132602 -0.00010091504613459197 -0.0004158344857011092 -4.83282632343376e-06 0.00034567241781509355 -0.9647981357125304 -0.08550263307216427
4.007285714285715 -0.883629544240154 -0.13113127773780142 -1.4553516443367268e-05 -0.0005804383649338514 0.00017004150813673666 0.0002016180573573239 -0.969623425481542 -0.0810691521162989
4.007714285714286 -0.8817120668668483 -0.12621618404218019 0.0003242945067565542 -0.00013182131555721608 0.00037561118564665634 3.397300547163142e-05 -0.964971267939758 -0.08195796904127757
4.0081428571428575 -0.88336117503413 -0.12256040465578667 -2.79131149150657e-07 -6.870471357870421e-05 6.317861236010733e-05 0.00019064208795849415 -0.9681631963853866 -0.0879641260667928
4.008571428571429 -0.8853682410809549 -0.10946320310601049 -5.1894996721057606e-05 -0.00018659916460558003 -1.9091324696761144e-06 -0.00022039713987845596 -0.9636476704980135 -0.07920159642557834
4.009 -0.8881575833920157 -0.10477532682765332 -0.0003337352123855766 -0.00030051345016090045 -0.00026513797365494023 8.552551008489814e-05 -0.9755561344996448 -0.08490060822621182
4.009428571428572 -0.8845868906131468 -0.10034649809471119 -0.00014167889308376678 -0.0005530942150251252 2.7396818420091294e-05 -0.00013206949761688144 -0.9754479984102264 -0.07758955564145595
4.009857142857143 -0.8864963609262322 -0.08709118498984009 -8.234093747410437e-05 -9.647986906904452e-05 -0.0002920180393209195 -4.646242974803036e-06 -0.9691422622990452 -0.07168372953624053
4.010285714285715 -0.8891804480467996 -0.0817508429258237 0.00016546556499569858 -0.0004818660254848687 0.00011900802982099933 -8.780653045201326e-06 -0.9657311365880042 -0.07392784750163355
4.010714285714286 -0.8884848584129175 -0.07524948265154638 -0.00011914157354689147 -0.00019712754105514254 -2.2806205050379594e-05 0.00036553941677676817 -0.9698037846965413 -0.07223291520082498
4.011142857142858 -0.8836493838484228 -0.07180583049980353 -0.00016314703260430865 -0.0007845166963802816 2.4735507859273942e-05 -7.766163774314146e-05 -0.9681890001334014 -0.06614676469235742
4.011571428571429 -0.8863898050872329 -0.057778449050612565 -4.94530707635125e-05 -0.0002402657868572202 0.00016033012427950144 -7.360706528733107e-05 -0.9709259677252322 -0.06565783425563393
4.012 -0.8927822132757567 -0.05539219570714692 -5.0323678214968255e-05 -0.0004105195286552354 0.0002534420219124933 0.00014331964653418357 -0.9766870799632491 -0.06360621553944451
4.012428571428571 -0.8869144976128065 -0.044778619559878656 -0.00021619010063104554 -0.0002751936930738091 -0.00010977529709352697 7.015401354785482e-05 -0.96278135979733 -0.054888028839923275
4.0128571428571425 -0.8945700535652182 -0.03371115206818404 0.00017111596035825373 -0.0002230468056556721 0.00011052781766367111 0.00022088617572182096 -0.9645539445852219 -0.06493813542313571
4.013285714285714 -0.8852860254273229 -0.030796858562578154 0.0004639244425082717 -0.0004698891634426966 -0.00011145874289339037 -0.00011725408860346018 -0.9623479775585013 -0.05857700341230326
4.013714285714285 -0.886957701841766 -0.02416347603128666 -0.0004930034453681679 -0.00032696044446322247 -0.0003625869448260363 0.0001728040017454745 -0.9752025182152865 -0.05256639865512307
4.014142857142857 -0.8883254971566145 -0.013551139173137038 -0.00047306139539900655 -0.0006436695660245941 0.00020526791889656474 -2.1911250901439738e-05 -0.9721292313228695 -0.04614230179476534
4.014571428571428 -0.8867219639851646 -0.011267543269836037 -0.0002838334248997075 -9.453057819595069e-05 0.00013299032657607788 -2.750934231241184e-05 -0.9695175453789701 -0.05220143332880671
4.015 -0.8965823653093447 0.00047495397397770775 -0.0003793664359893962 -0.0001840018820817624 -0.00042830731879032254 0.0002519744436424887 -0.9664663696522892 -0.051677744307750385
4.015428571428571 -0.8903289495276948 0.010709679308842675 -2.8080666048680448e-05 -0.0006255159605969847 2.001248340772206e-05 -0.00030123075186117514 -0.9733772550707187 -0.05015322305443013
4.015857142857143 -0.8909200273450293 0.017590552631655536 -0.00020180364167585863 -0.0005583846066216903 -0.00043756933864501303 0.00014770106149824443 -0.9717419450846547 -0.04559808467005546
4.016285714285714 -0.8898456954742733 0.02343790031087504 0.00016789270130314606 -3.855462529810583e-05 5.25885836979559e-06 0.00031234187775531206 -0.9646481523137932 -0.04115543134329167
4.0167142857142855 -0.8895212581076738 0.028739144726874485 -4.227491530997019e-05 -0.00022850956004648947 0.00027239966864221066 5.2497611411970886e-05 -0.9651263587465823 -0.04867714647907334
4.017142857142857 -0.8867842410985535 0.03860181998934454 -0.00012555611761554017 -0.00014540473295484115 0.0001327345353775079 2.366902395884773e-05 -0.9600637777599772 -0.0383779841080299
4.017571428571428 -0.8907205714220462 0.042832264616942554 -0.00018053273652514888 -0.00046664691963049207 -4.494798851137214e-05 0.00017374493216732205 -0.972157681429884 -0.04176735959433968
4.018 -0.8857714765021988 0.0500400707539432 8.100326897514735e-05 -1.0026493217787924e-05 0.0002041293303628911 -0.00027594325840779214 -0.9702378731584692 -0.04075238784373723
4.018428571428571 -0.8922246466294604 0.05920661505314694 -0.0003603079709012999 -0.00027379324823029893 -9.95438388990054e-05 0.00013471233057785062 -0.973208159225746 -0.03282540232962253
4.018857142857143 -0.8840698360821652 0.06615738980318449 0.0003480619479540802 -0.00033904220348026824 -6.2769070856034756e-06 -0.00020796634458396688 -0.9600580234960047 -0.02653520455043032
4.019285714285714 -0.8830154335679574 0.07703424782028397 -0.00043292018018300686 -0.00038405875155329144 5.7405760388425887e-05 -6.485126011909328e-05 -0.9707047182809385 -0.02735135611832355
4.019714285714286 -0.8879352434262908 0.08468377812231695 -0.00021784280402430183 1.1580546100953367e-05 0.00023087457861877317 -0.00029695498513189044 -0.9616768657841307 -0.02791533974247313
4.020142857142857 -0.8868243473214871 0.08804782358291408 -7.518246982077877e-05 -0.0003072902946246625 -8.739649733550792e-05 -2.097238341930937e-05 -0.9683749919021502 -0.023742343734441285
4.0205714285714285 -0.8847948545314401 0.10477166505548555 -0.0005807685302699549 3.7843474252323715e-05 -7.267160307600894e-05 5.551811792893991e-05 -0.9678577775997179 -0.02587092692205477
4.021 -0.8819601005031524 0.10212885717345771 -2.636159958623517e-05 -0.00018155376301810585 -8.689292691445165e-05 0.0002565848168393781 -0.9677979952954571 -0.019776287421857476
4.021428571428571 -0.8812416846943367 0.11622018971073363 -2.8629173598010793e-05 -0.0002585271077330472 0.00015750349831684048 0.00028992288079186915 -0.968586444963296 -0.019712701820432277
4.021857142857143 -0.8834524845891779 0.11708532812834345 -6.540987374665079e-05 -0.0003059520231383034 -0.0002984389181858876 0.0001019668430607636 -0.9667344527933251 -0.015291307898952201
4.022285714285714 -0.8749161388456278 0.12293878149301837 -0.0004536622028964882 0.00021183871423861557 -0.00012811360216179676 -0.0006666272280870469 -0.9752282846355921 -0.008340061166250263
4.022714285714286 -0.8808988849842643 0.13832396419921286 0.00042850134310979857 -0.0002910997026368716 -0.00010410701090892873 4.290104564848754e-05 -0.9652856544586043 -0.011468464882931323
4.023142857142857 -0.8768048038947229 0.14318137583500648 -0.00018821219919337053 -0.00024387909281371086 6.446476584539287e-05 -1.4757076892566361e-05 -0.969493014103749 -0.007095186022078199
4.023571428571429 -0.8777939530898702 0.14427158223172 -0.00015828456996757953 -5.588316921962763e-05 0.00018018576805198014 -4.398618380699023e-05 -0.9622676793184878 -0.004310564082878578
4.024 -0.8721925444196942 0.15572869573309991 -0.00013518634594252233 -0.00030557502870750587 -0.00012634626297221342 -8.663902186759853e-05 -0.9696559242140511 -0.007957306476473245
4.0244285714285715 -0.8761772618636259 0.16095640778390422 -1.7240407958297583e-05 -0.0003697900016337374 1.1784447227872199e-05 -0.00021590161149722355 -0.9702675398391063 -0.003059875276279204
4.024857142857143 -0.8757211722452026 0.1725997731372938 -0.00013406386411451756 -0.00045741473804544584 0.0002115107315626051 -0.00017439185734205768 -0.9658127153771597 -0.0008226094540350714
4.025285714285714 -0.8747813105693212 0.17899578952458592 -0.00029407604890196147 -5.630473626151439e-05 7.702970663549223e-06 -0.0002195685345900222 -0.9660469992147876 0.004139387659147274
4.025714285714286 -0.8735510606275063 0.18743533028817932 -0.00013294770730327553 -0.00048223200019743514 0.0003816039864484748 -6.522468209368119e-05 -0.97611755109052 0.008366180956328618
4.026142857142857 -0.8747545625280452 0.19315060045992635 -0.00020709508834033233 -0.00025694241589996526 0.00013330475338653555 -0.00029328714135469643 -0.9689341153694183 0.004850619271869556
4.026571428571429 -0.8607965847543915 0.20214455167629558 -5.8508029651038836e-05 -0.00033264636273844705 4.4730212068464284e-05 7.333753847474286e-05 -0.9726179031601547 0.00874231681924494
4.027 -0.8646518486263342 0.20698709552217856 -0.0007585552746851245 -0.000312222945719458 0.00015349363749639773 2.7520528769525982e-05 -0.9709102928623615 0.005949623090409732
4.027428571428572 -0.8680059800377532 0.20751261195692203 -0.00038494200703577836 -0.00012833329584547472 7.666330788264963e-05 -0.0002760408532629696 -0.9650768837070457 0.01649354675364367
4.027857142857143 -0.8628101156487185 0.2153563619644123 -5.3409719134613834e-05 -0.00024333206672959317 0.00020399860969176143 -0.00014911282743875517 -0.9763128593013625 0.011866339609737797
4.0282857142857145 -0.8618866909501979 0.2324726477339918 -1.71729876587693e-05 -6.988201720261713e-05 -0.0003910883887698164 0.00021635457265768138 -0.9721551014897154 0.02222634742446659
4.028714285714286 -0.8668743966595616 0.22762453204735542 -0.0003804518648385536 -0.00012883802090426087 0.00029219037133084244 -2.1609713270784556e-06 -0.9703035361937336 0.01343552130406657
4.029142857142857 -0.8601244381606377 0.24291651863332447 -0.0005323836555840177 -0.00016783237436272927 -6.551193713473738e-05 1.2897926119572062e-05 -0.9692339342759866 0.02246312337568987
4.029571428571429 -0.8578283369824911 0.2485465288731346 -0.0004527926705656686 0.00015116743623537387 -0.0003805522900462997 0.00012508413934964537 -0.9645542829437079 0.021925883710566876
4.03 -0.8523297627061965 0.2530520194244536 -0.0001932249816649304 0.00013233947365399415 0.0002754171252963 -1.0032387528647125e-05 -0.9720507163247545 0.032910430330886996
4.030428571428572 -0.8512265195905251 0.26489823272882784 -4.442791528573097e-05 -0.00022700136583622007 1.5451732761727894e-05 -0.00028961370022840904 -0.9712478004436602 0.029180667169363236
4.030857142857143 -0.8535216458216586 0.2671501604632351 -7.298551879640466e-05 2.67647524808809e-05 0.00013505573181135278 0.00011074312562593769 -0.9717368920974249 0.02064591405857074
4.031285714285715 -0.8465032359808327 0.2762552838473732 -1.8382816135181044e-05 -0.0001578300788236676 -1.1284751954351364e-05 -0.00023837499427748905 -0.9671030795235843 0.03480497644317001
4.031714285714286 -0.8424088410804217 0.27886083127950734 -0.0001994337406910082 -7.385833783610803e-05 0.00035296137369401285 0.00018423964705376657 -0.9667735730963452 0.025267972629854335
4.0321428571428575 -0.8395327271589869 0.2891789237057089 -0.0006520365574776416 -0.00022321573203042366 -5.984945574455466e-06 6.885749135484838e-05 -0.9706171854917931 0.03622150234427964
4.032571428571429 -0.8401760564365104 0.2961857925674596 2.72775662061124e-05 9.049072857701989e-06 -8.134942378881098e-05 -0.00012410357371003914 -0.9656363039202865 0.044857656388214984
4.033 -0.839054331156643 0.3017003253884857 2.5971402359361008e-05 -0.0004540112625995858 -0.0002087445689525599 0.00012399969173602742 -0.9652243508959991 0.04509261103161589
4.033428571428572 -0.8423270252999822 0.31111336347487245 -0.0006137754249940831 -0.00029749209360016695 4.459714239512128e-06 5.1066403996056235e-05 -0.9624239809583629 0.03975863821884563
4.033857142857143 -0.8352670426839688 0.31840731465900823 -0.0005692018656526045 -9.183258270315784e-05 7.5771800119210065e-06 0.00012394946050166584 -0.963405320677922 0.044366435625759836
4.034285714285715 -0.8266501172822661 0.3211253593780976 -0.00010206812512493855 -5.465192514959978e-05 1.8719843080309658e-05 0.00018175016132051432 -0.9671358769769067 0.04190808386979507
4.034714285714286 -0.8212356074101352 0.33397488011576254 -0.0004891650069134595 -0.00013496064689635495 0.00012133046500770815 0.00016369112379384078 -0.9667253874709257 0.054719320731899404
4.035142857142857 -0.8224343929408632 0.3396239752283924 -0.00017953765075165337 -0.00045269184123067086 0.00020634635628321066 -0.00019069523351825728 -0.9692031048926318 0.05199283966453959
4.035571428571428 -0.8137067716307452 0.3460168995241602 -0.0005247817844380475 -7.63335580855551e-05 6.572748798689372e-05 0.0002833714676274129 -0.9655399270349734 0.05793580008512428
4.036 -0.8126082115373439 0.3546814945243918 -0.00013718991817511427 -8.017057591600048e-05 -0.000225415515011634 0.00013471556470566156 -0.9698716909686452 0.05739466852015226
4.036428571428571 -0.8215575862609986 0.3531085293310898 -0.00038629526777044795 -0.000199749563592285 9.534842436586586e-05 -0.00023264757997757085 -0.9685735553068522 0.05406832613690521
4.0368571428571425 -0.8157026241204409 0.3672042049775388 -0.0003298343374752319 -0.00011330722586489164 -0.00010510300580385786 2.791043760836497e-05 -0.9714207917430111 0.05465920460638485
4.037285714285714 -0.8062496424301798 0.3718983018611175 -0.00034732249263314706 0.00042740171203645074 -0.0002148959451634862 0.00035152371805320583 -0.9637737742469709 0.059682675684752474
4.037714285714285 -0.8039554778214776 0.37224279206917343 -0.00019611621710564016 -8.913061433163126e-05 3.29814855767237e-05 -0.0002235631910714011 -0.9703828197241818 0.056348039441197206
4.038142857142857 -0.8003300023197579 0.39272556156831817 -0.0002046644932859014 9.028719242205344e-05 0.0003248219571640317 -0.0002442004579948425 -0.9628522534272782 0.060801470796816956
4.038571428571428 -0.8008936143516767 0.3921229922950773 -0.00027163967592753807 5.589867159212492e-05 7.654240709195753e-05 -8.878742745562721e-05 -0.9607882716724611 0.06757214393825174
4.039 -0.7973637026018819 0.3961012826150574 -0.0001218707307559167 5.083119454237604e-05 1.0202803620222085e-06 1.9290556153951905e-05 -0.9587562681842997 0.06534015744370497
4.039428571428571 -0.789488150354817 0.412890692028429 -0.0001136313041050679 -3.797615154250337e-05 -3.219574494858688e-05 -0.000111314440957117 -0.9641358925881652 0.06856883691177328
4.039857142857143 -0.7914198083261061 0.4115335525336594 -0.0003603836001228758 -0.0001501968973912791 -2.8937596247231243e-05 0.00012215965657427682 -0.9707521861117121 0.070221507165827
4.040285714285714 -0.7883655174982681 0.41176146735785757 -0.0004968138040459321 -0.00013453057648756756 -0.00010051555625169395 -0.00017460854024538993 -0.9639151368359719 0.07675212113434872
4.0407142857142855 -0.7869889023642646 0.42582559487095334 1.9654815934982877e-05 2.5720952328319507e-05 6.326663558683593e-05 -3.882600000635531e-05 -0.9602796499105218 0.07681464204874075
4.041142857142857 -0.7759584434889971 0.4291395246533458 -0.00017047818142178355 -7.250290172017008e-05 -0.0003100118643342845 -6.310881822587079e-05 -0.9699366580361356 0.08520862821934905
4.041571428571428 -0.774073305420781 0.43614540059440354 -0.0006141048366862309 -6.707058479678171e-05 8.667241870842247e-05 -0.0001098403304353859 -0.9658089299394002 0.08263430894539674
4.042 -0.7703751821235433 0.4471884496276536 -0.0006695362362756115 -0.00011540804285884536 0.0001511749891389233 0.0002626100262553901 -0.9612507344086201 0.09050298635312982
4.042428571428571 -0.7643924599244459 0.4515565189934074 -0.0002660278854739374 5.751971034065796e-05 -3.9262281856925336e-05 0.0002068506795736942 -0.960400497694016 0.09318796530156169
4.042857142857143 -0.7637648376475952 0.4468951057514395 -0.00014554064010139717 0.00011442111004639028 2.5157625321240738e-05 -0.00010015573483356684 -0.9646338712328708 0.08952281117034296
4.043285714285714 -0.758717829696492 0.4640751394233236 -0.0008340498560471753 0.00017542158112128096 -0.00019846613472948544 -0.00021461769620257674 -0.9644481437059725 0.08632888236270168
4.043714285714286 -0.751768853699522 0.4665472298797875 -0.000330960906584149 0.00010774698628195249 0.00011748411890887175 -0.00019452380330720927 -0.9671877710500688 0.08336458315502975
4.044142857142857 -0.7540943004130367 0.4750855407742192 -0.00011939940365380107 1.707075250067517e-06 -5.1681530332507525e-05 -8.502670729787261e-05 -0.9635857573264607 0.09655954384183915
