!Created with skrf (http://scikit-rf.org).
# Hz S RI R 50.0 
!freq ReS11 ImS11 ReS21 ImS21 ReS12 ImS12 ReS22 ImS22
4.0 -0.8416877883981472 -0.24938057280232712 2.3166290751260004e-05 -0.00019575933747275354 -0.00017915982032172791 4.324583889832314e-06 -0.963449869384924 -0.13057696817635894
4.0004285714285714 -0.8491523873942645 -0.24476144628025306 4.918047836963149e-05 -0.0007251719220089627 0.00011240844787925842 0.00010052972563360808 -0.9702404608901865 -0.12234681927062392
4.000857142857143 -0.8518785751306792 -0.23361481727232028 -1.615096623548226e-05 -0.0002764025604189313 -0.0001817640366594115 -8.123049620725368e-05 -0.9650608471895582 -0.11451846374497306
4.001285714285714 -0.8466122279278352 -0.22794292349409226 1.2424768279096481e-05 -0.00021887514047996145 0.0002773631369962536 -2.7087158123642598e-05 -0.9643462247412943 -0.115865732161904
4.001714285714286 -0.8529692642230113 -0.21980160580508099 0.00010889037605797414 -0.0007772623246566698 0.00017178617824513385 -0.00017664540843788682 -0.9657970664393183 -0.12210421566024443
4.002142857142857 -0.8525817815151957 -0.21839534617304232 -0.00011828389769510288 -0.0005951562978370297 -6.958857698529399e-05 3.051784019401571e-05 -0.9660783282993023 -0.1105919097289432
4.002571428571429 -0.8547355253061094 -0.21072801898669152 -0.0002370863332161339 -0.0005053422088794121 5.1630332729336574e-05 8.610790054816892e-05 -0.9709990602601849 -0.10609304088457701
4.003 -0.8598166277472405 -0.197907476623691 -5.6381810997151096e-05 -0.00011504705872121615 -0.000105292566783281 0.00013175991175189069 -0.9678166825173691 -0.10448140452309934
4.003428571428572 -0.8607201846359037 -0.19476365353591862 -0.0003305699434154555 -0.0007977480040475981 -0.000258299008150693 -0.0001984590705358564 -0.9634504775489112 -0.09845584083854333
4.003857142857143 -0.8565179275676138 -0.18698165194761748 -0.00013597478845996897 -0.0007452397342934542 -8.845915138911255e-05 1.813915493518958e-05 -0.9695833440908609 -0.11005148218574066
4.0042857142857144 -0.8687249393382114 -0.18020283208009813 -0.00017520374543396282 -0.0005859893611258767 -0.0001633025163409692 -0.00031426778853008933 -0.9655996681648625 -0.10019249100558925
4.004714285714286 -0.863383662051211 -0.170270547713467 -0.00010188242876146426 -7.834814195380123e-05 2.5579797808595295e-06 -0.0001272950528062685 -0.9590488205908394 -0.10768064759898432
4.005142857142857 -0.865103795330355 -0.1630767655078262 0.0001663453382106686 -0.0009037240406822543 -0.00015393270953472754 -7.758958764455513e-05 -0.9691986734709016 -0.09531683635742456
4.005571428571429 -0.866148019555885 -0.15638455634334716 0.00019955159665313078 -0.0003819548759746303 -5.064759871588017e-05 2.8242632251927967e-06 -0.9599832193344358 -0.0946612726644003
4.006 -0.8692961187958423 -0.1529044334891841 -0.0001125927209810356 -0.00030911073016297796 0.00010246300500798255 -0.00012387315151665302 -0.9702850439096131 -0.09407560517606842
4.006428571428572 -0.8688023745339495 -0.1469069546488937 5.7783402770745045e-05 -0.0006600544123958508 -0.00019938113008392372 0.00022702945817624663 -0.9676144487761249 -0.09188886769287215
4.006857142857143 -0.8735788004993593 -0.1367139509974353 7.317535309873346e-05 -0.00045026395905734906 -9.092002757893725e-05 -0.0002647395084876797 -0.9656929812244356 -0.08522335141409848
4.007285714285715 -0.875664075521445 -0.12912788260457303 -0.00013968722711527311 -0.001039935662687796 -0.00034553256042732424 -5.597571743540291e-05 -0.9685954463134513 -0.0808411784387367
4.007714285714286 -0.8729440743045632 -0.12578176097966567 -0.00023327444334252792 -0.0004020165923297925 1.5521849852289432e-05 6.454912890069385e-05 -0.9633376787018753 -0.08335123454966226
4.0081428571428575 -0.8742900544980879 -0.12077864850121826 -0.00040020377367427673 -0.0006566111392988137 -0.00012131611777713031 0.00012824220603039292 -0.9685659783604752 -0.08777427398979705
4.008571428571429 -0.8764586194258135 -0.10804299352340824 -7.133726430026577e-05 -0.0004552060810229468 -0.00011453467434837732 8.449807817732088e-05 -0.9643435744910417 -0.07837712326099162
4.009 -0.8792045982007828 -0.10156286423569495 -0.0003133435107337908 -0.0003776287490577153 0.00017589555101743873 0.00019045972698177252 -0.976707929620579 -0.08493114094259967
4.009428571428572 -0.8759158526741826 -0.09808145226591292 -0.0002558256585392661 -0.00035018202472285754 9.886078078264884e-06 0.00027575977829281224 -0.9748851594395913 -0.07561807606276912
4.009857142857143 -0.8774930735030549 -0.08591542062868483 -0.0002930083794657392 -0.0005700716194075263 0.0002297009397113542 0.0002827711017920327 -0.9686981680673232 -0.07212537460311785
4.010285714285715 -0.8809220678273367 -0.07897147633862896 -5.885340028539524e-05 -0.000575542025420879 -0.00017352787693340323 -0.00014899828581677537 -0.9650905536694581 -0.07249379944448492
4.010714285714286 -0.8806220101539565 -0.07399348857332341 -0.0005832882674088538 -0.0006265507285753802 0.00025300909103068034 -8.730268503895114e-06 -0.9664414172667364 -0.07256717730433847
4.011142857142858 -0.8763227696144559 -0.07029236184605746 -0.0002842608936676475 -0.0002901043923975779 -0.00017615871053027602 -0.0002944101258150778 -0.9701767201687685 -0.06579986280519333
4.011571428571429 -0.876060225031219 -0.054870051177878694 -2.2192321947327237e-05 -0.0003786015121231143 0.00011846800725519194 -0.0002569083435608331 -0.9708185696837001 -0.0655045010654757
4.012 -0.8837721844035097 -0.052277330033290846 -0.00015781531559598647 -0.00018144759521438827 -0.00014976878055297013 -5.220402778041691e-05 -0.9748694339896039 -0.06321286567190577
4.012428571428571 -0.8787047931398961 -0.04467863140224469 -9.955778210574874e-05 -0.0006939435944897912 6.392093737837944e-05 8.762796966278825e-05 -0.9624190212834421 -0.057347226970563304
4.0128571428571425 -0.8859583425631489 -0.03395817760633969 -0.0005995812002890863 -0.0003286372578135967 -0.00018777575038477206 0.00011363608303054887 -0.9652127680076329 -0.06117321784671881
4.013285714285714 -0.8768503388984102 -0.030405381466814752 -0.00037869764687027604 -0.0007916837573659055 0.00011177963752021864 0.00022599745686286953 -0.9620304385718969 -0.057784317250116034
4.013714285714285 -0.8804164082236206 -0.01984276639287738 5.858114725787334e-05 -0.00017987369145033922 -4.833808190165522e-05 -0.00021742427830739284 -0.9737658312602414 -0.05109345489757397
4.014142857142857 -0.8804963682265223 -0.013346666974621868 -0.0005501789120061196 -0.0002282763669566031 0.0001496956693685366 0.00013425388689710798 -0.9724130399210728 -0.04796782092929509
4.014571428571428 -0.8789240430585169 -0.010860206017235084 0.00017295864801262147 -0.0006087252605875353 0.0001961260555588245 -0.00012269618909482304 -0.9698681520383835 -0.05221019748221584
4.015 -0.8871040045700948 0.0017098258117509797 -0.0004573980937218755 -7.201398234160846e-05 1.1743359744590026e-05 -0.0002875940620502218 -0.964911907445628 -0.05240908945088756
4.015428571428571 -0.8844879330061536 0.011566264017143587 -0.0003818039857541485 -0.0003259911134990806 -2.9368138020600385e-05 -1.1218410302226433e-05 -0.9731737171507867 -0.05048626836880508
4.015857142857143 -0.8807042300365848 0.017416923523858527 -0.0004433338891926873 -0.00017326638011175326 -5.837211483247375e-05 -0.00011418330905231864 -0.97135503442691 -0.04652628448688279
4.016285714285714 -0.8816006481282986 0.023293616167779835 -7.477039409736563e-05 -0.0006631461664752976 -0.0002777641220256299 0.0001079723216451307 -0.9649755461916746 -0.042680630369233426
4.0167142857142855 -0.8820227468612195 0.02934027203699977 0.0002143057324190643 -0.0008198842341267325 -0.0001642233373094338 -7.305656854348281e-05 -0.9655638881429849 -0.04987081263890662
4.017142857142857 -0.8781291714382394 0.03681991654643619 -0.0003788665601063886 -0.0004112421206887336 -0.0001350717404669779 -7.880115433439222e-05 -0.9601671530176548 -0.0405679732707987
4.017571428571428 -0.8826619726938499 0.042161985346820044 -0.00032841866036100874 -0.00014187935722875979 0.0002698292690549697 4.2148995857200994e-05 -0.9726371285286981 -0.04206266619907677
4.018 -0.8794306433699913 0.04907667138101382 -0.0007978174476504162 -0.0006252166879614476 0.00024278323027982407 6.642810431065364e-05 -0.9715677752749695 -0.04015568124312807
4.018428571428571 -0.8836546999881302 0.05789511208035659 -0.00045186676489874773 -0.0008468334281454029 -0.00028522748800517873 0.0004616502541569704 -0.9711074655331012 -0.03427216313344113
4.018857142857143 -0.8754776662642733 0.06625908919124336 -0.00047021046408666925 -0.00021963149910114756 -8.19665036653441e-05 0.00014414881563963917 -0.9631038843223056 -0.02682255669659144
4.019285714285714 -0.8736458228002412 0.07878120441844022 -0.00012847768491465065 -0.0004778732114321231 0.00016381037162727942 -6.655432465382632e-05 -0.9713791486547596 -0.027560803911820978
4.019714285714286 -0.8796510590217739 0.08467586385856617 -0.0004575990811563745 -0.0008335660258509686 0.0001755589833799754 0.00023998447978759222 -0.9657045449087261 -0.028669179569423654
4.020142857142857 -0.8780527632361468 0.08808148071152945 -0.00040213263825094274 0.00016563566112348562 3.489848931952221e-05 -7.37054178224987e-05 -0.9690464045285694 -0.024855488410596097
4.0205714285714285 -0.876699810181568 0.10246361334060511 -0.0005660802105283533 -0.0002992683907354151 -0.00013369659460686482 5.924514552109275e-05 -0.9681823538750427 -0.02604631818333179
4.021 -0.873976309496379 0.1012947061432308 -0.0006569032817301795 0.0003564641852208316 -7.140386372451905e-05 -0.0002231170739757168 -0.9662130505072016 -0.018102405012187524
4.021428571428571 -0.8731203557825039 0.11477736097781821 -0.000694099731767006 -0.0004819663856802632 0.00038717625819954934 -1.784473479754724e-05 -0.9669605743605141 -0.018101682634873974
4.021857142857143 -0.8732259765356793 0.11784035510236611 -0.00046068239580876247 -0.0003074885357996502 4.593639724381451e-05 0.00044448454295419233 -0.9663886708326895 -0.013837248685944492
4.022285714285714 -0.8662689713942833 0.12141627120933214 0.00010103107582888068 -0.00015705794560955442 5.709085904205835e-06 -9.894684592702375e-05 -0.9752860765099978 -0.009144108933490191
4.022714285714286 -0.8715798683407758 0.13815136243335835 -0.0005624456998637146 -0.0005235893742718845 0.00021131708667344553 -0.00013728661358917724 -0.9628257797073076 -0.01690321078501544
4.023142857142857 -0.8688287527862568 0.14273013983645583 -0.0003072718888070549 -0.00042602655789160843 -0.00026550083943355706 -0.0003523608954226837 -0.968428568996266 -0.007691496093858209
4.023571428571429 -0.868258958050054 0.14465459660478602 -0.0005882516744221411 -0.0007617693043872388 -0.0002396537722177709 -0.0001906587326299764 -0.9625021694647673 -0.005017882339395245
4.024 -0.863123442760315 0.15640312340299384 -0.00020975970037522432 -0.0009160236077915137 7.55851436947534e-05 0.00019128156152912557 -0.9700405758180292 -0.007661484447219345
4.0244285714285715 -0.8685709041972357 0.15885564140329966 -0.00036121799003803267 -0.0002282288583816508 8.546741777157956e-05 0.0003122832370203319 -0.9694977134104673 -0.002895722704560542
4.024857142857143 -0.8666527582616196 0.17081539586267783 -0.0002719868995731867 6.89260437142372e-05 0.00012835095011734193 0.00022407528947441767 -0.9684563991172525 -0.000588742920720988
4.025285714285714 -0.8680081200160199 0.17961637628150956 -0.0007224543630227857 0.0001965228942782697 -8.630124146228837e-05 -0.0001242590082326992 -0.9650826512799517 0.0029096542013557166
4.025714285714286 -0.8639467258349777 0.18542521002220858 -0.0006927637956882228 -0.0005877838606027226 -0.0001937171843543138 -0.00017623325631640729 -0.9748692261420882 0.008944418909693273
4.026142857142857 -0.8665095963507723 0.19141155275631538 -7.044249067468583e-05 -0.0003432826457683154 -3.400309217836017e-05 -0.00010205609044067314 -0.9689951450012915 0.00388883601785087
4.026571428571429 -0.8533502833395848 0.2003535794668351 -0.0006288610462091194 -0.0004068253498505382 0.00035984867146690336 -5.161027566944465e-05 -0.9752018876308016 0.007018289272577815
4.027 -0.8557440591511678 0.2071671683977546 -0.0005921245282247153 -0.0001199576365737764 0.00010500907241023774 0.0002172879490319023 -0.9699873195438893 0.002503219857954241
4.027428571428572 -0.8602248956227754 0.20844463396084312 -0.000518246059172323 -6.178739580080706e-05 -0.00011588047571187768 0.00021845362304100056 -0.9655568617857868 0.015771394889305946
4.027857142857143 -0.8535406071455565 0.2166888747494462 -2.0345160414852313e-05 -0.00015571702706251213 7.870766022146533e-05 -3.4705826636770688e-06 -0.9756281305217556 0.012931164803120603
4.0282857142857145 -0.8531888401501347 0.2308396255588507 -8.792860288243691e-05 -0.00044070950458780964 0.00015250359495405652 9.342956801951583e-05 -0.9723179685796719 0.022238161896192345
4.028714285714286 -0.8563158749199787 0.22971984157172995 -0.0007459338254827138 -0.0004260141812088864 0.0002200982969625524 0.00028741511198793716 -0.9700693168909058 0.012705382589901875
4.029142857142857 -0.8511197800723971 0.2418874569739758 -0.00035027384181443653 -0.0007361219995913409 0.000303485201379914 0.0003574890142875349 -0.9679899695220293 0.024474586382565666
4.029571428571429 -0.8491082791205431 0.24493149988836266 -0.0008032720561927033 -0.00032376518469627976 -0.00023603887908822132 0.00010859756573719418 -0.9636659866512131 0.022284015475809334
4.03 -0.8429610382502581 0.25252998521569564 -0.0007400859075958547 -0.00044911948837799407 0.00011420281895088091 -0.00012925832435504138 -0.9739743111477356 0.03306842518605626
4.030428571428572 -0.8433296180565537 0.26305707365668496 -0.0009209200190945674 -0.00040844860712165596 0.000198139402477527 -0.00018255681857158983 -0.9677177646540113 0.030194479990326498
4.030857142857143 -0.8460679036275457 0.26700092340873344 -0.0006946184263302987 -8.596697617367574e-05 0.00012551624888671394 0.0001512723170220875 -0.9698625066797247 0.022547282810069427
4.031285714285715 -0.8378760080511324 0.2750539131898438 -0.00045684981322062935 0.00010120312525240228 -0.00023933974559751502 -0.00026095323538371384 -0.9668430201412135 0.03354130528300209
4.031714285714286 -0.8339963212591395 0.27661433730177065 -0.0008859251398581612 -4.474649833803583e-05 -0.00027554320165217825 -2.370094659382071e-05 -0.9650577923840483 0.02429495410449989
4.0321428571428575 -0.8291023953428557 0.28725243530158834 -0.0001911874857719744 -0.00026527170751782815 -0.0003410470639264917 0.00030341214596774774 -0.9715801833000189 0.03390469574874369
4.032571428571429 -0.831827056400963 0.29373486844133434 -0.00044367716920506957 2.8274466188262026e-05 -0.00022917930608507467 0.00023098386308881107 -0.965883326062888 0.045962772053502694
4.033 -0.8310717957165686 0.30087925055074094 -0.000980487068657246 7.678704089115427e-05 -8.836310996813434e-05 6.132960886963477e-05 -0.9652755841954844 0.04487113832565088
4.033428571428572 -0.8333159704146951 0.3078605566897281 -0.0004917293651860564 -4.3906474952329984e-05 -0.00026108465419610286 -0.0003382517196980726 -0.9637153578660916 0.03898616102799894
4.033857142857143 -0.8264451988695396 0.31385144557297845 -0.0010876770521563745 0.0001672903539896171 -4.069952919147916e-05 3.2904333648130244e-05 -0.9651734634214704 0.044597595711717494
4.034285714285715 -0.8201105484494743 0.31954260884981966 -0.0006068831840393124 -0.00018310124267295708 0.00016710783310921375 9.22434434552978e-06 -0.9670130932375818 0.04252689338539045
4.034714285714286 -0.8122652317733984 0.3336490288720312 -0.0007960378217980003 -0.00011480445300463011 -0.00019461142186478852 0.0002716792927166854 -0.96622439720788 0.051387298386724976
4.035142857142857 -0.8150291180450269 0.3369411748175476 -0.00044568400967098137 0.00010690051737582635 -1.5000853224677504e-05 -6.643507286237192e-05 -0.9689133536325085 0.05188955047245827
4.035571428571428 -0.8093806760553032 0.3412542851629968 -0.00038708258542690516 -0.00026248034451097665 0.00024053497166958405 -0.00010473024241810474 -0.966748935162836 0.05700748005916569
4.036 -0.804327918393063 0.3518879243230062 -0.0006503542375873345 -0.00019903870170017807 -0.00028619510252209416 -0.0003885215183072018 -0.9698510872322587 0.05576682694155692
4.036428571428571 -0.8139228796430515 0.3515622527890294 -0.00048730675904929614 0.0003066014542392478 0.0001487972603331334 0.00024660904771852847 -0.9693831127621949 0.0525643692058647
4.0368571428571425 -0.806932179265257 0.36410804539021874 -0.000503596498369207 -4.92493400497573e-05 -0.00024020620734133087 -0.0001081852566443812 -0.97040779597912 0.05347573015578984
4.037285714285714 -0.7982433976940265 0.37244565041505545 -0.0005201772430718735 0.00018258078212467235 3.8388544893407866e-05 0.0002206253793406279 -0.9633110378727434 0.05936504066642466
4.037714285714285 -0.795827767813501 0.3700852457839776 -0.0008972169069401162 0.0001868416356342914 0.00010054211590203776 -8.835584896183436e-05 -0.9706523220338853 0.05595457583684949
4.038142857142857 -0.7917650577423787 0.3919646196377089 -0.0010255705380343935 0.0003162669283019305 0.00020722800171472765 3.337653484726603e-05 -0.9614857212317316 0.06043099758974648
4.038571428571428 -0.7934514505427773 0.3905493948479125 -0.0007220035061626243 -0.0002573154120481863 4.15256217831179e-05 4.926593294812998e-05 -0.9615178803931899 0.06620185876566918
4.039 -0.7891800352713982 0.3934476810031804 -0.000475813657048365 7.132608691819813e-05 -0.00024579587719935736 -7.699081189743954e-05 -0.9600037148674756 0.06384004913163088
4.039428571428571 -0.7815738299546188 0.41131284283430436 -0.00042818314006031773 -0.0001287711986998581 5.574546776553297e-05 -0.00010683409783038683 -0.9638425691715484 0.0682120099457946
4.039857142857143 -0.7865950456179244 0.4082409837761383 -0.0003531093762552833 9.282049832673327e-05 3.4251061324719975e-05 0.0002660262807708291 -0.9714396563327842 0.07085696841033347
4.040285714285714 -0.7795973781149824 0.4105366152470364 -0.000446015405813077 -6.716609122840757e-05 -0.0002794606829160825 0.00023549831542195017 -0.9638617739227084 0.07563769648125819
4.0407142857142855 -0.7790251504164857 0.4221557646674812 -0.0005082830337491797 0.00041373863176574695 1.53942625143001e-05 -0.00011014723604193149 -0.9593587108806965 0.07585141333464683
4.041142857142857 -0.7675901082016428 0.4289223768419089 -0.0005195624990762466 -4.82800222100643e-05 0.00029099761386490973 -1.834177691317662e-05 -0.9684818289171114 0.08506297213924008
4.041571428571428 -0.7650061508747442 0.4343307169615269 -5.250872804928775e-05 0.0003209409823023273 -1.5170946477230942e-06 -0.00012917131666786083 -0.9659969964234425 0.08303825328586413
4.042 -0.7614467695159464 0.4434762829690306 -0.0006702568540860745 0.00023162067739525424 4.64859079713064e-05 -0.00010429647839357381 -0.9635630899259152 0.08917803320768457
4.042428571428571 -0.7570995646179084 0.4469012298843284 -0.0003291604919895274 5.1012628395605617e-05 0.00011657913127250573 0.00013253802516698644 -0.9605637202364159 0.09129910069260237
4.042857142857143 -0.7568313599373038 0.44436775561223274 -0.0003546516219165142 0.000244191076377405 4.610195268184016e-05 4.8175242397259036e-05 -0.9643617829587596 0.08688327995005966
4.043285714285714 -0.7508728358927098 0.4620329135606666 -0.0003991110576060028 7.129637323534219e-05 -0.0002659656718611545 -0.0001748857290390983 -0.9660867937112085 0.08281433866418485
4.043714285714286 -0.7443480514930976 0.46348864328414596 -0.00035800032958543303 8.753988406069216e-05 -0.00020310587974917547 0.00040506071869906733 -0.9664455977792044 0.08151154368132678
4.044142857142857 -0.7444387330807726 0.4723745332690267 -0.000392349479775946 1.7061016379297148e-05 0.00010799258438281185 -0.00011987703829280791 -0.9642150975143119 0.09689116277133795
