!Created with skrf (http://scikit-rf.org).
# Hz S RI R 50.0 
!freq ReS11 ImS11 ReS21 ImS21 ReS12 ImS12 ReS22 ImS22
4.0 -0.8496152732236816 -0.2522712732602597 0.0004319694528668966 -0.0004110849664422022 5.7514363813118444e-05 -0.00013688272087295563 -0.9634741388129153 -0.13058378839960058
4.0004285714285714 -0.8562108635653677 -0.24557209903158247 7.981841297970343e-05 -6.673655016734439e-05 0.0002442197855413583 0.0002721215817314725 -0.9716723389620431 -0.1245280143241807
4.000857142857143 -0.8606442008021299 -0.2353041645207263 -0.0001201131022727971 -0.0003126659003069155 0.00011099706341393415 -0.00028309688381924044 -0.9667941258711504 -0.11649607128373902
4.001285714285714 -0.8545744548062519 -0.22958251426229856 -7.0826503607288146e-06 -0.0005574394118734866 5.630699122902212e-06 -7.816624552367332e-05 -0.9648197461136178 -0.11767295095720862
4.001714285714286 -0.8618037561122198 -0.22226377864211364 0.00033558381742703576 -0.0002299587003833976 0.00012622101986441047 -2.336929533848078e-06 -0.966098881535866 -0.1220170951882327
4.002142857142857 -0.8601861489237632 -0.22189202877784792 0.00018462030894730283 -0.00040464906694721484 0.0004985900093958959 0.00023471046767152047 -0.9665239068614151 -0.11233215319732417
4.002571428571429 -0.862806970397352 -0.21275042673910113 0.0006483458931988566 -0.00039643751928234735 5.1309679584259864e-05 -2.2573607077593113e-05 -0.9708607359732019 -0.10759184816954247
4.003 -0.8659908633573712 -0.2007101563523309 0.00019637268483420974 -0.00018982410060623255 0.0002095848938498637 -0.00038757187964573626 -0.9706058687087084 -0.10364723672353528
4.003428571428572 -0.8689755883348549 -0.19665975862773985 0.0005640794004995204 -0.00021560979839693365 0.00011044771844701622 0.00043132284968759783 -0.9630044325859789 -0.09852157176585905
4.003857142857143 -0.8645354876727809 -0.1878818750286849 6.171939822992756e-05 -0.0004968748171964466 0.00015214349018325034 -1.721428038542939e-05 -0.9705995443665317 -0.1110557291339809
4.0042857142857144 -0.8765948697788701 -0.18267284421806998 0.00018564493747188297 -0.00014478439207249062 -0.0003314103029515198 -0.00021102543526638155 -0.9655604160796859 -0.09913090982836763
4.004714285714286 -0.8711138541500273 -0.17141828209899682 -6.788236388581033e-05 -0.00045440550544818494 0.000292044074406047 -0.00020466335610289793 -0.9617447316056114 -0.10847441658390379
4.005142857142857 -0.8736432784046098 -0.1641252431773134 0.0004240282835532593 -0.0004365447263936578 8.600948796920917e-05 5.449498828497852e-05 -0.9691716671832193 -0.09578948919737829
4.005571428571429 -0.8740897138248679 -0.1580011539137991 -0.00039100215549566506 -0.0002774729794129784 -0.00022451672858132354 -0.00034496623442467877 -0.9593070905477888 -0.096167694959625
4.006 -0.8768117083335427 -0.15433637546185758 7.104737887394491e-05 -0.000193727952617921 -4.057963223154222e-05 -0.0002036048933558487 -0.9712356490755647 -0.09352088548560276
4.006428571428572 -0.8765611799991687 -0.14951015797602743 0.00022917397008339054 -0.00029640017839944495 6.471535731963594e-05 -0.0001281617029404757 -0.9670307153853797 -0.09375402218221907
4.006857142857143 -0.8809779168290469 -0.13726275710505292 -4.01486341150732e-05 -0.00028279497589052513 0.00022311039939193006 0.0003138803517562884 -0.964885292370555 -0.08681980697435594
4.007285714285715 -0.8832804316711332 -0.13091179682526285 0.00017240591352662532 -0.000293825385591935 -8.775356829784288e-05 0.00012672802198435018 -0.9702151706779754 -0.08032600155735067
4.007714285714286 -0.8810615900811429 -0.12562436431108476 -0.0003614773236406949 0.00019213907242855604 3.024322601259655e-05 -0.00012440228935983323 -0.963034017544272 -0.0840996940757304
4.0081428571428575 -0.882584527040794 -0.12386981909475475 5.863565295446932e-05 -0.0003048172111028535 5.7126518461960336e-05 -0.00014408925679052783 -0.9681228170306296 -0.08820033759906111
4.008571428571429 -0.8865114957110523 -0.10843291626704833 -0.00014226133825572665 -0.0007761060908575548 0.0002652516522581903 2.0518368058193527e-05 -0.9642410162356011 -0.07990076577934717
4.009 -0.8856212245433327 -0.10283463908067411 0.00018804655250789662 -0.0007054035312920625 -9.99149485019081e-05 7.43881172547963e-05 -0.9745535894425102 -0.08457744852507224
4.009428571428572 -0.8842008252485732 -0.1011214051909774 -0.00016564051288002737 -0.000277696046275739 7.906533778804446e-05 0.00012961982619829596 -0.9773735181872074 -0.0771957968548146
4.009857142857143 -0.8862383828503463 -0.08756480152170067 -5.295365430477064e-05 -0.00030084193824472013 -4.3121371875616105e-05 0.0001656430014236711 -0.9674769305606344 -0.0700119643950357
4.010285714285715 -0.8906945756672152 -0.08267308916720083 0.0004301275354041345 -0.0004587025988520003 -9.096835376462991e-05 0.00044321445178923264 -0.9658477779190131 -0.07280059567817802
4.010714285714286 -0.8910830044031077 -0.07571969742855404 3.8381688235409774e-05 -0.0002601914524524798 -0.0003475969979148355 -8.111364789411398e-05 -0.9679755367960899 -0.073305626710956
4.011142857142858 -0.8842391157494491 -0.0717110874002407 5.264109910513213e-05 -0.0002930104307120252 9.041296300087491e-05 0.00012982170965795988 -0.9709412772926528 -0.06486296848760455
4.011571428571429 -0.8853886292623113 -0.058088643182307644 4.280496540392696e-05 -0.00012165420668519906 0.0001947075803278984 0.00018586073046662063 -0.9722090159535788 -0.06651460259138285
4.012 -0.8893906052474013 -0.05443818119475149 8.223853888204312e-05 -0.0002659480394915691 0.00014831028780879955 0.0001987810370463437 -0.9738596975747806 -0.06330429407561365
4.012428571428571 -0.8860871284034093 -0.045788006504977406 4.331449337349611e-05 -0.00025606808621331955 -3.436407317191658e-05 0.0002182344441221826 -0.9628743022335401 -0.056684259915338146
4.0128571428571425 -0.8953424299399547 -0.0349872650972678 2.5788609363148944e-05 -0.00017061178947712314 0.00013675466321845094 0.00023337681068186195 -0.9641542508182734 -0.0653022199726143
4.013285714285714 -0.8844042669749177 -0.03128899544268552 -6.099379363824142e-05 -0.0005492958729942849 3.2122143885353246e-05 0.00013610509052901468 -0.9623640152277174 -0.06052008101769784
4.013714285714285 -0.8863035790272891 -0.022184633433324188 0.00019934976345090875 -0.00020208155593486754 -0.00024113886315374505 -5.096380988521854e-05 -0.9767096223672417 -0.053098931155399355
4.014142857142857 -0.8863531350963276 -0.014486521042654679 -0.00015202044349177434 -0.00041993935956969285 0.00030320941566412365 -0.00020003428876744404 -0.9712550396367817 -0.04655343389834721
4.014571428571428 -0.8847599202827244 -0.011828836988185586 3.3775512756128546e-05 -0.0002963015701727353 -0.00010008371034119655 -0.00030998830667957955 -0.9714684369284156 -0.053597751992189156
4.015 -0.8951430849073793 0.0018556591560675655 0.00030664871806157534 2.6128850860203716e-05 1.000814047430401e-05 0.0002433825845226382 -0.9655809538369723 -0.05062841840575803
4.015428571428571 -0.8910476274801357 0.011744260884114661 -0.00015929873290650438 -0.00011647857681975416 -3.350771774280907e-05 -9.474586033140805e-05 -0.9716017123700671 -0.048283729447474784
4.015857142857143 -0.8905228602447532 0.018387730724351018 -0.0001580513891802622 0.0001539638909551865 0.00013979783379734529 -5.6380935878387156e-05 -0.9708668572154391 -0.04718276003161576
4.016285714285714 -0.8888788132026993 0.021587420383778547 1.6682929194221465e-05 -0.0003087249174921191 -3.130758883562266e-05 -9.170954867097772e-05 -0.967181317459931 -0.04238182877012083
4.0167142857142855 -0.8886450152258115 0.028805017870459276 -0.0002811229905113321 -0.0002491355341027605 0.00014040888907985327 3.1561209158278674e-05 -0.9639487810388456 -0.04903652392718898
4.017142857142857 -0.8855190240745857 0.038977122905243855 -0.0008668255336880899 -0.0003429313686444859 4.131724294829479e-05 -0.0002383244172920287 -0.9609311849716227 -0.04024981571774783
4.017571428571428 -0.8934311887351731 0.04343334513392846 -0.0003917049542268278 -0.0005369534743794328 -0.00015727381396222996 -0.0002845814090502804 -0.9745709565049459 -0.04237738548286834
4.018 -0.8863674865408452 0.05001575891509119 -0.00029753722983373 -0.0001892480277263356 -3.4669283662934365e-05 -2.0825342243246894e-05 -0.9690800541697752 -0.04047530094133269
4.018428571428571 -0.8904963068897107 0.059703670639755936 -0.00026554161965352266 -0.000468710654387382 0.00019235794615018897 0.00010427811397119099 -0.9714615296190757 -0.0336493296096055
4.018857142857143 -0.8824189256477445 0.06956573557829121 -7.746407728523191e-05 0.00010729389592334536 0.00023333776562703214 9.196019318474759e-06 -0.9631411845915455 -0.02773846473161875
4.019285714285714 -0.8810468659824823 0.07879656799612861 -0.00030670580169238365 8.307533944351217e-05 0.0001753767846553956 -0.00011515332094316325 -0.9704310038504628 -0.028118978106713415
4.019714285714286 -0.8860966881761192 0.08585084199817922 -0.0004105626291333905 -0.0007135595824902948 -1.3993139491071981e-05 0.00034621445489032594 -0.9656468574506798 -0.028980086778693143
4.020142857142857 -0.8864096252716175 0.08815575217040489 -0.0001992471997896381 -0.00010732704968030249 -0.0002416510639937496 -0.0002034304046543522 -0.9677472077007957 -0.025464444095570974
4.0205714285714285 -0.8851092097117399 0.1031241462189291 -0.00015560875902173542 -0.00017252552438355975 7.78390888804261e-05 -1.0983956907646486e-05 -0.9692663594020492 -0.02540107254591162
4.021 -0.8824667984513264 0.10225541075961359 -6.272805353333949e-05 9.178589698663321e-05 3.221710718621595e-05 0.00023338100588480228 -0.9664041659648911 -0.020943843368909247
4.021428571428571 -0.8792738782069219 0.11533051367889657 -0.0005022986722122484 -7.450016640727191e-05 0.0001744270920438403 -2.34007925616416e-05 -0.9699856630416327 -0.020309074639611572
4.021857142857143 -0.8818248494982266 0.11733733188733733 -0.00016903424810944356 -0.00011840684110281932 -1.811705854837257e-05 0.0001137985262687838 -0.9679926987717813 -0.016067432641520225
4.022285714285714 -0.8744889482274659 0.12298727008723266 -0.00047032387261835965 -0.0003584626466920256 -0.000276739366652112 -0.00041282726953087483 -0.9758127302192808 -0.00985551312714354
4.022714285714286 -0.8806207088294207 0.1362556651628994 -0.00010367016612063639 -0.0001386856644134945 -0.00012869444946862283 0.00012185544462814267 -0.9644593849010425 -0.014450886252012725
4.023142857142857 -0.8756925769120094 0.1429342719272788 -4.455233643450363e-05 -5.7080885733419784e-05 -0.00014047603631720996 -5.393683493100071e-05 -0.9682200703004856 -0.007829639532679913
4.023571428571429 -0.8780174856128417 0.14463762600787325 -0.0003560192374283376 -0.000875005445597882 -0.00014763728129340564 -0.00010390426093755031 -0.9635115456048501 -0.005408599410050361
4.024 -0.8712515292982672 0.15641369752437803 -0.0006765740707571784 -0.0003522311388592961 0.000147589182835981 -9.473259579554903e-05 -0.97146424531529 -0.008689518985046212
4.0244285714285715 -0.8748980455726465 0.16058419144383224 -0.00012642921201098129 -0.0002852869263098648 7.254866030013229e-05 2.7760513645472752e-05 -0.9684822844874116 -0.0035391180520863
4.024857142857143 -0.8726992330232161 0.172557340396662 0.00030436247224515886 -7.352910702747731e-05 1.7884060429556585e-05 0.0001973384909704684 -0.9673950660977901 -0.0015101131658342083
4.025285714285714 -0.8747374952216664 0.17959803990493364 -0.0001747466118406497 0.00032474136249191666 0.00020104071607767173 -0.0004877252931735136 -0.9674326364927078 0.0029335625398665497
4.025714285714286 -0.8726591204124975 0.18767101838404895 1.8412875650305414e-06 0.0002018011166980803 -0.00010083803699095262 -0.00020613927009871283 -0.9767422292138811 0.006854714184863253
4.026142857142857 -0.8732346967208673 0.19206712884211471 -0.00022341428902368114 -0.0006186986508801994 -0.00015085583108677034 -4.1380037257822e-05 -0.9707067037245628 0.00310570124676925
4.026571428571429 -0.8598631309796848 0.20037012975916202 -0.00025354060782379034 -9.277433520018878e-05 4.0874528161248456e-05 -0.0001042756100057748 -0.9737011293427327 0.009396064289292792
4.027 -0.862945168631208 0.20726227477002473 -7.3999844729874785e-06 -3.094792224627671e-05 -5.9858385135567855e-05 0.000148350949585046 -0.9711427660856553 0.004182653514789856
4.027428571428572 -0.8673186936843255 0.20931892684468537 -0.0007295666523360852 -0.0004697328198642559 7.388037208837544e-05 -0.00017323982147278376 -0.9672227857069134 0.015420786586919014
4.027857142857143 -0.863626291502983 0.21740024326340748 0.00025699267481433136 -0.00012660272323509775 0.00020073349249545471 0.00012121960103022539 -0.9737540528019203 0.010599600246612625
4.0282857142857145 -0.8615912628075664 0.2311103857258134 -0.0004456027981902664 -0.000118774273206736 3.576427202829738e-06 -0.000590323697178186 -0.9727684940877471 0.02161458765970931
4.028714285714286 -0.8652682663687387 0.23075865640837703 -0.0001996976623970627 -0.0005147997858682918 -3.929650626161394e-05 1.6883685515487007e-05 -0.9707541812314648 0.012690967256879886
4.029142857142857 -0.8583730674357534 0.24487226713248159 0.0002875636663103928 0.00021574265645095826 1.3167593720397146e-05 -5.600977198858317e-05 -0.9684917269042354 0.022458571339512234
4.029571428571429 -0.8566874297343379 0.248410219051692 5.829602101631427e-05 -0.00010130976637331156 -6.268990554955603e-05 8.071027946609564e-05 -0.963623157454489 0.018981969464495076
4.03 -0.8512161284758487 0.2534579087837146 -0.0003333247634454912 -0.0005126352935732114 0.0003178637242198647 -6.833965078344911e-05 -0.9705508309042902 0.032021493776482036
4.030428571428572 -0.849490051769466 0.2644010293607412 -0.00014691799449956084 -0.0003047308239138852 -0.00017366752412298377 7.364061677365382e-05 -0.9717440169278794 0.026011510018047714
4.030857142857143 -0.8522321131154547 0.26623326926692525 -0.0002700504655881104 -0.00033198052875559465 0.0002296096405865082 0.0002815950879325922 -0.9718709203309788 0.021429149238899027
4.031285714285715 -0.8444309364406546 0.2769016845823033 -0.00045679459246364515 -0.00010943414116248983 -0.0001495900176697253 0.00015753803999357554 -0.9680866119177852 0.03435072904876251
4.031714285714286 -0.8407559618580805 0.27796736634849323 -0.00015069295115281765 1.3204286656206373e-05 0.0001356345599694665 0.00037631985312420194 -0.9638806601221516 0.025911153752860825
4.0321428571428575 -0.8378338770223316 0.2897162728293809 -0.0005922445703943713 0.00023370001436739878 2.609817004393336e-06 8.095796936878349e-05 -0.9728094956930263 0.033635610338369454
4.032571428571429 -0.8401459617806071 0.2965452360730198 -0.00040300508247391296 3.415049513299512e-05 0.0003325167605323765 3.607657727184642e-06 -0.9665646390447763 0.04281480447294408
4.033 -0.838674422287837 0.302873220729989 -5.388257459053208e-05 -4.956502315556318e-05 -0.00012708819168954973 0.000275251504956061 -0.9657975471180448 0.0455845185729755
4.033428571428572 -0.8407790695156682 0.310525491268485 -0.00034631437918152604 -0.0003284973418403621 1.353165948296952e-05 -1.4905764179711476e-05 -0.9641190482041017 0.03826295074412785
4.033857142857143 -0.8339799375170918 0.3188099685458848 -0.0004266753346577018 4.200230325046801e-05 -8.99974335683832e-05 -9.345728844121144e-05 -0.963469866801945 0.04301726496574422
4.034285714285715 -0.8269390330270507 0.32284085422449366 -0.00032970067857153126 -0.00012250895055784645 -3.597820306420648e-06 0.00020541991456153288 -0.9648751035975349 0.04098564952967763
4.034714285714286 -0.8208876603475053 0.33534362512880145 -0.00022141120382272378 -1.168870319101148e-05 0.00012937421874947171 -4.857882667105116e-05 -0.9681334388088341 0.05200858456681285
4.035142857142857 -0.8229867174799579 0.3387193712762822 -0.000504574511806649 -0.00019573755389249524 9.044656507696032e-05 0.00014208303334297564 -0.968796166338689 0.04999671880394869
4.035571428571428 -0.8154055128033999 0.34564514184168615 -0.0003917251594840596 0.00015889291043513144 -3.079331362963076e-05 0.00023190644100961342 -0.9680333138610201 0.05558404019408741
4.036 -0.812174452717853 0.35760218062449867 -0.0005637271887731376 -0.0002562937380786278 -0.00011954601339449387 9.036230557238025e-05 -0.9708446885096798 0.05584696097302959
4.036428571428571 -0.8215014338808334 0.35462719519036695 -0.00014990394929352888 -9.491658916123496e-05 -0.00023798404192890043 0.00031147715842062585 -0.9682346049865017 0.052014247005854275
4.0368571428571425 -0.8133759225478473 0.36655078276999703 -0.0003956572465693381 -4.785667070260182e-06 -0.00018646352375877492 -0.00023274770198247605 -0.9726894930552799 0.053369151756627216
4.037285714285714 -0.805178182196376 0.3746719638344523 -0.00047674930318446923 -0.00010252651574810271 -0.00019689260100370313 0.00010551455408967011 -0.9642706531423503 0.05962997197512769
4.037714285714285 -0.8044191722570379 0.3736838280435948 -0.0003781700797476558 0.0002212975199196537 -4.1546866036071116e-05 -4.207211676084701e-06 -0.97006598794226 0.05580639406182588
4.038142857142857 -0.8006273907704257 0.3947016008755321 -7.666767965320771e-05 3.125843581181498e-05 -0.0001040580530329621 -0.0002115605308774109 -0.963315850404793 0.0626689683022805
4.038571428571428 -0.8009552526852383 0.3924953321904395 -0.0005240164379900819 0.00013387609349089886 2.6749044255972934e-05 -5.907605209180189e-05 -0.96171781171496 0.06498140228798217
4.039 -0.7955633641085701 0.39788830700968036 -0.0005910134593896194 -0.000260084326645994 -0.00016056753122955435 -4.538745090872363e-05 -0.9613840947104646 0.0629071683725025
4.039428571428571 -0.7894658878773524 0.4121685108883766 -0.0002893233502375087 -0.0002313824715192515 0.00024372379592761713 -0.0003542562393412937 -0.9655054094257635 0.06897534745098576
4.039857142857143 -0.7920530391236318 0.4113763315916617 -0.0003746043031953543 0.0001468071961775415 0.0001296970680231921 -0.0001817606975413397 -0.9710266416685125 0.06907956328279269
4.040285714285714 -0.786826207645125 0.4120647384039889 -0.0003347928532035967 4.60617059723613e-05 -1.5269609859304308e-05 0.00018889383462915483 -0.9633885902920697 0.07433190934430521
4.0407142857142855 -0.786655550738616 0.4274736430481409 -0.0008042463279160392 -0.00046106517971000125 -6.88675736652109e-05 0.00012258045960881564 -0.9600649020860287 0.07763023590953273
4.041142857142857 -0.7743950212149051 0.4287780668779558 -3.1940837698849004e-05 0.00033971497130767645 3.726871013671982e-05 -3.9165382533607445e-07 -0.9690604596731146 0.08562132299755354
4.041571428571428 -0.7722711986045881 0.43524388306945416 -0.00036446837131326806 0.00011403452398043014 0.00024970087374472213 -0.0003644449415051246 -0.9646460369560889 0.08424305103251271
4.042 -0.7686486461398866 0.4471766913970613 -0.00021468473302083913 -0.00016308867162380576 0.00029746698250562626 -9.400990845137012e-05 -0.9624643628099855 0.08968616530681663
4.042428571428571 -0.7633256587637515 0.4501884642596628 -5.5634135301370066e-05 0.00020306616760565818 2.471721403024271e-06 -2.3209713295830388e-05 -0.9598938945223687 0.09153493856098861
4.042857142857143 -0.7637377515076248 0.4475237756203159 6.804841097981124e-05 -0.00023670147239506428 -0.000265801971442131 -0.0001272805731048711 -0.965809969906189 0.08678314435142179
4.043285714285714 -0.7577592545749483 0.4648134457934957 -0.0005570871039886022 0.0003037011122620333 0.00016474253609379444 -2.585587339880839e-05 -0.9638823391279187 0.08580219610410286
4.043714285714286 -0.7520903625566857 0.4678239865992431 -0.000514117070033554 0.00013513387693909578 0.00034450169086663255 2.0960349033917453e-05 -0.9675939327019119 0.08060367810768783
4.044142857142857 -0.7523784327039642 0.47676859231714597 -1.1892390160568355e-05 0.00045356495103247233 1.0194872319888777e-05 -0.0002688180715134503 -0.962565654503846 0.0954829096211637
