!Created with skrf (http://scikit-rf.org).
# Hz S RI R 50.0 
!freq ReS11 ImS11 ReS21 ImS21 ReS12 ImS12 ReS22 ImS22
4.0 -0.8429553810876796 -0.24810615256153795 0.00020631840108200142 -0.0004566698522023773 -0.00020129879817215303 -0.00012956288237882854 -0.9634092445827702 -0.13017379141734567
4.0004285714285714 -0.8502085477894666 -0.240795616461815 0.0001789656941797786 -0.00050201483876146 0.00014016864337484903 -0.0002623643925450577 -0.9709306012760324 -0.12308541297895592
4.000857142857143 -0.8533728362887799 -0.23052291280143714 -1.130545361939227e-05 -0.0007179570968281182 -2.1145583978147362e-05 -0.00018384386595595245 -0.9666105301926365 -0.11598308485562135
4.001285714285714 -0.8477360493732113 -0.22637550182259605 0.00022936587075339572 -0.0006184322543382453 5.814458704988347e-05 -0.0002357362538558733 -0.9653441570557767 -0.11646232324979112
4.001714285714286 -0.8538633782756366 -0.218713811938854 0.00011304707398625602 -0.0007123995461293782 -0.00012500249695508996 -0.0001184507573754926 -0.9671502894788001 -0.12073270389137027
4.002142857142857 -0.8519862211171098 -0.21797994367678364 2.9628252338143905e-05 -0.00041067249713619755 -0.0003477081071844224 3.743851866109594e-05 -0.9644543947381874 -0.11033959173932519
4.002571428571429 -0.855491602601609 -0.2080170961618264 -0.0005018586082117072 -0.0007955558210781073 -8.215914876190722e-05 0.00018184278597199797 -0.9690469209560375 -0.1044492603277058
4.003 -0.8595442155363477 -0.19817452746612504 0.0001220260507167683 -0.0005764554014619992 -0.00015762315142376078 0.00017006518053196162 -0.969070742535243 -0.1033234045021799
4.003428571428572 -0.8625108252098238 -0.19458302311129586 -0.0004340256841413369 -0.00013108546063121763 -2.3134099049299e-05 -0.0001571225576534544 -0.9628897966526079 -0.09810491774242296
4.003857142857143 -0.8586601625581696 -0.18466172460408142 0.0003244976897210845 -0.0006061345380400393 -0.0001526499018443138 8.333425622562627e-05 -0.9702648093739821 -0.10778533879189948
4.0042857142857144 -0.8702556715972463 -0.18027423142126903 0.0002035792924066482 -0.0006212186638608143 0.000122153828157432 9.299030737033311e-05 -0.9665466517208112 -0.09914268842981963
4.004714285714286 -0.8644684826790758 -0.16823357026078883 -0.00013455688999387258 -0.0003104725951459527 -0.00013502770066252523 -0.00012989314854301793 -0.960097356910374 -0.10723247790467061
4.005142857142857 -0.8663777267868241 -0.15986994318001144 -0.00024330827694032776 -0.000559678024710846 0.00024065309473502065 0.00016738324266735735 -0.9694018033262651 -0.09413450742074382
4.005571428571429 -0.8681949715740519 -0.1546792867120767 -0.00010460413930429575 -0.000317366574514313 6.34551185460472e-05 0.00010506735590013791 -0.9596348700478308 -0.09523865361574613
4.006 -0.8687448491466033 -0.15133239251288894 -0.00019006263713523805 -0.0007326793333837563 0.00024804748274806645 -1.5217558856763067e-05 -0.969637568255056 -0.09362982248077224
4.006428571428572 -0.869717549283884 -0.14654752289939613 -7.59308611319239e-05 -0.0003033603707946874 -1.2167443185945806e-05 -2.2969272684412502e-05 -0.9686324562558428 -0.09308671284973036
4.006857142857143 -0.8738652122417994 -0.13580120246210306 -0.00022421430115342715 -0.0003936269960847566 -0.000268995856051364 -0.00030321888806779596 -0.9641772379978547 -0.08531719179570367
4.007285714285715 -0.8769816534384315 -0.12723117140050344 -7.202635630581472e-05 -0.0004037700624733666 9.923123346519599e-05 -4.046988040015156e-05 -0.9691459075113057 -0.07939677421533671
4.007714285714286 -0.8731609518122676 -0.12251980825559972 -0.00016779511892561972 -0.0006403016016842242 0.00012922758464293561 -0.00021586320943913002 -0.9621724756151178 -0.08106592721222972
4.0081428571428575 -0.8743051700916241 -0.12112178052870758 -3.786142840756172e-05 8.09493761868863e-05 -5.610248274693381e-05 -9.227764763907679e-05 -0.9679673549645795 -0.08630468195557088
4.008571428571429 -0.8784638698612157 -0.10527059339669789 0.00019572166304158715 -0.0002037090005352103 -0.00012719062368563534 6.397183460365684e-05 -0.9633988403729584 -0.07679247311273377
4.009 -0.8797774734634726 -0.10138519326908724 -8.773909482800025e-05 -0.0005510194656541213 -0.00010939521088910004 5.4354731468991465e-05 -0.9743921827586027 -0.08471676328590728
4.009428571428572 -0.8765695583892111 -0.09764744978116492 -0.0002924668297476894 5.494535612282278e-05 -0.00013647330944699179 0.0002255376418450427 -0.9770072592518295 -0.07615113528883229
4.009857142857143 -0.8796706722020068 -0.08668554822948836 1.3410318019826333e-05 -0.0005379269737665249 -4.455159974281787e-05 8.806914018186822e-05 -0.9677950348079591 -0.06928164326282236
4.010285714285715 -0.8817927835883586 -0.07782555824020931 -0.00012747624320433255 5.9478106183031594e-05 -0.00011078340428771253 -0.00015024831383824718 -0.9651855232890836 -0.07233788264644926
4.010714285714286 -0.8818843296031177 -0.07287963124018515 -0.00017869020474263489 -5.087036467316263e-05 1.4662603202593222e-05 -7.108310371474098e-05 -0.9696451610110646 -0.07226253214680274
4.011142857142858 -0.8758462198459508 -0.06978659225523165 -0.0001700253758554338 -0.00061668596546754 -9.664749088357096e-05 -0.0001952516574409044 -0.9695118883420293 -0.0645764103783737
4.011571428571429 -0.8804551660194494 -0.05591621175727205 7.083447054151184e-06 -0.00035815181498427854 -0.0001013730455772505 0.0002178269307157871 -0.9710592959062064 -0.0678110169805534
4.012 -0.8843735708197186 -0.05230370524511498 -4.5875544383869706e-05 -0.0005572938552271536 -0.0002760639823554055 -0.00011854033329852493 -0.9745460059038834 -0.06284155572616881
4.012428571428571 -0.8808538110329952 -0.04365492176460258 -0.00041501713200303513 -0.00047641633717492027 0.0002106718625130482 0.00017087291599699397 -0.9625493905495527 -0.05583953399832404
4.0128571428571425 -0.8874743678726164 -0.033044692353551425 -0.0005080602087090696 -0.0005888366984686237 -0.00020236578666962574 2.1470328630149494e-05 -0.9632685365154633 -0.06250471476865752
4.013285714285714 -0.8763881439388712 -0.029694959740246447 -0.0005236151790637856 -0.00013941028436859318 0.00010625293139047329 6.58815279129603e-05 -0.9638024504353768 -0.057199625362264896
4.013714285714285 -0.8800399970252167 -0.019587976983799705 -0.0004713766854118815 -0.000632961165813995 7.420036600047834e-05 6.93597372531632e-05 -0.9763201443256264 -0.051655744824917416
4.014142857142857 -0.8795729241750164 -0.011900205792838823 -8.382599797111786e-05 -0.00035579260864208775 9.274692364017035e-05 0.00032777151228741835 -0.9730354983329028 -0.045927813553375496
4.014571428571428 -0.8798213785008178 -0.008917762518120652 -0.0004633439586554863 -0.000771940451733601 -8.924876363170927e-05 0.00011825491113891723 -0.9704140703462139 -0.05276151899957752
4.015 -0.8889247593769265 0.0011681119433748198 -4.559254542654613e-05 -0.0005814227260793513 -0.00015787919355362184 3.354462387553749e-05 -0.9651247141577822 -0.05075998243626484
4.015428571428571 -0.8831234566197584 0.012604412225964791 -0.00021261633508977488 -0.0006264217411543146 -0.00019159720282826205 3.7522792017338626e-05 -0.9718124063958357 -0.04838167469516015
4.015857142857143 -0.8815933605651408 0.01824379362834796 -0.00019194830039761864 -0.00023358978406835378 0.00010714804843385602 0.0001683151123807036 -0.970514480326565 -0.046119165569395486
4.016285714285714 -0.8825590303703822 0.02422713435369693 -0.0004278651821623382 -0.0003148132614543317 2.533184412920825e-06 -1.5991766081024026e-05 -0.9654140471189834 -0.04162996733705591
4.0167142857142855 -0.8828690958476687 0.03141075464428346 2.38740862961857e-05 -0.0005918362688712592 1.725019502766982e-05 -0.00021609113696807503 -0.9656342184321416 -0.04709151204064515
4.017142857142857 -0.8791021771485407 0.039392558140403336 -0.0005291840432849891 -0.0005545118595986476 8.977897129420009e-05 -3.0769212107153045e-05 -0.962140736000806 -0.03783859373430037
4.017571428571428 -0.884475299991627 0.04395736898661082 4.021851712651671e-06 -0.00034106816425100785 0.00025262740232280827 0.00013321702526394657 -0.9728020825867372 -0.04140093435877807
4.018 -0.8793062186990145 0.050967995370561084 -0.0004650702806964872 -0.00011092052426794491 -5.044254057469542e-05 -0.00014027531586274382 -0.9694373802023898 -0.03901937866919301
4.018428571428571 -0.8837460707660892 0.05937333625645016 8.631537929484637e-05 -0.0007125450020960666 -0.0002989622534743661 -5.4306647296809955e-05 -0.9706258437920158 -0.036016158381770316
4.018857142857143 -0.8759589063093128 0.06801948557401123 -0.00026454693972181604 -0.0005073349873013882 -5.7163317770131065e-05 -7.549433978237143e-05 -0.9614335418686807 -0.02653492928311802
4.019285714285714 -0.8755400113919856 0.07926044763312194 -0.0006246717200398847 -0.0003257222428273824 -0.0002120266868081041 6.777033285272494e-05 -0.9711763367641232 -0.026601665905526165
4.019714285714286 -0.8816149721600084 0.08506548732233062 -0.0004412922705090764 -0.00037397962468529273 -0.00010848902985468999 -0.0002370516898427837 -0.9636769738118229 -0.025071441164479027
4.020142857142857 -0.8796402198302852 0.08944086806699653 7.189736942058957e-06 0.00011656337021568707 -0.0001580460159983566 -0.00022332843393412386 -0.9691364922839506 -0.022649831168107287
4.0205714285714285 -0.8772016069657161 0.10568294114961806 -0.0007174094198038229 -0.00045361431376797457 -0.0003308132392889515 -0.00010145217211462911 -0.9677866491993776 -0.025491778476814483
4.021 -0.8726307426267904 0.10230416354954922 -0.00013766581974149065 -0.000613095663931073 0.00010094600727522154 -2.7685140724002516e-05 -0.9661249558873314 -0.01938061700602009
4.021428571428571 -0.8736841591793394 0.11501838321449176 -0.000573900680120578 -0.0003476351956835107 -0.0002568534295272314 0.0001254005304998016 -0.9705831818813916 -0.020260613183523988
4.021857142857143 -0.8736033195935586 0.11770070831319479 -0.00021339083647000157 -0.00028526542063891236 -8.364048883766432e-05 -4.30193007551351e-06 -0.9666865602006022 -0.01596000217038454
4.022285714285714 -0.8674788626563373 0.12189313919864528 -0.0007963897246474393 -0.00042142156974436454 -5.939489519672498e-05 0.0003088441373024419 -0.9746002015729018 -0.007260707837966613
4.022714285714286 -0.8728422343164546 0.13893397395321797 -0.000592890127395196 -0.00028120792905738637 0.00024735610581612155 2.043586071940542e-06 -0.9660613851280644 -0.011464684675709403
4.023142857142857 -0.8694222552502835 0.14353843349541787 -0.0008330812787932658 -0.0003049479194956806 -2.745057563080241e-05 0.00013452406157667926 -0.9666978097302321 -0.008597814517607758
4.023571428571429 -0.8713114633706884 0.14664531280545684 -0.0005126617655634593 7.140255753710174e-05 0.0002460500329799481 -0.0003003024505341926 -0.9621032171938098 -0.005920817912618923
4.024 -0.8649088303557044 0.15663664115980133 -0.00017418644996009235 -0.0003716040640251474 -0.00018195071472469 0.00036787639948765845 -0.9713468418075384 -0.004957733720732094
4.0244285714285715 -0.8674920642144694 0.160435434607546 -0.0002081272917989674 -0.00040449038397805646 8.78231500327592e-05 -0.00030390066137092234 -0.9690402559133756 -0.0012709507514528616
4.024857142857143 -0.8669506881708824 0.17192795640488295 -0.00048822444417925874 -7.202638139001478e-05 0.0002202929447089042 -0.00011989007528114797 -0.9675770948523031 -0.001298285212152556
4.025285714285714 -0.8663561072858481 0.1799529070051181 -0.0005754415978394072 -0.00020600914891422508 0.0001165117130026186 0.00013346081962455674 -0.9666536428164461 0.0029446282608673337
4.025714285714286 -0.8659954050414893 0.1870580879746339 -0.00042671934210407943 -0.000261081147100286 -0.00024085491893320344 -0.00013958336688608933 -0.9771003943661923 0.009449994813552522
4.026142857142857 -0.8675462089027209 0.19091412025013405 -0.0003893787043357364 -0.0002090977649360181 5.999247955599764e-06 -1.0265865573523032e-05 -0.9690716871046479 0.004685523784205006
4.026571428571429 -0.8539196477423906 0.20107149043689232 -7.3893415199778725e-06 3.560457509805815e-07 -0.000399571516454498 -7.500693649599835e-05 -0.9726456033557089 0.00955261902476734
4.027 -0.8572845595158309 0.2072064313872023 -0.0012442282611280933 -0.00048556952166821946 9.950164184898928e-05 -0.00020400396676593466 -0.971275732694017 0.006248791078318199
4.027428571428572 -0.8597819927535022 0.2089052447466179 -0.0002749231762516694 6.966690640094732e-05 -0.000307234810214151 2.681551306147991e-06 -0.9660712751882378 0.015968398336944245
4.027857142857143 -0.8537234282589993 0.2169683508500133 -8.120609778045049e-05 0.00013361404230574926 -0.00028288990012638357 5.583712950777004e-05 -0.9753872514192297 0.012194368469928496
4.0282857142857145 -0.8534247420746436 0.2330938858151334 -0.00025084120478103384 1.988904006299494e-05 -0.00026357217427549904 0.0001654693512120388 -0.9712798589203623 0.023190645288551786
4.028714285714286 -0.8569374741746059 0.22948952665418745 -0.0003418926471249533 0.00020718317011503038 -1.7656131292566457e-05 0.00040092094202882715 -0.9706078293674703 0.014372377569885792
4.029142857142857 -0.8511007064150091 0.24390489831687698 -0.0007064254883504739 0.0003206199213927366 0.00019143272522001043 -9.152571357786905e-05 -0.9669978101355287 0.025993927474194496
4.029571428571429 -0.8499205677098253 0.24705389683964668 -0.0005335583541169549 -0.000484949648222651 4.7406794162756403e-05 0.0002662631376755837 -0.9621443893723001 0.023811206326476778
4.03 -0.8437145861314288 0.2520904012191658 -0.0007357198119717305 -8.701229083370239e-05 7.830145161966195e-05 -0.00031791195406238214 -0.9726265986186942 0.03410419279747205
4.030428571428572 -0.8429765171971337 0.2645363623477532 -0.00041183143851295304 -0.00024376478044642544 -0.0002932424675119574 4.7190866099637444e-05 -0.9694423802002178 0.03034457927022821
4.030857142857143 -0.8456615815410193 0.26833223473261936 -0.00026159411233496834 -0.0004213988010320158 -0.00010813820176199088 -0.00019453753708738593 -0.9717477087588143 0.02458323895816708
4.031285714285715 -0.8371234015728367 0.27659112743497033 -0.0003324276473293485 -0.00015996371816401735 -0.00014573424021423136 7.179598077626805e-05 -0.9691405989291162 0.03495798496726245
4.031714285714286 -0.8346266592021722 0.2783615159687516 -0.0006439872431789654 -0.00023471094236985596 -0.00015848247553095827 -0.0003422063936673842 -0.9635699069018335 0.02656692996154869
4.0321428571428575 -0.8308528476563574 0.2883718575726476 -0.00014661800729161962 0.0001914935301649388 -0.00010249359479633718 -0.0001887384716974234 -0.9734370545107982 0.03677246383733717
4.032571428571429 -0.8318412671612876 0.2944319695160123 -0.0005998515943738676 0.0003524137983716743 0.0001041754225585997 7.588335483244722e-05 -0.9662779390102751 0.04565363911825371
4.033 -0.830800602667848 0.30137565829551893 -0.00047303184538378414 -0.00015265852705216993 4.892850069137253e-05 0.00013540478333727075 -0.9639172627556807 0.04500886741976921
4.033428571428572 -0.8333749804598388 0.31141327620391973 -0.00010230645605263258 -0.0002359561390818424 8.582697800221112e-05 0.0001985048515505993 -0.9645168637728955 0.04069816165718699
4.033857142857143 -0.8255856280852362 0.3182397186543074 -0.00046964851422791055 2.933754634857266e-05 -7.693685388687775e-05 0.00019842248884854096 -0.963113839242211 0.04559448011463919
4.034285714285715 -0.8200235079108048 0.3207861046623469 -0.0003647069109757089 -6.372584679385558e-05 0.00034022681573523777 7.52108889865464e-05 -0.9658619979310087 0.04472148149536769
4.034714285714286 -0.8126680634753958 0.33357371637768307 -0.0004471566559260402 -0.00013989971699044642 -5.4941237428264876e-05 -1.937598639921414e-05 -0.9655619042763396 0.053133278972622926
4.035142857142857 -0.8149731045987955 0.3382138091742882 -0.0004043625029389418 2.2660984726964924e-05 6.114946015873182e-05 7.690378001874306e-05 -0.9677580091169461 0.05256443796592592
4.035571428571428 -0.8075097381695759 0.34460692541132387 -0.00034061716847874916 -2.728690071809479e-05 6.007544694207578e-05 -0.0006148240165935635 -0.9677844829155875 0.056669343605895345
4.036 -0.8050575878527229 0.35478677419918286 -0.0006834271997728899 -5.380835016569703e-05 -2.899615530223862e-05 -0.00015765450414894489 -0.9685552740525257 0.057812103798592515
4.036428571428571 -0.8136424400652719 0.35400752946715686 -0.0005282445768333761 9.63794554716109e-06 -0.00012472466894590848 0.00010833104448417451 -0.9677220912850596 0.05296940947317576
4.0368571428571425 -0.8069927456190255 0.3646861563740515 -0.000793500933085363 3.218978481381261e-05 -0.0002844766679664917 -0.00012112540014632435 -0.9713928421863365 0.05379343821593623
4.037285714285714 -0.7983423646697161 0.3719689588120961 -0.0006105678981561625 -3.5798221655941545e-05 -3.95455233443335e-05 2.4349808254613324e-05 -0.9623137321245163 0.05793639869338887
4.037714285714285 -0.7966976121633251 0.37294015921598517 -0.0007290979280538284 0.0002916252451654866 -0.00022656318987780065 3.1044784397427224e-06 -0.9692665560210033 0.05697106927127876
4.038142857142857 -0.7903279043098183 0.3924423217240201 -0.0006113247081112624 -6.23560668471797e-06 0.0003506142836736561 0.00014428119099274444 -0.9619252148692978 0.06281357593142779
4.038571428571428 -0.7942392883703627 0.39229589923103725 -0.0005691441543387155 -0.00011418148395171278 -6.122996836032761e-05 -0.0003117591608298715 -0.9611189279608482 0.06740174791960982
4.039 -0.7884498711937019 0.3946627587484228 -0.0003622890850137578 -0.00017928442148488157 6.194644924961383e-05 -0.00025560129423057864 -0.9591665316542376 0.06612897043799912
4.039428571428571 -0.7803621940074565 0.412202389494159 -0.0007731271440419791 0.00019762240255840864 -0.00023938632811053022 1.0250312481770636e-05 -0.9632526929993928 0.07030086930746417
4.039857142857143 -0.7843173301474711 0.4107752926585454 -0.00041224828389441767 0.000158493565624071 0.0003525072980585528 -0.0003135035993963349 -0.9717803764924449 0.06937650228953604
4.040285714285714 -0.7793089133577551 0.41145722532931045 -0.00030851916025605706 0.0001985728303408348 0.00011543513166453826 -0.00014490022408532614 -0.9635080392773855 0.07464840923977077
4.0407142857142855 -0.7802697139065425 0.4249494636659368 -0.0002475864102256624 0.0001858338786420631 -0.00013091742966886516 8.4024376253056e-05 -0.9597506669614764 0.07606680084397192
4.041142857142857 -0.7680796842744145 0.42954520171523936 -0.0007171153354319184 -0.00022720270846670018 -0.0005104586595680193 0.00016282934066759626 -0.9693813432475905 0.08483516273038473
4.041571428571428 -0.7658295668957711 0.4357462007128193 -0.00029631798267632507 -2.7719424921019523e-05 -7.207814973342792e-05 -0.00013689173398147213 -0.9649841402999652 0.0847869896787533
4.042 -0.7623436783447972 0.4455748764873744 -0.0004932375707937599 0.00029665769124566534 8.437868659045242e-05 -0.00013641743958739776 -0.964038907671838 0.09163064193698668
4.042428571428571 -0.7570433863047178 0.44929671865843274 -0.0005846074562661435 -0.0001069516787459051 -9.754806131894444e-05 -0.00014514148350168508 -0.9581669006889916 0.09295060992681942
4.042857142857143 -0.7574805649450279 0.4473245290594282 -0.00025591405884096497 0.0002491334842372178 -0.00021447249743356255 -9.170589889363873e-05 -0.9650018605414613 0.0888349110561158
4.043285714285714 -0.7523514529164926 0.46266791328167867 -0.000220462211751808 0.0004927749234670615 -6.755199939337875e-05 -2.4931496059373366e-05 -0.9635534393841338 0.08723648862392426
4.043714285714286 -0.7445607591960254 0.4662622610113021 -0.0004895405403692122 0.00021891205524783832 4.810710519262901e-06 0.00026120953616845733 -0.9664630259551709 0.083770444200848
4.044142857142857 -0.743674363049952 0.4746064805309979 -0.0006718733276866902 -0.0001051102294440311 -0.0001372654781180095 4.204519240440035e-05 -0.9624424473200673 0.09737347588907529
