!Created with skrf (http://scikit-rf.org).
# Hz S RI R 50.0 
!freq ReS11 ImS11 ReS21 ImS21 ReS12 ImS12 ReS22 ImS22
4.0 -0.8273933095401096 -0.2521101352393234 4.021817367634418e-05 -0.00016917262036891408 -9.404630469840361e-05 -2.909581866043394e-05 -0.9618242814646198 -0.12872290490810426
4.0004285714285714 -0.834994076048819 -0.24713982777489876 -0.0001349952426851828 -0.0004960775928084371 -2.867795080362154e-05 0.00023382472958372407 -0.9704712854174932 -0.12166074578098464
4.000857142857143 -0.8386055332010701 -0.23552916633412413 -0.0005249058520532003 -5.3059069937243843e-05 -1.9293791674542735e-05 0.0001271405678806019 -0.966341710796909 -0.11686328935971582
4.001285714285714 -0.8332639196442977 -0.23046901839502884 -0.000503923799883972 -0.0004130577469264056 -2.307818341387287e-05 -0.00010120696264276313 -0.9657708383400617 -0.1170495602339388
4.001714285714286 -0.841483407532709 -0.22334747713044897 -0.00050766449707839 -0.00047012451856492585 -1.0718425477505163e-05 7.705179911481697e-05 -0.9664439981164411 -0.12106001035893496
4.002142857142857 -0.8391471349348502 -0.22292188651345812 -0.0003270509132417325 -0.0004679556962743631 -1.678003079215667e-05 -0.0001338300919406875 -0.9646792255887356 -0.11288881904799647
4.002571428571429 -0.8410301972191763 -0.21349811265318017 -0.0004695620860648705 -0.00031920304323919657 7.366982000521467e-05 -0.0002190168427939551 -0.9703806356089849 -0.10527185617512345
4.003 -0.8462991866955092 -0.2028688811947633 -0.0008210681034481647 -0.00044596270269988764 0.00020382499175357853 1.9968754249465205e-05 -0.9688358073276493 -0.10367094430209552
4.003428571428572 -0.8488625116660854 -0.19789696344099078 -0.0002166007706403573 -0.0008978855155866334 0.0001439561146889676 -1.1900758442018904e-05 -0.9619884441102078 -0.09885406154927082
4.003857142857143 -0.8442269359912551 -0.19160276765450304 -0.0005562637578642028 -0.0006350350619824703 1.6989612962971744e-05 -4.975063958724378e-05 -0.9701137685294519 -0.10973160852084338
4.0042857142857144 -0.8544021563781401 -0.1845304663711794 -3.408519567370144e-05 -0.0008427046585824929 3.035327146346823e-05 -0.0002593899456150737 -0.9661639041458417 -0.09851454723614103
4.004714285714286 -0.8504495365991137 -0.17411494486484813 -0.00027597647153924514 -0.0003490430945833929 -2.015289963821348e-07 -4.549147584670543e-05 -0.9608198404396145 -0.10863501944951214
4.005142857142857 -0.853081886220343 -0.16647929490884755 -0.0003442900778911256 -0.0007121586907005961 2.7687881496465974e-05 0.00018989338969370187 -0.9688956676247124 -0.09436580522419707
4.005571428571429 -0.8531336344788372 -0.16027235791768452 -0.00032473122560609726 -0.00027380440821893136 -5.233302081166025e-05 4.124140173948754e-05 -0.9601953516925105 -0.09398950514181048
4.006 -0.8564320450194276 -0.1565860417818831 -0.0005424150758168725 -0.00027744837403565143 -0.0001337004100956178 -0.0001020712266983491 -0.970490418426509 -0.09338235432541592
4.006428571428572 -0.8564365852289082 -0.15267261907410934 -0.0005392988283409127 -0.0005657299497216109 1.512341735683297e-05 3.907212377423646e-05 -0.9676915126887191 -0.09233475506377073
4.006857142857143 -0.8616189132667181 -0.14017422934665105 -0.00047349324993364096 -0.00025940280466011035 0.00018984522581173705 -0.00019706329381850827 -0.965714760045432 -0.08806957371033346
4.007285714285715 -0.8646866306373029 -0.13467490773253535 -0.0006888863721897213 -1.3616984091968484e-05 -0.0001389770164131188 5.497446523767414e-05 -0.969898603201339 -0.08051661275581297
4.007714285714286 -0.8614422477615136 -0.12831498138398306 -0.0008198189588676247 -0.0007817239057560867 4.073181345139497e-05 0.0001260042968165396 -0.9632239396881702 -0.08197993663014573
4.0081428571428575 -0.8620476821006531 -0.12579213736207784 -0.0004800343453924769 -0.00022366113526696215 -0.00018109002595294126 0.000139568538187425 -0.9690904811476025 -0.08732657989545761
4.008571428571429 -0.8648978789299455 -0.11253532828298533 -0.0004407598269393077 -0.0006491259480013321 -0.000353229936711004 -2.5092746045483904e-05 -0.963786427435152 -0.0780305609614423
4.009 -0.8658216305892877 -0.10769731920518574 -0.0004480919982933451 -0.00040123587008589586 0.0001229772995046597 -0.00010588124706425543 -0.9742242625731558 -0.08392630108650471
4.009428571428572 -0.8630569429489058 -0.10335648770239866 -0.0005147651423229662 -0.0006414264355389012 -0.00014948475044568166 -1.158001957031987e-05 -0.9758840741251326 -0.07499002622130814
4.009857142857143 -0.867389943867533 -0.09236849997872747 -0.0004475744904505231 -0.00022922331738225069 0.00018902643528312523 0.0003092699030943732 -0.9674407467324693 -0.07034682768816992
4.010285714285715 -0.8681183487487354 -0.08461865461648882 -0.0007790924253472687 -0.0004970727435785798 0.00017008912301993268 -0.00014667582665927876 -0.9663678715443612 -0.07373214711894852
4.010714285714286 -0.8690980971961895 -0.07887674036785708 -0.00037820724218710797 -0.00042258790263875707 1.0522154120932276e-05 -6.494029662512266e-05 -0.9673912695976429 -0.07101566528827441
4.011142857142858 -0.8642104636900758 -0.0751977111401032 -0.0005804324951771645 -0.00018869791079039722 -8.139256198764966e-05 0.0002779810605905527 -0.9692881828752575 -0.06697459567078208
4.011571428571429 -0.86699796659444 -0.06220114853792743 -0.0008956952161621973 -0.0006260276055925671 1.0771021316355174e-06 8.60444688313342e-05 -0.9715414045273568 -0.06618349341164309
4.012 -0.8690115101090374 -0.05891226254462546 -0.0005211231484410356 -0.0006445564219635413 0.00010279925143800951 0.0001493439875766913 -0.975676866086022 -0.06382536497977848
4.012428571428571 -0.866708237028413 -0.04888674660255675 -0.0004077795775341973 -0.00015986219177984071 -0.00011763411824059167 -0.0003519915378050887 -0.9637805255701624 -0.05659257467578428
4.0128571428571425 -0.87331744676874 -0.04086701497092193 -0.0006630034963606216 -0.000303800547859687 0.00010129445860757545 -0.00026780849531534535 -0.9651037446750486 -0.06362362140941677
4.013285714285714 -0.8634761805209552 -0.03580115662699845 -0.00040983904658956077 -0.000499579622235634 -5.7151760966174414e-05 -1.9687479202863425e-05 -0.9615278278311784 -0.059053665535154946
4.013714285714285 -0.8682336246175496 -0.02850121807281295 -0.0006566384478040232 -0.0005799641477344568 -0.0004920629450862371 2.819013065820236e-05 -0.9763493096188757 -0.05094474880783547
4.014142857142857 -0.8686919708933851 -0.019996591230792896 -0.0004695302825191255 -0.00028729329178444187 -0.0004615069123174744 -0.0001270937256971883 -0.9716107873073128 -0.046488472359919965
4.014571428571428 -0.8666208227550464 -0.018702886298028024 -0.0008593811951870755 -0.0001763033663657404 -5.813628545319965e-05 -0.00011932007339464059 -0.9698000310375575 -0.050035899069511044
4.015 -0.8747993108956206 -0.0041733826098756845 -0.00035180324821651866 -0.0002564862640222048 -0.00014673482717006 -5.752455832778034e-05 -0.9651041710784566 -0.05094444770735803
4.015428571428571 -0.8703065896476674 0.0054457737621968795 -0.0006061062898494984 -0.00037190319826316975 6.801644264728172e-05 0.0001462495977148716 -0.9724622301138365 -0.05122037746758369
4.015857142857143 -0.8695812935353827 0.01229170488365644 -0.0006538699263098596 -0.000559472260538368 2.8723921215538498e-06 0.00014593659362933045 -0.9727854684158985 -0.044921474577833444
4.016285714285714 -0.8703163475606142 0.016736767647921678 -0.0006051824489544653 -0.0008148336213244811 -4.8188095535802556e-05 -0.00022557066767576165 -0.9653657177653937 -0.04060577977794627
4.0167142857142855 -0.8691481181640769 0.021413444510388045 -0.0006619676878310799 -7.645599461142784e-05 9.913859287058446e-06 -0.0001310180693899708 -0.9655577547867832 -0.04866229720668886
4.017142857142857 -0.8670927150975412 0.03256660666500798 -0.0010333877535137449 0.00010367845069025823 -5.550219099985499e-05 0.0002242970109147694 -0.9614744120860694 -0.04094364463661105
4.017571428571428 -0.8700579420328902 0.03709719802843534 -0.0001953267458924155 -3.69293571870435e-05 -3.307010213591393e-05 4.145687014777925e-05 -0.9721084078474829 -0.04078141030950175
4.018 -0.867960998819685 0.04386995171707323 -0.000726947497564864 -7.957659655917987e-05 -0.0002599224583516517 -0.00011105260684293935 -0.9697984346124275 -0.03903247255193494
4.018428571428571 -0.8708184209434994 0.05154666350721343 -0.0009737057385269371 -0.00020606008526474374 0.0001018169517842657 0.0002855771232500732 -0.9730019878439489 -0.032907954496237804
4.018857142857143 -0.8645843926730035 0.061785079192572825 -0.0005472475770424153 9.751884979683035e-05 2.698967914075997e-05 -0.00032930066903637804 -0.9596065662957857 -0.027058588223912564
4.019285714285714 -0.8629915884334178 0.06980551089089124 -0.0007378818701613354 -0.00025377276864475444 0.00010971348098104756 -4.805932004028806e-05 -0.9710781334459144 -0.029861130907282814
4.019714285714286 -0.8680330155777267 0.0766273799501945 -0.000959889878669521 -0.0003285334278402581 -2.5288209281471136e-05 0.00021447051825705186 -0.9652670338868315 -0.030095805652750288
4.020142857142857 -0.8683616969447453 0.08118355328085079 -0.0008246366600040414 -0.0001784308025610895 0.00018654766181631682 4.220561407639721e-06 -0.9688357361571883 -0.02442737764126387
4.0205714285714285 -0.8661259912271738 0.09576786262294087 -0.001023792681583368 -0.00036996862899563366 -4.7045842491988426e-05 -0.00023807778225469023 -0.9681357154175516 -0.02469151055608532
4.021 -0.8634355529570712 0.09507542711658468 -0.0008418090017264 -0.00014753982032309022 -2.4428314909245684e-05 -8.232337830862327e-05 -0.9663448223055406 -0.019103214807989374
4.021428571428571 -0.8626990579872595 0.10639934967827358 -0.0007053086733364351 0.00022549322315453647 0.00022062627936686764 -0.00010584291498489206 -0.9688984434880552 -0.017757730785299197
4.021857142857143 -0.863179076100186 0.10843917628785747 -0.0007635126180754042 -5.0247458776047874e-05 2.2041188152813115e-05 -8.824196776227263e-05 -0.9673758496910682 -0.014976372693080255
4.022285714285714 -0.8552682275025256 0.11379325093059606 -0.0004789700314714249 -0.0006293493752298581 1.0227414861141416e-05 7.623485009856084e-05 -0.975055599151721 -0.009769943547971597
4.022714285714286 -0.8614787599672629 0.12938671809739186 -0.0010451523392540803 -0.00012457090914769434 -0.00018141993170212376 0.0002043177625376676 -0.9643388247529389 -0.013400277058901984
4.023142857142857 -0.8563418835730509 0.136816676188065 -0.0006274469775689768 0.00047258892090370737 0.00015564625860690776 3.632111159392918e-05 -0.9684732914764429 -0.00886800040457873
4.023571428571429 -0.859395375030661 0.1356029946263848 -6.267626967939852e-05 8.230066777242599e-05 -7.19369756966537e-05 -1.3253905000275622e-05 -0.9641907921296441 -0.003939880747801515
4.024 -0.8529820443328849 0.14770670674761832 -0.0009478554209673275 0.0002488169504692689 -0.0002147258764031605 -0.00019314115154083015 -0.9721633219826546 -0.006508201066956896
4.0244285714285715 -0.8552409531930332 0.15197684011410623 -0.00041861794625194933 0.00013576718605171997 0.00031776171273027184 7.176363399599937e-06 -0.9687416933818499 -0.0021328184059737037
4.024857142857143 -0.8569338322807758 0.16329843290576976 -0.0007851665499943059 0.0001489337267778205 -4.730282894318125e-05 2.5027279664827394e-05 -0.9652595938456292 -0.0014633106013284458
4.025285714285714 -0.8542184216230323 0.1714445442488363 -0.000913310837091479 -9.825700966703808e-05 0.00012407168220689616 -4.047099920191186e-05 -0.967149449221158 0.0048094747501756345
4.025714285714286 -0.8533882010531428 0.17873027243245093 -0.0007708578228168231 0.00040532941873788004 0.00011790166018110788 0.00021119257237684952 -0.9754503923431589 0.00889758047201441
4.026142857142857 -0.8547265485101359 0.1809837126887827 -0.0011622647828707306 0.0002665844741074906 -9.548867348379834e-05 -0.00010133734182548642 -0.970396884376175 0.004606384050618771
4.026571428571429 -0.8442336940824152 0.19223371174781917 -0.001036894238574873 0.00011070090352685367 4.5966568042267934e-05 0.00021169320040515598 -0.9745380562628359 0.008827344270402326
4.027 -0.8453316769666199 0.197356328915806 -0.0005456552141980884 1.1994032355646727e-05 -0.0004500644278383669 0.00027018735119663614 -0.9692965579258367 0.004832182203802283
4.027428571428572 -0.8480568253642281 0.20155900229764218 -0.0005653818951764896 8.232257187729614e-05 0.00034696709744934704 -0.000156017767326778 -0.9658485815803728 0.016863860127885932
4.027857142857143 -0.84490528952737 0.20660649716108953 -0.0007033022910293389 0.0002655869792175373 0.00010121232621757652 -1.9804793917833626e-06 -0.9749755859078353 0.01058498463240013
4.0282857142857145 -0.8424595779999661 0.22165324801178274 -0.0009592894683234915 -8.28221462568869e-05 0.00010558899710162153 3.1021073772817235e-05 -0.9707688822569488 0.02261174105569226
4.028714285714286 -0.8469066226023464 0.2215272217591483 -0.0005619778858462395 0.00017703191193644196 5.979741682025937e-05 -0.00022497614966278064 -0.9702915418476983 0.013145802828048106
4.029142857142857 -0.8409063323015958 0.2335238214788755 -0.00022430612306128194 0.0005865654501387819 0.00010748152897467013 6.459569552830518e-05 -0.9695137208791833 0.023102919605252206
4.029571428571429 -0.8392520789779316 0.23572795343455857 -0.0006436893623090978 0.0005346363241974862 0.00024740429968906843 0.00015020096953400914 -0.9643350594634492 0.022645313395378543
4.03 -0.8341190137620766 0.24278929965818585 -0.000890853115236866 0.0006479300949977679 -6.799880775400836e-05 -9.573719738992532e-05 -0.9727341555626936 0.03250944019567555
4.030428571428572 -0.8343011029331403 0.25510924081818515 -0.0005065963162785033 -1.1033980153505843e-05 -5.88351702835875e-05 0.00012888067508116355 -0.9688931993583129 0.028799107429888234
4.030857142857143 -0.8353727412902537 0.25700292216606835 -0.0007989935487833198 0.00028126585335537887 0.00020424690745051783 -1.9571223155605054e-05 -0.97133148314111 0.02325758368575347
4.031285714285715 -0.8283315206647957 0.26635290334446543 -0.000575292751873588 0.00045718470740307803 5.044309032514654e-06 -2.457516656013935e-05 -0.9685124939120797 0.03444855020319816
4.031714285714286 -0.8240843735706864 0.26725657749194726 -0.0003995696481275101 0.00020642108063662155 -0.00016440456644667743 7.168495276243831e-05 -0.9646509872505088 0.026232102035369995
4.0321428571428575 -0.8224131957120954 0.2780701867636254 -0.0010883418664501294 0.00021834514267964113 0.00011489374876506052 0.0003486035556983285 -0.9723638348347228 0.036781130115794404
4.032571428571429 -0.822430044055462 0.2838901697814505 -0.0006298762566994675 0.00015640100413843663 9.298056786401024e-05 -0.0003090043745744816 -0.9649366443048221 0.04392050963297324
4.033 -0.8214722553917676 0.29008539332629524 -0.0009600145504005827 0.0005433298627698813 -0.00021882764142907738 -1.1752560147878045e-05 -0.9665455449623234 0.044537119849434544
4.033428571428572 -0.8239325730236533 0.298188850927354 -0.0006796291959648645 0.0006025903688065703 0.00017645881228280203 -4.6431157941069325e-05 -0.9632830289751557 0.03865137971145722
4.033857142857143 -0.8167604426424881 0.30610883978900444 -0.0007018954649224636 0.00023089171981504917 4.104783083023632e-05 -0.00011713780888062497 -0.9631234264971015 0.04388759065762655
4.034285714285715 -0.811275354304577 0.3104082585248063 -0.000761822717119977 0.00041621789821544503 -2.2854245532306565e-05 -0.00012233266899266582 -0.9659106687656054 0.041910555604229564
4.034714285714286 -0.8040449123586705 0.32371919602693094 -0.0009109737643397447 0.00011361260479144584 0.0001238329301471707 -7.726864928854686e-05 -0.9649390657940138 0.05230439212376728
4.035142857142857 -0.8052571985625294 0.32683472797729507 -0.0003549523194826856 0.00020922030965520516 -0.00018704340703240124 1.512134055164189e-06 -0.9690019850007162 0.051662882396963546
4.035571428571428 -0.7987202928090604 0.33344799991917545 -0.0004945151743399094 0.0005552925370477483 0.00017974745204437007 -0.00011207449241634096 -0.966572875423442 0.05569483587427357
4.036 -0.7957692781108296 0.3433015409350244 -0.0007132032047939253 0.000435449421129758 2.581278894639393e-05 0.0001230714554760718 -0.9702979012930295 0.058010996877250476
4.036428571428571 -0.8050682585936068 0.34217195158832137 -0.00035445935975029954 0.0004115754814903018 -4.579038675975594e-05 -3.1636095065066257e-06 -0.9680211449393712 0.050422190878758044
4.0368571428571425 -0.7965646104390404 0.3544488872034745 -0.0004256775349845622 0.00047869605174748816 0.00014378099955281962 2.0460163888902663e-05 -0.9690863046405808 0.05446625657070523
4.037285714285714 -0.7898105905703118 0.36141160591615157 -0.0007334356456514753 0.00040437760295197853 -4.133968471684711e-05 -0.0002306731215742119 -0.9642769363592132 0.059858347115128364
4.037714285714285 -0.7891717146700845 0.36179817195312935 -0.0007430217030064158 0.0004278520507547027 -0.0001080953202134167 0.00014868158762801597 -0.9686053054198197 0.056264099926677885
4.038142857142857 -0.7840825170661826 0.3811993487507091 -0.00020016385905533015 0.00048421999834173614 -5.3666086578967754e-05 -8.107589252554549e-05 -0.9637988146017138 0.06183768817628153
4.038571428571428 -0.7853689899088806 0.3797976712945581 -0.0006557677476255127 0.0005739580588967312 -2.3679313376016727e-05 -0.0002067388784291371 -0.9606523525927508 0.06600777492541016
4.039 -0.779622478954421 0.38330469641804665 -9.197367068881309e-05 0.00047386529412361714 0.00011696878679281475 -1.743371111009642e-05 -0.95897037368709 0.06404043023884166
4.039428571428571 -0.7732756281438643 0.4008859277485418 -0.000603448408573197 0.00033551185773168264 0.00016158007392381662 1.3085209091280468e-05 -0.9637982788477645 0.0688585647345133
4.039857142857143 -0.776055243356106 0.4002558443323538 -0.0006641328356831604 0.0005735874488040788 -8.313620454023274e-06 5.483526825782538e-05 -0.9709647469185506 0.07018477600143017
4.040285714285714 -0.7733185233082184 0.3994751185618536 -0.000707496961174156 0.00019666736640413878 0.00015880947490082135 -0.0001477243860286707 -0.9639934894236495 0.07540715591611784
4.0407142857142855 -0.7716754542043328 0.4129496516934221 -0.000239415479464791 0.0006983241457715941 -0.0001378323599291504 1.564244970001819e-05 -0.9590041784532297 0.0765394622338307
4.041142857142857 -0.7584227846415446 0.41669372144301337 -0.0007351275448795456 0.0006961951726442104 0.00023030119046071575 9.997318450332554e-05 -0.9696625108445027 0.08513359104296957
4.041571428571428 -0.7569125539216482 0.4223707349749486 -6.79771736776171e-05 0.0005577245128334904 -0.00019192908826792845 -0.0001415902878628641 -0.9659311690689567 0.08407734149310836
4.042 -0.754144509414995 0.4332715220751231 -0.0005475464332136116 0.0009638455755364124 0.0002116564858099027 -4.845154456001901e-05 -0.9639510214641438 0.0910124224892667
4.042428571428571 -0.7504724541187155 0.4368649466242853 0.00014914466306376322 0.000911418734844492 -0.00022396768932023863 -0.00012758290799222486 -0.9603416467952025 0.09209435723986653
4.042857142857143 -0.7477493617334255 0.4325122208756723 -0.0005308931592090744 0.0007129171397371641 1.6433071250281598e-05 0.0002827295188893716 -0.9669821816673689 0.0879704218718511
4.043285714285714 -0.7412262169809571 0.45041515611478494 -0.0007095223028304682 0.0006866334850798342 8.536016306067172e-05 0.000297164795194794 -0.9631557926461479 0.08703415407639928
4.043714285714286 -0.7360075343293879 0.45356003505552256 -0.0003393265324282021 0.0006277327748608471 0.0002948780673375355 0.0002178720268299227 -0.9673698178821066 0.0832848185355347
4.044142857142857 -0.7367734625404032 0.46205662877383724 -0.00034552636842403116 0.0007405900638624187 -0.00013781123129807696 2.753674806993921e-05 -0.9623688325190585 0.09521441131289604
