!Created with skrf (http://scikit-rf.org).
# Hz S RI R 50.0 
!freq ReS11 ImS11 ReS21 ImS21 ReS12 ImS12 ReS22 ImS22
4.0 -0.830527904129136 -0.25079685528614165 -1.6952970196806696e-05 -0.0007233828881093852 8.163844132093033e-05 -0.00010731860458391858 -0.9625614077537795 -0.1307566566096677
4.0004285714285714 -0.8374947932185274 -0.2465864451241558 4.356955673518407e-07 -0.0006666077091016416 -0.00015602478363178644 -0.00026825382971924544 -0.971171337048458 -0.12253467712977428
4.000857142857143 -0.8400301982829205 -0.2367129202629871 -0.0002887800386369704 -0.0004861718128975623 6.681071417348907e-05 3.4141238826551624e-05 -0.966048047465594 -0.11684167493635311
4.001285714285714 -0.8361829176337598 -0.2292397516010982 -0.00045600093319838274 -0.0008437914531130356 -0.00015226367488973733 0.00022440526164831595 -0.9641979646101493 -0.11598204901408388
4.001714285714286 -0.842323263304741 -0.22344792637521976 -7.459370544265237e-05 -0.0005427952712096302 -0.00017561110230839686 -0.0003565946949245372 -0.9643875352719189 -0.12001418932409302
4.002142857142857 -0.8420476982044571 -0.22181998606139516 -0.00015201316749069554 -0.0008241925831872204 1.0656847820050085e-05 0.0001390971251577875 -0.9646114551725186 -0.11235759693589743
4.002571428571429 -0.8442451965701885 -0.2127315957961172 -0.00020728097395870628 -0.0004592180858661207 -0.00011611553119843982 0.00019549298643128886 -0.97049815703638 -0.10611235022718815
4.003 -0.8483096324431203 -0.2020001491320541 -0.00022872366530123225 -0.0004252782171067271 0.00024233884622603552 0.00011225911252253641 -0.9686393320924381 -0.10329518114876016
4.003428571428572 -0.849356858625239 -0.19847822597618972 -0.00045217112344179635 -0.0008514240706686607 4.4315933117611925e-05 -0.0001304364872791589 -0.9608768463245241 -0.098823069488134
4.003857142857143 -0.8461382501646609 -0.19084427885505223 -0.00031550692341203684 -0.000679013697037363 8.138226323792554e-05 5.389845184244448e-05 -0.9723373697073059 -0.11134725017825066
4.0042857142857144 -0.8573932032656806 -0.1827125008568974 -0.00024161883333615012 -0.00048296286844453067 -0.00018333048772917676 -4.170447248153432e-05 -0.9667781263294641 -0.0997295592310535
4.004714285714286 -0.8527421004181491 -0.17313308350159787 -0.00021306825550838904 -0.00038300699054537107 7.748629550708611e-05 7.086710205885614e-05 -0.9598065578644964 -0.10775844579867568
4.005142857142857 -0.854312567419557 -0.16570645390596764 -0.00017686564355659653 -0.0004387172697958754 -4.3635406144960076e-05 3.6505963224688804e-06 -0.968223560897829 -0.09400267162572958
4.005571428571429 -0.856001524609321 -0.1601167774604504 -0.0001638155850814199 -0.0003713373237621398 -3.764182055140383e-05 1.6322778548630174e-05 -0.9604417576676354 -0.09463051350987316
4.006 -0.8590718688159766 -0.15510712050980502 -0.0007140985032040219 -0.000601605121692607 -0.0002526273536517776 -3.3146693030056795e-05 -0.9698899473497553 -0.09263139423933756
4.006428571428572 -0.8582213873632412 -0.15079826184717884 -0.00013651216779635828 -0.0004910846538447864 -2.9485097287577516e-05 5.574544410113562e-05 -0.9671582314911329 -0.09233671018154009
4.006857142857143 -0.8643511156027268 -0.13901317936478394 -0.0005518359488700512 -0.0007802902040160049 0.00012667126211966698 -0.0001797391416120946 -0.9653978082541169 -0.08779508782158069
4.007285714285715 -0.8663374854156394 -0.13300488683661318 -0.0006956300127213645 -0.0005284324898820169 -2.601933409375876e-05 -6.781366122207228e-05 -0.9698665758353163 -0.08048342138959677
4.007714285714286 -0.8638860752303302 -0.12647691722761717 -0.00024267547904864627 -0.0006723105716858632 0.00012010814127170993 -9.066829799404873e-05 -0.9635874680252553 -0.0820796314056426
4.0081428571428575 -0.8640735681760088 -0.12410226707167675 -0.00018053269060706918 -0.0008528358691196094 0.0002463503555623612 -8.856807367560763e-05 -0.969248481213279 -0.0886324911158225
4.008571428571429 -0.8672428540275791 -0.11266305185220608 -0.000361812427327324 -0.00021113275193614648 -0.00022617874574981225 -9.308169102124326e-05 -0.9633395753097147 -0.07809793902955564
4.009 -0.8678343252195523 -0.10497025203934388 -0.0005153564590159912 -0.0006664359861871293 0.0001291905496271435 -2.798737563245172e-05 -0.9746734864948141 -0.08568099710317058
4.009428571428572 -0.8650540634604504 -0.10207557348074327 -0.0002552391392820443 -0.0008719935590085517 -8.166481768211089e-05 -0.00011402237479751002 -0.9768494834957653 -0.0766386931237523
4.009857142857143 -0.8680484255724777 -0.09064383260348854 -0.0007068532745555951 -0.0005581118234039391 0.00014819990865157606 2.2118435765283328e-05 -0.9679362953698096 -0.0701319026045718
4.010285714285715 -0.8693371895606097 -0.08453680685523492 -0.000700391090212459 -0.00044156767879376194 0.00012345218932408586 -3.717146645667199e-05 -0.9648674643289024 -0.07477182975318741
4.010714285714286 -0.8711740922694426 -0.07696926036257706 -0.0002287748979694796 -0.0003329246114597168 0.0001696258360986341 -0.0001161806160927064 -0.9677817056094623 -0.07252026536618218
4.011142857142858 -0.8668350340087009 -0.07269936088184417 -0.0006469422820828859 -0.00032731504761247896 5.528724144603639e-05 0.00035415128659559044 -0.9693230021773619 -0.06597448510480572
4.011571428571429 -0.8675202944576683 -0.059899386804491535 -0.0002377469754031666 -0.00010654958036558423 -0.00013759613564984653 -0.00014831576419000792 -0.9696768290805017 -0.06617906104476987
4.012 -0.8732741003164343 -0.05805032506165939 -0.000920572141070597 -0.0001830349899640449 0.00014563386995904438 8.75313044010271e-06 -0.9754856165966285 -0.0649391520349617
4.012428571428571 -0.8696098610222748 -0.047719834402008006 -0.00037712960149280123 -0.0004609363623884303 -0.0005208657252511218 0.00013280747465227262 -0.9630134775118384 -0.05474244804216787
4.0128571428571425 -0.8761616448535838 -0.03873566445763913 -0.0004662962076022359 -0.0001488361800491022 -0.00023372255075599017 0.0001375278134256232 -0.9659645075500417 -0.06227593287563067
4.013285714285714 -0.865772376378616 -0.03477009639107119 -0.00020859182029865699 -0.0006072547984970362 -0.00010613944059721036 5.156644164168787e-06 -0.9632970268140618 -0.05991021127346092
4.013714285714285 -0.8701109239847048 -0.02601575057759286 -0.0005792095384860223 -0.0003285221595108419 -7.898089873507005e-05 -0.0001225018503090513 -0.9741159302447931 -0.05065851536290327
4.014142857142857 -0.8724608715347505 -0.016982849519189772 -0.0004928961810709827 -0.0002641673990627644 -0.00010948280197855849 -0.000307330671802594 -0.9707855795925814 -0.04431985646286959
4.014571428571428 -0.8673200937117879 -0.016001827451165084 -0.0001244722941299856 -0.0004481356030349761 0.0001224312125340155 -0.00013068655049614864 -0.9702841861558833 -0.05122151273407063
4.015 -0.8768404373098017 -0.003816474116636415 -0.0005715838816384258 -0.0006576715745805828 0.0002039603997515314 -1.593671009543987e-05 -0.9652086004643798 -0.05211239367328285
4.015428571428571 -0.8753479263798924 0.0072369717013828945 -0.0008356978874399397 2.1935973390941583e-05 -0.0003733268898376065 1.1061331895463354e-05 -0.971369008665374 -0.047307326967886795
4.015857142857143 -0.8712284149416851 0.013094451450341544 -0.0009138045800360421 -0.0004077219341411281 -6.093509106547877e-05 3.6422577592265145e-05 -0.9694554089597421 -0.04596717164342118
4.016285714285714 -0.8727916221185406 0.018354093876752638 -0.0007017196609874727 -0.00011767633281457023 0.00014462620607336892 1.7988359660429163e-05 -0.9652586748224067 -0.04259699227186182
4.0167142857142855 -0.8717023557252178 0.025045403830133577 -0.00020639002667692522 -0.00019756318610421577 -6.607840060122546e-05 -0.00024972105350606926 -0.9666079358743387 -0.05006489054125787
4.017142857142857 -0.8684739628205577 0.03437402109289826 -0.0004688719041958085 -0.00039535195272954527 3.5099424934399283e-05 0.0001542005005976904 -0.9613760643498265 -0.03871720196237546
4.017571428571428 -0.8747309469869741 0.03819191334650158 -0.0004744412562736164 -0.0003196738396140101 -7.498278834311812e-05 4.780905893358616e-05 -0.9736272843157461 -0.04099112141593605
4.018 -0.8691598414419521 0.04403107547824295 -0.0006196059565499564 -2.3399288046400162e-05 -0.00010934176692889522 0.00013540009577612736 -0.9694025417362625 -0.03965526504166122
4.018428571428571 -0.8733871467269032 0.054832808805751705 -0.0007747160209758403 -0.000366901750396693 -4.61073395560293e-05 -0.0001264924225249456 -0.9721681383287581 -0.03350650531083456
4.018857142857143 -0.865510651801643 0.06335262040134024 -0.0009220597830351583 -0.0002731739193948103 -0.0003222673266272094 -8.164292686751738e-05 -0.9620966866993063 -0.025541317431152157
4.019285714285714 -0.866270988724801 0.07078971295589287 -0.0006354768276784419 -0.00029164291972917585 8.306634136649899e-05 -0.00016617615121033774 -0.9708515151258066 -0.027064213083804117
4.019714285714286 -0.8695997878781723 0.08015227754502591 -0.0012216326541358933 -0.0004914472884073786 0.00011557830784649966 0.0003805201086635085 -0.9635472698605403 -0.028150729041350183
4.020142857142857 -0.8689202044628676 0.08360311959203766 -0.00027354856299238354 -0.00019394819800695886 0.00022080759451073833 0.00039827096358864626 -0.9685142241085763 -0.023860910494161437
4.0205714285714285 -0.8685271339022832 0.09686433008266482 -0.0004701588024158289 -0.00027624421310545796 0.00012729761311342988 0.00021589595905242522 -0.9691627927800442 -0.02413085554969723
4.021 -0.864486976078725 0.09657606969043171 -0.00033524790522751653 -0.0005633987377321524 2.717840844016453e-05 -1.9082703667520825e-05 -0.9645419376799997 -0.021093834175935137
4.021428571428571 -0.8636873124649268 0.10781258128974278 -0.0003342928850616504 -0.0005164353195988517 3.029590945631453e-05 -0.00010665320530630341 -0.9680444294123995 -0.018276924429908838
4.021857142857143 -0.8664467923336879 0.11066646906766085 -0.0006750938915155102 3.1406403990589067e-06 -7.238404064097271e-05 3.700576462219659e-05 -0.9680322559325399 -0.014952684635507564
4.022285714285714 -0.8579126739465599 0.11424955065728369 -0.0008023188699816955 -0.00047631301870244044 5.838825790099638e-05 -0.00024677299722210933 -0.9754238683990315 -0.009151824209366477
4.022714285714286 -0.8620465714094047 0.13125394500133375 -0.0005615369560340386 -0.00017894826880530753 -3.555605678133146e-05 0.00014488598532978646 -0.9660223021732203 -0.012557991881044735
4.023142857142857 -0.8587825013761172 0.13583944758135963 -0.00016713362861339314 -0.0003665420121231983 -2.5839359025535404e-05 0.00022422509122022906 -0.9663977382093126 -0.0077416591891017825
4.023571428571429 -0.8611044112744541 0.13676942134819461 -0.0006328948829092284 0.00015378643981848046 0.0001162416644511361 -0.00012411637494652976 -0.9621550345744833 -0.0035334207591320665
4.024 -0.8553285706497802 0.15018176769459055 -0.0004391687146620721 0.000357933616153163 -1.404806153604731e-05 3.2745262921855293e-05 -0.9712381107408552 -0.00657261928886442
4.0244285714285715 -0.858010019148004 0.15209325239848512 -0.0004892448333159041 0.00014362018746816226 2.9367647036611757e-05 0.00027146033430444855 -0.9704403294659071 -0.0036838295149402636
4.024857142857143 -0.8578901394233287 0.1645882499725933 -0.0006876537154987044 -5.8687666260232575e-05 0.0003204264373048194 -0.000128247480187304 -0.96810803598577 -0.0005258120494213694
4.025285714285714 -0.8574422310722982 0.17202720862303814 -0.0003283030017214745 -0.0006733933715090816 5.932744728555223e-05 3.878493043071373e-05 -0.9661260900171189 0.0041296364973179974
4.025714285714286 -0.8528545648749272 0.1804802943586317 -0.00047151926879153395 0.0001808358027564767 0.0003896559435934925 -1.9166702499765935e-05 -0.9773011735852491 0.007780768685079585
4.026142857142857 -0.8587085472286689 0.1843517799060073 -0.000808458015694952 -2.6007825863464587e-05 -2.419296986361894e-05 -7.829771410441374e-05 -0.9692473539918135 0.0030723958978196957
4.026571428571429 -0.8459133193210842 0.19260516324816457 -0.0005888880266001672 2.5330504416610565e-05 0.00010160028622586979 -0.0005811098922280165 -0.9739665090831288 0.008611803725255052
4.027 -0.8463992758264604 0.2006314862109267 -0.0005366945317607306 8.520353370225308e-05 6.097843830414936e-05 0.00011972451012103938 -0.9707351275885064 0.006530818200442632
4.027428571428572 -0.8501554167615447 0.20018837411405363 -0.00045356696052674937 -0.00023784598825988415 -0.00025591359123745486 -4.641430936951701e-05 -0.9653495014566768 0.015536520169281578
4.027857142857143 -0.8461314642907792 0.20872985274854672 -0.0002570317997110765 0.00016878992654185238 -0.0002940194835900349 -0.0002190973951198719 -0.9734575329157749 0.011234205023462071
4.0282857142857145 -0.8461893602085693 0.22493962545056914 -0.000966033468618218 0.0001719401715600847 1.9082002721028075e-05 -4.247318976763337e-05 -0.9704430237337736 0.020007710089690108
4.028714285714286 -0.8480765166126712 0.22179115906664387 -0.0009168043491534775 3.314839058743385e-05 7.748157013153009e-05 -0.000105803158502473 -0.9686743150567148 0.013256123702264646
4.029142857142857 -0.8431863663975624 0.23607805291988274 -0.000642964891432795 0.0002581835344924957 -0.0001302469282293642 5.5857931399597616e-05 -0.9698721737976901 0.024608539483067984
4.029571428571429 -0.8402734474682119 0.23839491567517593 -0.0007452959891458608 9.195332922010715e-05 0.00021221245882016197 -0.0002386181967576454 -0.9651489724857061 0.022874869339988942
4.03 -0.8355192620623428 0.24394940870073425 -0.00015333537020287456 0.000299508277226257 0.00010564296574454297 -0.000305845080261485 -0.9730053278785136 0.033924620525988915
4.030428571428572 -0.8338172801807068 0.25434444915078297 -0.000657442576123102 -2.6462209717825532e-05 7.655242897257629e-05 0.00048677472488253175 -0.9682895336951377 0.028958488785633167
4.030857142857143 -0.8378048518835918 0.259006271766364 -0.0003219873428277346 0.00035043578522018 -4.812153308881436e-05 0.00027312107598367554 -0.9700211286881522 0.02416374395666415
4.031285714285715 -0.8281614726465035 0.26788113468845615 -0.0006591557553207104 -0.00020038768481995205 5.016551702953256e-05 4.730168119894367e-05 -0.9677427316608161 0.03536795672470177
4.031714285714286 -0.8229961993538535 0.2711120810925705 -0.0006489958795208056 7.580640416581332e-05 0.0001052916211085533 0.00025566078121710566 -0.9655262998079199 0.025364339968607083
4.0321428571428575 -0.8206770546983411 0.28045440621759293 -0.0007644013296209041 -5.491422715805977e-05 8.211103439137759e-05 6.69085508891966e-05 -0.9728363258911977 0.0354287520699317
4.032571428571429 -0.8223414075348724 0.28698111138401006 -0.0006160245974242633 0.00043456175955021203 -6.584725058418468e-05 -0.00017720478982368278 -0.9668588819271247 0.04379576909921768
4.033 -0.8218333143145821 0.29423395015069276 -0.00096431182624405 -9.193606164733221e-05 0.00010624070774772275 -0.00020359758033821097 -0.9664296237145923 0.04652297844572824
4.033428571428572 -0.8257210042849562 0.301646047073422 -0.0007786755276777188 0.00032437790169793923 -0.00010206153417927781 5.67364941250724e-05 -0.9644823151251665 0.0392115464549516
4.033857142857143 -0.8181918758528712 0.30885378903456284 -0.0008551556865780492 0.0003549132222585107 -0.00022000265626491132 -6.651497398445713e-05 -0.9633630266014688 0.04503779513168708
4.034285714285715 -0.8113288295623063 0.31140798435888806 -0.0005822059893688244 0.0006558347734137552 0.00011212702334874235 0.00022376088605726783 -0.9676583747008293 0.04155900392994098
4.034714285714286 -0.8047561503030921 0.3250735664848232 -0.0007399893925330086 2.6004983369422137e-05 -3.810308953722632e-05 4.659389097683804e-05 -0.9684421586845522 0.052717361706369294
4.035142857142857 -0.8071463009019055 0.3288825421255377 -0.000565165023977615 0.000471072675527542 -3.1129263514432625e-05 -4.803249511303203e-05 -0.9691196920460924 0.051541883333970105
4.035571428571428 -0.798676284588678 0.3349879646713395 -0.0005372061041738638 0.000523331345159285 -0.0001585073622550141 0.0001192530865513647 -0.9667403843221387 0.05662816071395791
4.036 -0.797913962455113 0.34403548458283234 -0.0003893160551066331 0.0004931466194394744 8.855925300599738e-05 1.1142571224775175e-05 -0.9705789917257026 0.057471574501579456
4.036428571428571 -0.8046242492475475 0.3420737963104225 -0.0007530319985176528 0.000766486262579614 -0.00014959660248187913 -3.854436011762072e-05 -0.9678628395296809 0.05467686374709047
4.0368571428571425 -0.7980653210602074 0.35542776773939777 -0.0005541747233744478 0.000574693132023724 0.0004038947029858177 0.00025438306633219143 -0.9698056773249449 0.05427389438920971
4.037285714285714 -0.7906255048149303 0.3639401101478664 -0.0007637395055813775 0.0005210237269911369 9.489153388222074e-05 -0.00023133436926512372 -0.9639069574689262 0.0591416142442591
4.037714285714285 -0.7882175510400672 0.36341957394956975 -0.00031303330845971545 0.00014883337610336873 -6.568893287366896e-05 -4.419766868796664e-06 -0.9692546847406825 0.05680047070226443
4.038142857142857 -0.7839418986388125 0.3829067125532827 -0.0004950162087045374 0.00023150734311655296 -5.084635998832858e-05 0.00022231168240518267 -0.9614644360772057 0.06137404124228274
4.038571428571428 -0.7856841301508788 0.3812683578187867 -0.0006187571971731832 0.0003655035424407124 2.6052205025941056e-06 -1.5086597479594224e-05 -0.9608496586628364 0.06491742175052907
4.039 -0.7803976180649003 0.3858369510672648 -0.00045630927341053495 0.0004228966723176762 -0.00019203296551988932 0.00011520590996331864 -0.9588577376658807 0.06471699148858351
4.039428571428571 -0.7737355999458905 0.4025373245487285 -0.00013647986594470478 0.000765012671802128 -8.458606373374181e-05 -5.007880615123095e-05 -0.9641751636952481 0.0664851389031174
4.039857142857143 -0.7768169374900612 0.4025191572635452 -0.0005995996049949459 0.0004688292068756214 -0.00024231023205388718 -0.0003178068485517747 -0.970964250770365 0.07032272866489668
4.040285714285714 -0.7713760594171211 0.4010863950282811 -0.0004883264891140241 0.0006833474729530055 4.923898802085879e-05 7.894217339852024e-05 -0.9641074826611403 0.07604118968069107
4.0407142857142855 -0.7718747757878648 0.41508054542135847 -0.0007789316974427864 0.0002036391915627521 -2.543470001266601e-05 -6.0115586665339195e-05 -0.9611906712378399 0.07701442993701287
4.041142857142857 -0.7601768786049964 0.4200921563984583 -4.107599154918266e-05 0.000563890348433781 2.5238678597081843e-07 7.885034742184817e-05 -0.9685323261964958 0.0861964604866883
4.041571428571428 -0.7581659213103644 0.42483565374533344 -0.00041277020770115377 0.00045917923517284874 0.00032337989068033346 0.00017111246736394514 -0.9659731649699475 0.08393738728250755
4.042 -0.7537205315502314 0.4350611348492141 -0.0005923922165532815 0.00013227080666353776 -0.0002723469984323442 0.0002557695480115067 -0.9633704503621345 0.09013345820342425
4.042428571428571 -0.7493767010309914 0.4401979606028247 -0.0005888758635240888 0.0006078218054900373 9.347676544684685e-05 -0.00035118491687046924 -0.9600474365389206 0.09176736236160718
4.042857142857143 -0.7496008922293245 0.43522601495137225 -0.00043691496936343896 9.33600029849302e-05 -0.00010826560955304281 -0.00010300410356737147 -0.9660690221873348 0.08754512529537349
4.043285714285714 -0.7430002009875888 0.45123566965380757 -0.0002541692340486795 0.0009019460862819725 4.9908043371951515e-05 -0.00015776449402968493 -0.963890714586638 0.08559267885126454
4.043714285714286 -0.7363114400533496 0.4545092724375206 -0.0005558888868499889 0.0009921115801922822 7.635662516435937e-05 -5.9056580968501014e-05 -0.9667513448193655 0.08207463074684124
4.044142857142857 -0.7381078982072626 0.46353671200142166 -0.0005941582215903602 0.00022492888239233357 -0.00033072647187237564 -0.0003736798131718744 -0.9642077131731878 0.09667896928296144
