!Created with skrf (http://scikit-rf.org).
# Hz S RI R 50.0 
!freq ReS11 ImS11 ReS21 ImS21 ReS12 ImS12 ReS22 ImS22
4.0 -0.8460119008443706 -0.25111148080708573 -1.0919350222142685e-05 -5.736295723154972e-05 -0.000261648208346252 8.592199542355739e-05 -0.9639016940754411 -0.1312048610177578
4.0004285714285714 -0.8534906364587134 -0.24576241266231566 0.0003468918727916246 0.0001302204382743813 -3.7131725148435935e-05 4.341146773263416e-05 -0.968944679185063 -0.12240529595985984
4.000857142857143 -0.8586964684616383 -0.2343903350636005 7.155477694835068e-05 -0.0004805668918416159 -3.7951549264520702e-06 -0.00033470697884433067 -0.9658509039244249 -0.11587269194473516
4.001285714285714 -0.8530895341115605 -0.23082153088592045 -4.707754745640241e-05 -0.00021857759708418485 9.015815456157305e-05 0.000176420538625024 -0.9663235958830612 -0.11552899554520354
4.001714285714286 -0.857667423668681 -0.22245326049250258 0.00028346088232404995 -0.0006888511510297007 -7.473391071234042e-05 7.375646347333038e-05 -0.9648173912948622 -0.12041356457991731
4.002142857142857 -0.856124289606858 -0.2220849520402096 0.0003705825440600713 -0.0004922478698830492 -1.5856714344772888e-05 0.0003820739597691698 -0.964161288775112 -0.11013994988388928
4.002571428571429 -0.8602071905633678 -0.21232957508369613 -0.0002009839659462315 1.1995696882828699e-05 -6.940990274769824e-05 -6.350670195827414e-05 -0.9718588038526818 -0.10604220546514924
4.003 -0.8654994286365216 -0.20140502504542276 -1.6821817017282927e-05 -0.00021475118543434142 0.0001279978914010764 -0.0001332171688285612 -0.968223026062217 -0.10228238602684042
4.003428571428572 -0.8669619744822302 -0.1987516090727525 0.0005561170643334794 -0.00030736524333248885 0.0001729882118238704 -0.00018161650289030105 -0.9617528124912472 -0.0973581113444263
4.003857142857143 -0.862984293468349 -0.18978951793582002 -0.00016140545484381023 -0.0003024785296794965 -0.0003198659698974251 0.0002487404571223301 -0.9721012583025451 -0.11068632437629417
4.0042857142857144 -0.8742363180506251 -0.18010125621126052 8.78654849436996e-05 -0.0005658859815311603 -4.809258549822187e-05 0.00011259671360458153 -0.966244532129794 -0.09891625024954032
4.004714285714286 -0.8697642585977559 -0.17229522348048193 -6.91289901601736e-05 -0.0003839157996975357 2.662567311404428e-05 -6.78840394584448e-05 -0.9604911557153104 -0.10725163207752424
4.005142857142857 -0.8716374049584382 -0.1639711984171187 0.00011130689618621245 -0.0007161406317202654 -1.0109383452988996e-05 -0.00013939282740966128 -0.9689519760919606 -0.0942117270920924
4.005571428571429 -0.8734570169264816 -0.15841216544290984 -0.00010457916703419195 -0.0002782185949849991 -0.00021846995892895179 0.00036374593338804053 -0.9585187314612692 -0.09457259725000833
4.006 -0.8761282908589396 -0.15461130732727746 0.0001863721361807607 -0.00045327407334491156 0.00016865371571256322 0.00013931258054970696 -0.9713944711143218 -0.09277626371032038
4.006428571428572 -0.8742876699689063 -0.1503839053759858 -0.0001394661620874287 -0.0004374874312651363 -1.9718636775303717e-05 0.00023911021997345382 -0.9684780191789167 -0.09217368847290071
4.006857142857143 -0.8812331869232677 -0.13718396940418584 -6.31611850384614e-05 -0.0007362308302744021 6.531357529899996e-05 8.304463365216482e-06 -0.9650501820779235 -0.08540498057393632
4.007285714285715 -0.8811428414903574 -0.13001851147226962 0.00018196465483709526 -0.0005077936487075577 -0.0002202430283458501 -0.00017543945386699441 -0.969563478508419 -0.0801138383129962
4.007714285714286 -0.8784346746122795 -0.12571526488664253 -6.0297252650203305e-05 -0.0008382909093730167 -0.00020603337473478858 -0.00021741606753510547 -0.9629753751403491 -0.08139198589403934
4.0081428571428575 -0.8804263769668504 -0.12257288042234667 6.324508531890677e-05 -0.0007353961601253822 0.00011721406449839833 -9.027557652749186e-05 -0.9679562955346951 -0.08613891923456653
4.008571428571429 -0.8845603616135232 -0.1097708583271508 0.0004374450111311447 -0.0006436419124436877 -4.963527319484306e-05 -0.00024669504734103377 -0.9640396766789946 -0.07697217192032822
4.009 -0.8847852358637123 -0.10246774444083119 -4.250325842764399e-05 -0.000680394972591857 0.0003353327634734542 0.00017920899600319966 -0.9752648756632125 -0.08547357097646807
4.009428571428572 -0.8816227962462949 -0.10072996876714146 2.7089669546683112e-05 -0.00018985191553767846 -0.00020592197858154652 -0.0001311216364993447 -0.9779043421593734 -0.07524086013291961
4.009857142857143 -0.8847682995092719 -0.08869756912540912 -0.0001651967240731094 -0.0002519146550491885 5.8218647695257566e-05 -0.0002834914826366 -0.9669463651408458 -0.06894058754929563
4.010285714285715 -0.8869161711406188 -0.08226968091473967 6.736778797519514e-05 -0.00043057042523151755 -1.63220144921822e-05 1.7884977527381693e-05 -0.9649670709747995 -0.07512245530428595
4.010714285714286 -0.8864856873563544 -0.07572603795502218 -8.67474725929654e-05 -0.0004128891541734515 -3.350587378731489e-05 -0.0002061989967038429 -0.9684885085337586 -0.07100801620662098
4.011142857142858 -0.8816182850358146 -0.07197092074109962 -6.211195371446282e-05 -6.779113333019504e-05 -0.00035078708291469396 -6.246242191911153e-05 -0.9715565150337951 -0.06665218992099216
4.011571428571429 -0.882482752300845 -0.058632983238032114 -0.0002808571137119575 -0.00017116249694510135 0.0003592194120516858 0.00014569919026687273 -0.9694720099996111 -0.0665078772323802
4.012 -0.8885742884101806 -0.05452511662391741 -0.00017630849493526263 -0.0008189936350002555 0.00014299366111035977 1.4060722259608948e-05 -0.9745747051394176 -0.06396545940591461
4.012428571428571 -0.8855343573679348 -0.045669786753428844 -0.00019034032307363135 -0.00020035192013436283 -0.0001478017220417817 -0.0002230829120147324 -0.9613393420181771 -0.05665075612811239
4.0128571428571425 -0.8908253403394375 -0.03546554110069154 -0.00047116759509151793 -0.00031123438525640617 -0.00043838933473769326 8.836649285706966e-05 -0.964799936998954 -0.06343322504606734
4.013285714285714 -0.8829945062035556 -0.03154813365441842 -0.0004939595632459335 -0.00025137684456905075 9.100971404515396e-05 -9.519760827921163e-05 -0.9627267338540263 -0.05773248966370613
4.013714285714285 -0.8863473667693363 -0.021643200252854135 -0.00022038040175015937 -0.0004583905221705792 0.0002473108226707088 -0.00010400687641342617 -0.9759442429478056 -0.05044454030358416
4.014142857142857 -0.8847557902827055 -0.014897917973766142 5.80576189887515e-05 -0.00017960730665905452 -1.1310236636547124e-05 8.716130823532126e-05 -0.9703249750617492 -0.046800442571542124
4.014571428571428 -0.884531690815004 -0.012184086739745633 0.00021908087839405467 -0.0002012397294117741 3.868423061570315e-05 0.00031132159285834004 -0.9703287021027157 -0.05232273973795977
4.015 -0.8942237004872443 0.00040479839303057537 -0.00020321839728333965 -0.0002880894941213912 -3.622132735933142e-05 1.7319450461638715e-05 -0.9650673630733524 -0.0506534828447342
4.015428571428571 -0.8874883354212268 0.011597142683757299 0.00016652959776865367 0.00010953367004045164 -0.00030654460045443705 -1.7831835569786153e-06 -0.9728753019761397 -0.04880202493222251
4.015857142857143 -0.887778442021522 0.017093493118142646 -0.0001440193922906769 0.00013482437223518936 0.00024130552784113523 6.120489906320882e-05 -0.971031958549629 -0.04497657456611341
4.016285714285714 -0.8884624677960969 0.022781477059509454 -0.00024586693664665495 -0.0005261085900916433 -0.0003216247945918745 2.8806515380821084e-05 -0.9654336493560775 -0.04076215444146653
4.0167142857142855 -0.8871555577031344 0.027631145250595245 -0.00023276174464459073 -0.0004852445756588977 -2.1671127578407955e-05 1.0291155664338167e-05 -0.9668971200160899 -0.04914810724647461
4.017142857142857 -0.8839371905254254 0.03859917710142081 -0.0006429476790903671 -3.3187391295002496e-05 -5.444208093378963e-06 5.98440514197279e-05 -0.9618410971678497 -0.04091499677371472
4.017571428571428 -0.8888608244078918 0.042140316896798105 4.841200958871594e-06 -0.00033060431891225605 -1.6850633640739069e-06 6.979456753341903e-05 -0.9752853708094263 -0.04219593487451767
4.018 -0.8851631946785817 0.048212462967064704 -0.0001270382949078403 -0.0003645742921251315 -5.821796979816359e-05 0.00014709449699329156 -0.9694893239100374 -0.04046992412021065
4.018428571428571 -0.888337164728415 0.0560710646741396 8.172709773947974e-05 0.00020831808585954897 -0.00014037066103442396 3.487522230596806e-05 -0.9719626587208319 -0.03290236759924013
4.018857142857143 -0.881241993909888 0.06722387729020564 -1.1207289341421012e-05 -0.00010431836296103467 0.00022963629404217865 -0.00011881302479142 -0.9623146723501 -0.02621556645687981
4.019285714285714 -0.8803695714747579 0.07672209083646292 -0.000258645121542714 -5.8895204512893624e-05 7.964419662933534e-06 -0.00015134731683303168 -0.9709632079861974 -0.0295265493653945
4.019714285714286 -0.8848196478219243 0.08413463324599584 -0.0008249855338452891 -0.0004609820159325121 0.0003098424745910095 -0.00010750979164552533 -0.9641891830309327 -0.02740906253113497
4.020142857142857 -0.8836896952866392 0.08908966360187072 9.376833155845966e-06 0.00012524147018355588 -8.140286777773128e-05 -9.127785705078741e-05 -0.9662479777454499 -0.02478345092646732
4.0205714285714285 -0.8823014218587163 0.10343303262230492 6.33515689126467e-06 1.7639813218609136e-05 0.00014693356304894481 4.0811842096130016e-05 -0.9674986083626683 -0.02643977470371691
4.021 -0.8790444490867995 0.1025495365096193 -0.00032284755817398736 -0.00010308410646998938 0.00011616616440783294 -0.0001855354927602717 -0.9666258715743627 -0.020106253440870272
4.021428571428571 -0.879699361192987 0.1142909932943611 0.00024925399234532495 -0.00031627396247735124 -0.00013861256492919447 -1.3941602632384195e-05 -0.9715410053518937 -0.017531662920308774
4.021857142857143 -0.8801919652796246 0.1177184232701985 -0.00047946453510600386 -0.0002738686400326133 8.335061592745314e-06 2.832440661019589e-05 -0.9668386251584535 -0.013395108589655291
4.022285714285714 -0.8724366506464124 0.12187916895438498 0.00030083081812807796 -0.0006823743400157201 -0.0002920298746849803 9.322753545106214e-05 -0.9765471286218684 -0.007208875762816814
4.022714285714286 -0.8776453023462965 0.13582421754266133 6.8668614413677915e-06 -0.0003911876590696376 -6.859010863667793e-05 -7.228986005225471e-06 -0.9655477975121098 -0.013585788319462423
4.023142857142857 -0.8742321111117963 0.14176725268809706 -0.0002041465845593482 -0.00012016066892214958 0.00024855383572061873 -9.85945923847732e-06 -0.9674439325755623 -0.007392157385425616
4.023571428571429 -0.8761033290391754 0.14287678706402454 -0.0005095892102245857 -0.0005082515299974325 3.491730796942064e-05 0.0001555359554070579 -0.9625948328683231 -0.0040228159700334285
4.024 -0.8703705088914387 0.1555116442795469 -0.00029040567608941577 -0.0005010515962990221 -1.0610496787816833e-05 -0.00021893547016703022 -0.9722113094622878 -0.00964839144721885
4.0244285714285715 -0.872505385153912 0.1588676749734612 -0.0001476835884011448 0.00011482267211390558 -0.0003595155391164175 -0.0003491236729529903 -0.9695557408441504 -0.003120481863773581
4.024857142857143 -0.8724954228902072 0.1700785077950538 -0.00024083502411777213 0.0001322804029779022 -0.0003148406509246053 -0.00043095368987850505 -0.9676018498912289 -0.002556224917587841
4.025285714285714 -0.87026331619003 0.18030076046841625 -0.0003600008291385293 0.00017679321942776802 5.554801474441979e-05 -7.093741994207364e-05 -0.964457412413687 0.005149911232441317
4.025714285714286 -0.8692993809703149 0.18691295271840583 -0.00019307760769534814 -0.00026508053633161747 -0.00013168031531822917 0.00016269837855300342 -0.9745113422491085 0.008890950883294797
4.026142857142857 -0.8727513425227796 0.19216483467142362 -0.00032514798437172077 -0.00029792061090283875 0.0003546614765668108 -8.170732740781696e-06 -0.9717473446502398 0.0033279994109346564
4.026571428571429 -0.8579303458246242 0.19993383901861314 -0.00032693766264939094 -0.00014632957900496737 -6.90631592716941e-05 -0.0001553801951616216 -0.9729160516273029 0.00919500876467315
4.027 -0.8615947129153978 0.20561531292969318 -0.00021783741370369754 -2.6629273937954615e-05 0.0002705278671360082 0.00035954734592892834 -0.9710961143998847 0.005417854769305312
4.027428571428572 -0.8664010303239107 0.2083633912272792 -0.00013746667567552057 -0.00015525935938178444 5.7892888042250996e-05 -0.00020900476693079892 -0.966358181985733 0.016782087341553318
4.027857142857143 -0.8596636248862745 0.21608164869691837 -0.0006077913046168657 -0.00016857657271222967 -0.00018436330871267199 0.00011032358882526785 -0.971363571085579 0.012040120384002246
4.0282857142857145 -0.8595879879389116 0.2319087036746152 -0.00026908901953577206 -0.0005016182531579939 -0.00011855577880555973 0.0001250914417543639 -0.9689334134633573 0.023384804770523238
4.028714285714286 -0.863507739513447 0.22983710043619127 -0.00026573211011918593 -3.8340344620955906e-05 0.00011005168272159514 8.642927135155529e-05 -0.9681418793822667 0.013405502015405054
4.029142857142857 -0.8578897012050644 0.24298027392571497 -4.599008555213891e-05 -0.0003483260851363787 5.335972729402776e-05 -0.0002021919846964119 -0.9673570914666866 0.023721311398877135
4.029571428571429 -0.8558664909834125 0.24645891777530934 -0.00044145488221065276 3.6102646870403896e-05 -0.000198097372435687 -0.00026463174484280374 -0.9614587189186327 0.023526492722757055
4.03 -0.8499935354751689 0.2514876871567928 -0.00040778913733673225 -0.0003166777103158389 -0.00010126777096836909 -5.864864487279051e-05 -0.9713878277525435 0.0339816903328568
4.030428571428572 -0.8492015645305121 0.263183101752364 -0.0007731970730817674 -0.00011467949093765623 0.0004690283912381874 -0.0001815996706942286 -0.9685812049055657 0.029140648178439553
4.030857142857143 -0.8515418485515175 0.26820546037747695 -0.00027851337628520474 -2.9076855481127968e-05 -0.00030644991424932114 0.00011010314943023522 -0.970461761387818 0.02238748027399145
4.031285714285715 -0.8422793077476443 0.2768753492538536 0.00014748508733188975 -0.00014674947642598113 0.00016591632802129174 0.00011906432201512615 -0.9683089917848003 0.036416292910439886
4.031714285714286 -0.8401787410902821 0.27795933267509737 -0.000189211771969219 0.00013199675744728634 2.6723225525440965e-05 -0.0002955590848675226 -0.9646155575126768 0.025179417401485216
4.0321428571428575 -0.8360247572583641 0.28614270338620046 -0.0006036014090614405 -0.00012541667943792462 -0.00016232209051431724 -2.2646088546056375e-05 -0.9723044047188886 0.035222645232114984
4.032571428571429 -0.8370191364552978 0.29507586853091256 -0.00016855208080622397 -0.00026578768107230334 -0.00013305835013328668 0.00015635928108340434 -0.967002578064497 0.044766506941265174
4.033 -0.8363210061065157 0.30131587565021833 -9.252412870937023e-05 -6.986728208866424e-05 0.0003760720859124906 0.00017472811749737533 -0.9649539444442566 0.04519276745943704
4.033428571428572 -0.8398114479163516 0.3094328399931151 -0.0002064536462618138 -0.00014670317883765308 0.00012613860229954176 8.771224601691123e-05 -0.9630887601566331 0.038036091479140825
4.033857142857143 -0.832666011426959 0.3168414474359804 -0.0005724158726736225 -0.0003021589324855498 -0.00011593272819620073 -6.0843340126974274e-05 -0.9643332203863114 0.04352560069131306
4.034285714285715 -0.8250940698688335 0.3210009023227481 8.481815064856605e-05 -5.508877370043165e-05 -2.3817748003807896e-05 0.00014717327159841185 -0.9679970340649743 0.041801844093786
4.034714285714286 -0.8181588264034557 0.333985209894316 -0.0002112930246242675 -8.23088960701067e-05 1.867722129418137e-05 -1.6764736405609375e-05 -0.9658757351299415 0.05119696222677461
4.035142857142857 -0.820650764584609 0.33705006139417715 -0.0001224888504964226 0.0001138961640242432 -0.0003492278466166481 9.733430447594351e-05 -0.9684692941144537 0.052590896770292536
4.035571428571428 -0.8154034971050936 0.34378473182948205 -0.00033172777726076284 -5.1693693922893425e-05 0.0001388440017777539 0.00018277472655976764 -0.9685595928180145 0.05605872947699733
4.036 -0.8112293321629551 0.35360115126719466 -0.00024867897061124985 0.00013821433791145118 -0.00013789917258465008 0.00013402831406534007 -0.9696682861209248 0.05763458198102533
4.036428571428571 -0.8185393356530645 0.35234968309078296 -9.625616090123944e-05 0.00040223513414511415 -0.00023179049228983387 6.764629812362816e-05 -0.9678953990932824 0.053110824835593734
4.0368571428571425 -0.8121309522768689 0.36496076463695865 -0.0003620311670659025 -0.0001917254071271188 -0.00013618286562690348 -0.00029485768622933316 -0.9715594698431408 0.05374784172357435
4.037285714285714 -0.8043091626437586 0.37317502955544296 -0.0004434927055413996 -0.0001691303628776697 -1.6342452590683928e-05 9.530313375705992e-05 -0.9633083078301161 0.05785928905968761
4.037714285714285 -0.8022257215691042 0.3724229281875073 -0.0002706296433579377 -4.6748979901148376e-05 -5.740337579384797e-05 0.00034262981779321054 -0.9700460857113672 0.0565073604020133
4.038142857142857 -0.7996426065029074 0.3928517111826329 -0.00040212092914328256 -0.0004887203602487694 -7.962895548308586e-05 -0.00036632512469638123 -0.9641735046422036 0.06125676826368918
4.038571428571428 -0.7979888651244278 0.3902896521123852 -0.0003391408636713918 -0.0002035980211228301 5.6383498982557115e-05 6.840707110905998e-05 -0.958909787459425 0.06565280907847477
4.039 -0.7945205566004628 0.3951843575125717 -0.000526544063997642 0.0005852939587456324 -3.0736970585239526e-06 1.961323712323838e-05 -0.9596212604187837 0.06478950418450255
4.039428571428571 -0.7857334991227 0.4126017111669188 -0.00032832159185882493 0.000253301990384573 -0.00022639411922111309 -0.000266168994294884 -0.9634554580473041 0.06986275087758748
4.039857142857143 -0.789436942870366 0.41132733062151905 2.874429738886555e-05 -0.00026130310949779544 -6.235046645378227e-05 0.00021298637061691633 -0.9690825676862969 0.06977725864302596
4.040285714285714 -0.7862165231209813 0.4102718360051204 -0.0007352777974641866 1.9482571631303603e-05 -4.822022594146484e-05 -0.00012067804101237406 -0.9631265238210135 0.07590810182877768
4.0407142857142855 -0.7857690337635741 0.42437864112841656 -0.00011942424772583008 0.00022764707950449753 -5.424363559336115e-05 -0.0001297893039129966 -0.9601490494971874 0.07861249289040902
4.041142857142857 -0.7735021046644909 0.42859428754607815 -4.6798449575799706e-07 -0.00017674730425822264 0.00032133841812485327 7.835542424527124e-05 -0.9687863397070251 0.08589019358783143
4.041571428571428 -0.7713748563758087 0.43509359550297805 -0.0008996534555656843 0.00040012174029912064 -1.7318019535874026e-05 -0.00017574633951091882 -0.9650165000004772 0.08311434352717967
4.042 -0.7674174672480292 0.44513225763466985 -0.0003181870588878561 -0.00011617445130139861 -6.864936420791085e-05 1.7489459606470156e-05 -0.9630799350129301 0.08929859390575627
4.042428571428571 -0.7620678107505 0.45010180708300557 -6.233262177789747e-05 0.00013641427199400185 0.00013607779124603708 0.00016105305336145184 -0.9603493245644564 0.09094227707110628
4.042857142857143 -0.7624693358853739 0.4459291396979146 -0.000847860655841704 0.0005004521223371601 -0.00038192731957527684 -6.924256687121216e-05 -0.9640171136445475 0.08757451571136088
4.043285714285714 -0.7561346880110839 0.4623983882200315 -0.0003649046827546105 0.00014648451208680243 0.00012147860147495296 -9.752608342759147e-05 -0.9650562855221907 0.08651510508071418
4.043714285714286 -0.7499667050635931 0.4647988932498537 -0.0006851571557058999 5.685314035765237e-05 0.00016863457530326564 5.3810642580880956e-05 -0.965575581996327 0.08320110160118924
4.044142857142857 -0.7514724229398883 0.47357194828906907 -0.00035907933882522774 -0.00017765426624591043 -5.5222808791332275e-05 -9.589813593454402e-06 -0.9602080325601914 0.09812600164606153
