!Created with skrf (http://scikit-rf.org).
# Hz S RI R 50.0 
!freq ReS11 ImS11 ReS21 ImS21 ReS12 ImS12 ReS22 ImS22
4.0 -0.8486882146615827 -0.2527316086591821 2.5539497503059478e-05 -0.00014004863299883156 3.4239979904819176e-06 0.0001372397527246133 -0.9629995482884262 -0.129386146101942
4.0004285714285714 -0.8563644053291741 -0.24527746592846394 -0.00013371162310123587 -0.0003211369047806177 8.394127276031649e-05 -0.00011496173085534174 -0.9710460269748943 -0.12223258630418399
4.000857142857143 -0.8612946685124377 -0.2355980002983774 0.00011898127523614905 -0.00046301817455837274 -3.20665416217484e-05 -3.489527041914355e-05 -0.9671744694701325 -0.11387150133413096
4.001285714285714 -0.8541949777292066 -0.2313147106542569 3.809922256955545e-05 -0.00028284782383211713 -0.00014021692369037573 3.5479700938796504e-05 -0.9638172577577149 -0.11490730500765221
4.001714285714286 -0.861967081006982 -0.2228377356022259 0.0002539123740919095 3.76086105084986e-05 -0.00028566376995321736 -8.405374057593446e-06 -0.9660459550255553 -0.12179790237819876
4.002142857142857 -0.8587390343775311 -0.22267257727742468 7.064764756300231e-05 -0.000744681428073721 -0.00013484920361209846 8.894323123706246e-05 -0.9647624647767636 -0.11224505556976982
4.002571428571429 -0.8613673288425299 -0.21254651633236624 0.0003063331485775673 -0.0002791776670980373 -0.00012386332274179037 -0.000316271972939405 -0.9696480171363775 -0.10551343953892496
4.003 -0.8667071994990091 -0.20121873430432086 -0.0003029619541673593 -0.0002991523631049379 0.00013847875078297115 9.859082677672905e-05 -0.9680341711281198 -0.10331637291844609
4.003428571428572 -0.8681883819978616 -0.1960981615726231 -3.028429463501648e-05 -0.0004293331575390366 5.786146143247529e-07 -0.0001323216746337194 -0.9615510603895572 -0.09905321972311067
4.003857142857143 -0.8647784105888007 -0.18876134427364127 8.399874809231595e-05 -0.000601503084911274 9.56456111522977e-05 2.0572652371101857e-05 -0.9703690173778399 -0.1084486555513989
4.0042857142857144 -0.8764994705788725 -0.18241089817440803 -0.0002582243182594703 -0.0004748651298380489 -2.783005430376257e-05 -3.5242142744821936e-05 -0.9643446545831638 -0.09835959524142422
4.004714285714286 -0.8706587951348991 -0.173166843730405 0.00013816008003082275 -0.00043359480916846187 0.00012834925134928127 0.0002405994092127136 -0.9583860015663658 -0.107988403859529
4.005142857142857 -0.8745831411937919 -0.16422986704913514 9.083749521490577e-05 -0.0005337047043062928 -0.0003355299218769627 -0.00013407946454387852 -0.9677879605420854 -0.09529690547670736
4.005571428571429 -0.8754626608580156 -0.1598076367323144 -6.91669985054553e-06 -0.00044558745457281277 -2.927881624448852e-05 0.00038399022312642425 -0.9604680071191418 -0.09367299630409627
4.006 -0.8774272625009747 -0.1540221173688855 -9.545817450677779e-06 -0.0003781099790205066 -0.0001472512527480882 6.76967437282477e-05 -0.9710721049089159 -0.0931445197107641
4.006428571428572 -0.8761534475690603 -0.14961712294654905 8.23682449116704e-05 -0.0003995136237924331 0.00011662349445448054 0.0003161828281203849 -0.9697832893979519 -0.0916554807195672
4.006857142857143 -0.8820101591600261 -0.13902121479564772 0.0006819963218371796 -0.00019711605223103455 -2.3475247910686057e-05 0.00016103352390326245 -0.9626551436814157 -0.0872484464709323
4.007285714285715 -0.8832947652514952 -0.13019586866016547 0.00015478337548544701 -0.00020155078747695693 -0.00012670104086459202 9.787962562529185e-05 -0.9680371794819917 -0.0797270363747044
4.007714285714286 -0.8808223814154881 -0.12753805819637762 -0.00012183459566676819 -0.00027724109806605306 0.00010931087150491346 2.2174215189383007e-05 -0.9620654331915474 -0.0815558749310057
4.0081428571428575 -0.8812453868850847 -0.12259792647370171 3.473624729900571e-05 -0.0002799106147925834 -4.600006670263727e-06 0.00014895726573189042 -0.9664255951881475 -0.08714254658091923
4.008571428571429 -0.8862017840904649 -0.10914061817563683 -5.083460734424986e-05 -0.00019146141433506645 0.00017375369118943635 -9.429794635371803e-05 -0.9647629464830559 -0.07958187214166039
4.009 -0.8865315765194883 -0.10209698853940825 0.00012582966399235794 -0.00045767782609823206 0.00021576643571762086 6.735786235489207e-05 -0.9739723645322839 -0.08550010148615278
4.009428571428572 -0.8851628811771128 -0.09976570336121643 -0.00012139881349965131 -0.00024326730239920786 0.0002603239740207102 -0.00020031482942817268 -0.9753881339491587 -0.07393797907839067
4.009857142857143 -0.887026616364611 -0.0897777205532152 -5.875135192093555e-05 -8.70763371805014e-05 3.909062399645571e-06 -7.755946933254016e-05 -0.9675655738768241 -0.06886064360546158
4.010285714285715 -0.888802129515911 -0.08115319521338331 0.0002861498072972301 -0.00030861244127071836 0.00021041058883082743 -0.00011183197444042854 -0.9656177432611289 -0.0718550892103475
4.010714285714286 -0.8881314773298543 -0.07507428442552394 0.00025436838027862764 -9.300363622973534e-05 8.754574305645457e-06 -0.00016693654907703353 -0.9680662777907856 -0.06980720647268057
4.011142857142858 -0.8847169448140515 -0.07229290394812897 7.803301652724006e-05 -0.0003298498079169715 -0.00036342994898672787 -2.25716040214234e-05 -0.9700286918437352 -0.06676574379004344
4.011571428571429 -0.8854446863058705 -0.05757847387133692 2.1604596364799952e-05 -0.000496491337105562 -0.0001225998202176799 5.227469270590063e-05 -0.970617900428626 -0.0668966022099793
4.012 -0.8891966601377059 -0.0550586048126277 0.0002599096274239173 -0.0005725340902125622 -7.19992028406635e-05 -1.1556130031789172e-05 -0.9744289016404492 -0.059472649832301334
4.012428571428571 -0.886832345175937 -0.044117644009465336 0.00028663344544126623 -0.00016338600110945163 0.0001326415574340337 8.789937992964998e-05 -0.9617818670188949 -0.054745200425910925
4.0128571428571425 -0.894266104550901 -0.035377086863690746 -0.00017001928538265388 -1.2438125150373805e-05 3.990228934524989e-05 0.00017934723670717836 -0.964406483285186 -0.06364794694464096
4.013285714285714 -0.8835576142540583 -0.03106972154162759 -0.00020263531530716054 -0.00023176966517916178 -8.777560367943033e-06 0.0002784174685141499 -0.9603094392703713 -0.058578584563144714
4.013714285714285 -0.887423506889412 -0.02230847525874686 -0.0002700214697239499 -0.0004467515473001476 -7.163123906115854e-05 0.00015549729927372794 -0.9758767411853638 -0.05119046080956304
4.014142857142857 -0.8872233330487672 -0.01320165352233211 4.648301454882414e-05 3.51187569990969e-05 0.00020174152765757504 8.362369344130528e-05 -0.9720716878129106 -0.045828594864486843
4.014571428571428 -0.8861211478407153 -0.01065952072975183 -0.0005505516624360727 -0.0001129727871352656 0.0002744420943189882 -0.00024731148481646817 -0.9688502417061209 -0.051754604538324124
4.015 -0.8956216954478042 0.00038400110059958923 -0.00018679118569281435 -0.000325800721324812 0.00014192113469458143 -0.00033906132921417647 -0.9645993072679936 -0.050360585660486665
4.015428571428571 -0.8911727961547128 0.01090579928951819 -0.00025272574969135265 -5.4195098877524073e-05 2.699420547826364e-05 -3.802146290694851e-05 -0.97179842215794 -0.04982038528457685
4.015857142857143 -0.8892176091017888 0.016985607880279533 -0.0001773076415077115 -0.0004139088798719246 -9.979836796453639e-05 -0.00015873655968636586 -0.9695337635942021 -0.04615391532941713
4.016285714285714 -0.8908244417257448 0.022338649420813622 0.0002977444136398728 -0.00012244559904354087 -8.615876527143212e-05 -0.0004248522240405572 -0.9646587497444231 -0.043067847186372035
4.0167142857142855 -0.8899358855117929 0.028693422042697772 0.00015509296935691812 -0.0004661293627164618 7.477562597125641e-05 0.00019074168215575614 -0.9634435103144502 -0.04884920273673835
4.017142857142857 -0.8857867660130737 0.039057168544005476 0.0003066071729589503 -0.0007520352847701662 -0.0002455610994799176 0.00024261581284335204 -0.9608066529067735 -0.04068402360749206
4.017571428571428 -0.8903081157070708 0.042273465260599094 -0.0003319093284245231 -0.00047039140095295065 9.648343854711158e-05 4.47829821139373e-05 -0.9715324361143055 -0.04171187934056744
4.018 -0.8878472922389943 0.048365617576965204 0.00013766462192735485 -0.0002446351426494182 0.0001244196660595529 -1.0311174889556686e-05 -0.9706109031387019 -0.0396208566352417
4.018428571428571 -0.890002829871297 0.058344678484864826 0.00029129265608849095 -0.0002075015304175225 0.00010426554782653268 -0.00012501816451678522 -0.9720375406824696 -0.033546480316943864
4.018857142857143 -0.883741199444044 0.06760073413268324 -0.0001240579711139667 -0.0007600005617204623 0.00011099270752441157 0.00015462388776317585 -0.9614255786301964 -0.025074871432124862
4.019285714285714 -0.8825409207787761 0.07612047042495754 -0.00032369534262482606 -0.0003383370372699948 6.958090249916453e-05 0.0001403246110917167 -0.9716067252494571 -0.0273051265108885
4.019714285714286 -0.8873664085218435 0.08539737281104795 -0.00029745493306459055 2.0993088685061055e-05 4.487197099526983e-05 -0.00042689807526887137 -0.965581260567315 -0.025995175779591505
4.020142857142857 -0.8853003831811932 0.08988660134776084 -0.0002279704704705411 -0.00022089210383935672 -9.188702766159023e-05 -9.178925189670092e-05 -0.9678203859540292 -0.023809526781995227
4.0205714285714285 -0.8861013085647744 0.10507434311731456 -0.0007578429357161512 -5.498978958238949e-05 0.00040641193224043174 -0.00019523018247062505 -0.9679991231050971 -0.024018888234559582
4.021 -0.8811991317583742 0.10286121645425593 0.00010092809260720381 -0.00021731774369154077 -0.0001154626771138398 1.7450515754385652e-05 -0.9659257944495989 -0.018053710458370037
4.021428571428571 -0.8808018637426764 0.1149140989321068 0.00026487146725804895 0.00013453503885967933 0.00026408818832700384 -0.00018119099802411294 -0.9679033860274149 -0.020239667932649412
4.021857142857143 -0.8834087805944629 0.11729097958856868 5.212063482730258e-05 -0.000673327762845433 8.530896840347153e-05 7.47991980929188e-05 -0.9670311490482429 -0.014606514749948934
4.022285714285714 -0.8747496987754046 0.12301801917012407 4.385832091763522e-05 -0.0003660638693704643 0.0002164248391726768 -3.3484580972882595e-05 -0.9748502530343975 -0.008161642766071564
4.022714285714286 -0.8796176849093542 0.137070868503425 -0.000303165847454106 -0.0003868555320676974 0.0001183689583425618 9.258872683688608e-05 -0.9671159881247421 -0.013423145561614834
4.023142857142857 -0.8769987001468514 0.14226856354003536 -0.00044437412874966147 -0.00030700131741396913 2.497034492940195e-05 0.000340136559830915 -0.9670134827667205 -0.006779593987810339
4.023571428571429 -0.876461559555202 0.14356707642945854 -0.0005694173620948251 -0.0004847220117966652 -6.641332795968459e-05 0.00025881821154943564 -0.9627125148847483 -0.0025503089219134378
4.024 -0.8739999331029845 0.1563648623221633 -0.0006852578166742653 6.0054776622538866e-05 1.0323579484940479e-05 0.00036471673720074545 -0.9695163909917476 -0.006348069635440712
4.0244285714285715 -0.8763365797655238 0.15950054328880628 -1.5103033591683018e-05 -0.0004134935742931906 0.0003471060600092493 0.000451791328247138 -0.9701250755091009 -0.0014376000547231215
4.024857142857143 -0.874950254688273 0.17173174341080033 -0.0004846735101987489 -0.00024699313783410626 0.0001288764276935487 -8.211127693420712e-05 -0.9670469474434702 0.00010045058891638826
4.025285714285714 -0.8760353755026217 0.1794325217837992 -0.00042568585916650614 2.455642124912196e-05 8.764087155425378e-05 -0.000311169150553201 -0.9645915047733847 0.006142449770098994
4.025714285714286 -0.8731838891518685 0.18671189154007833 -0.0001096230933219986 -0.0004290721371209642 -0.00014063021639019598 4.4139470412020384e-05 -0.9734514104273607 0.009521073893495942
4.026142857142857 -0.8754320062532167 0.19232649464692989 -9.097590723523628e-05 -0.00014636704323238136 0.0001463158041760377 -6.400636103263387e-05 -0.9686386689716289 0.006746939759002384
4.026571428571429 -0.8603748692904527 0.20165489541039988 -3.786837994556844e-10 -0.0004029092107603645 -0.0003006905960974838 0.00023708441036134048 -0.972653790794128 0.00946959991061392
4.027 -0.86406274714305 0.20629330014920066 -0.00013062064207167767 -0.00023434141194105708 -0.00013080318025796359 -4.0272173648933635e-05 -0.9701757550696368 0.006248335477680481
4.027428571428572 -0.8669621542236393 0.209213413185435 -0.00020185259974744 -0.0003066817187979112 0.00014983219395124506 0.0004982303444695397 -0.9666589404114132 0.017515762876064687
4.027857142857143 -0.863335633388325 0.2173623793720965 -0.00019091834090842236 -2.5981431771879522e-05 0.0002646402419239679 -0.000238625041383437 -0.973174010862564 0.013130288874391362
4.0282857142857145 -0.862144697874248 0.23216059512385828 -0.00018161014124254573 -0.00036840645437728113 0.00021548853762469165 -0.0003050881571434284 -0.9692636610164501 0.022174653802794663
4.028714285714286 -0.8648556122436136 0.22911339404078576 -0.00024254004625791714 -0.0002990280845461024 0.00023075363261924835 0.00012508288420424757 -0.9709536776583153 0.013718934265005908
4.029142857142857 -0.8590184340154507 0.24463106277684235 -8.427048938544839e-05 -0.00015026901783352073 -9.984874720035953e-06 7.843000713963823e-05 -0.9682725353680444 0.023961969982272006
4.029571428571429 -0.8579135577409722 0.24746288740451422 -0.0004139170259730172 -0.00015777018462031418 -3.422489864880726e-06 0.00011304166041397823 -0.9642886370927223 0.0204841470024726
4.03 -0.8516304270622569 0.25268371103201814 -0.0006676499491921312 -0.0003799359673186922 0.0002841603218102145 7.391027234362361e-05 -0.9718246906192415 0.033790438194765904
4.030428571428572 -0.8509210878988533 0.26573498240820437 -5.8463803047614164e-05 -5.5831815346403296e-05 -0.0001833610166295023 -1.6062340245644528e-05 -0.9686347275311593 0.029262343604644955
4.030857142857143 -0.8534351229095706 0.26814802602238175 -0.0004269547100308695 0.00012061053297183753 -0.0001031961570541565 -3.0295401162770172e-05 -0.9713674151593016 0.02544347796700592
4.031285714285715 -0.8447178397394698 0.278931741980797 -0.00027642828889899414 -0.00018390534471681113 0.00013917989228098693 -5.554479130949647e-05 -0.9678253576838374 0.036967654200252414
4.031714285714286 -0.8411704542065629 0.2781372237764738 -0.0004254897839193757 -0.0002852797138809206 -8.711185634561128e-05 -0.00014817976066245804 -0.9649056957146089 0.0248744754124497
4.0321428571428575 -0.8385404175986594 0.28958948818007374 -0.0003550581476535513 0.00023275923897205864 -5.202796370354237e-05 0.00016802712575670953 -0.97144404849635 0.03579652296793072
4.032571428571429 -0.8407349294231888 0.29717181479777616 -0.0001740940441292523 -0.00028889497032234633 -0.00025587388281437157 -0.00022864520272855563 -0.9637710429168381 0.04540870758208361
4.033 -0.8379686585663021 0.3012308623027523 -0.00047986485209893 9.601911693528038e-05 -0.00030234167627218547 -3.712483963506936e-07 -0.9638309330718015 0.046764358440803365
4.033428571428572 -0.8413433172885162 0.3113191769675131 -0.0004494028671230541 -0.0003686431416211807 0.00029277639320179764 7.060286487124884e-05 -0.9635387204172505 0.03916252298210939
4.033857142857143 -0.8353037517455317 0.31779467759931673 -0.0002653434622196963 -0.00022756820990171267 -5.216576120414657e-06 -3.369199081433711e-05 -0.9623454771578387 0.04628028139207609
4.034285714285715 -0.8262801066639001 0.32245496021758224 -0.0005563224503423104 1.4813977254181328e-05 0.00016099285618812197 0.00036878831945865326 -0.9665073213982946 0.04484323073360294
4.034714285714286 -0.8197866000709545 0.3366430686012226 -9.173081135652456e-05 -0.000144695544986279 0.00020152794304199796 0.00037782515124355694 -0.9654565113735297 0.051504519023214484
4.035142857142857 -0.823062138934096 0.33935309895372523 -0.0004813128445611148 -2.969862934458148e-05 -0.00011918588930352251 -0.00041496243565168335 -0.9677130053838631 0.05217895681329163
4.035571428571428 -0.8155987801812222 0.3451822591544241 -0.00025711995677880163 -4.731361113124018e-05 0.00019359723638038981 -1.3591723959676549e-05 -0.966945429829901 0.05830895784226757
4.036 -0.8122147042666467 0.3547993589261422 -0.00013145224298530804 2.441232111537477e-07 -0.00019915004505038155 -5.4717745278195465e-05 -0.9694829876614217 0.057970015223355376
4.036428571428571 -0.8208329001362816 0.35526534016623107 -0.00048060274284254 2.7226049264865336e-05 0.000208042527960952 8.288603369395602e-05 -0.9687143558936036 0.052450430865429214
4.0368571428571425 -0.8145108711814812 0.3649036301887474 7.299018847804287e-05 0.00017281461071017758 -0.00016163997093074055 -0.00015733729323141616 -0.9697254913805358 0.054786527958896866
4.037285714285714 -0.8045656975614521 0.37298078453123606 -0.00034234507254129006 -0.0001502558709344758 -0.00012894074989621505 -7.693997801466797e-05 -0.9620943483496169 0.05981924729293037
4.037714285714285 -0.8060686382081649 0.37427544120262124 1.3365831739391012e-05 0.000267679914634792 -2.7883350026663748e-05 5.270904156562173e-05 -0.9703938509206542 0.05757189544420657
4.038142857142857 -0.7995302287258418 0.3947217250765306 -0.0006977775060174139 -0.00023364661527997818 0.00016428135580958856 -0.00012441945431127167 -0.9630014623913726 0.06198235255056949
4.038571428571428 -0.800395161254515 0.39138989208285113 2.385756907414821e-07 3.393529464048061e-05 -0.00036786462503596523 5.6906440572315846e-05 -0.9604239516804924 0.0629909118545672
4.039 -0.7955359473077449 0.3958553106889989 -0.00040826159418172285 -0.00010114422537080332 -0.0004024922389672492 7.61964484391365e-05 -0.9595269563216852 0.06650246569955341
4.039428571428571 -0.7886002552280219 0.4138059394782288 0.00012181019853045483 2.793297202547754e-06 -2.733847619745646e-05 -2.9033916886398344e-07 -0.9639434413481961 0.06858346507018397
4.039857142857143 -0.7925631974566569 0.4125977268585888 -0.0003719314722489645 -0.00025793012644050506 -8.165896947804458e-05 -4.3900914979876557e-05 -0.9685515225874555 0.07203777506581971
4.040285714285714 -0.7871342902096988 0.41251661357735164 -0.00024690042568531624 -0.00011547688333390138 0.00013030878460000239 -9.686004729672425e-05 -0.9631617616857516 0.07598766776297085
4.0407142857142855 -0.7882991707409072 0.42610427261867684 -0.00034143155765983476 -0.0003061212339848364 0.00010635366814762431 0.00016089774275105642 -0.9579629120389079 0.07697602693043636
4.041142857142857 -0.7747521446644526 0.42913277361713104 -0.00018721653024345112 -1.716941687293097e-05 -1.2528365389569114e-05 -0.00010340527426189946 -0.9680463845456508 0.08686427160411683
4.041571428571428 -0.7717384034886635 0.43688064395938025 -0.0008711878414299087 -0.000135373228568422 7.139699840322115e-05 -7.38010737296399e-05 -0.9654385032944045 0.08322631100770066
4.042 -0.7702628595513775 0.44674428898670776 -0.0006335665014495907 -0.0003364591104585612 0.00013419506773811155 -0.000439595310661932 -0.9611504456146789 0.08972081190742826
4.042428571428571 -0.7643260693694065 0.4502613694597601 -0.0005849945811940431 0.00017853566036699723 -1.955081871611465e-06 0.00032923136784535783 -0.958420263544966 0.09332073512313357
4.042857142857143 -0.7652490885546861 0.4478498131431279 -0.00048413666520899013 -0.00033529207951687805 -0.0001338265127312388 0.0002535554533450257 -0.9641894327250848 0.08939959998873342
4.043285714285714 -0.7585472110568096 0.4643717606671389 -0.0006826378971345403 0.00015258077199161086 0.0003018067500806014 8.653902801782017e-05 -0.9648672612868172 0.08724839438851327
4.043714285714286 -0.7513706576513456 0.4665246364677372 -0.0006209969623367776 -0.00011378368099747397 8.782076221001923e-05 2.098874193792048e-05 -0.9659928441538067 0.08346031299949128
4.044142857142857 -0.7532848782482782 0.47698466353102736 -0.0005808839133165745 -1.1806857988003634e-05 0.00020169023377027303 -0.00022891394476360174 -0.961069578969963 0.09687354821909364
