!Created with skrf (http://scikit-rf.org).
# Hz S RI R 50.0 
!freq ReS11 ImS11 ReS21 ImS21 ReS12 ImS12 ReS22 ImS22
4.0 -0.8300205670534063 -0.2545549390339715 -3.118085379671854e-05 -0.00018704203438323996 -7.071291567623646e-05 5.36224993380358e-05 -0.9646691028864953 -0.12926277790175994
4.0004285714285714 -0.8370201386266188 -0.2475972669903907 -0.00010572554431823775 -0.0007369486769053268 8.072957915281694e-05 8.692232308342676e-05 -0.9699776285063675 -0.12300511852324429
4.000857142857143 -0.8423207210929737 -0.23807180492855945 -0.00016957869433078754 -0.000520093325842391 0.00010363477543972184 0.0003586722922710614 -0.9671552782396605 -0.11641796314665631
4.001285714285714 -0.8347824811515067 -0.23280558262828788 -0.0003403153223457383 -0.0006165604571183085 0.00017079313985089503 5.7284662959394736e-06 -0.9654745246857969 -0.1151667342262573
4.001714285714286 -0.8411983749129007 -0.22580676356423426 -0.00029000030348766545 -0.0006077495033140226 0.00011103844813819148 -0.00012634095438343539 -0.965135164554021 -0.1206737948099748
4.002142857142857 -0.840253089591626 -0.22485248398175828 -1.3751842125154758e-05 -0.0006374601930031587 -0.00012230318676255227 -4.4700356282584634e-05 -0.9640586593973082 -0.11145518765034787
4.002571428571429 -0.843554013008055 -0.21285071775416556 -7.72363494469007e-05 -0.00037494082516018046 -2.9200966003872686e-05 -0.00021569048686480687 -0.9695997542699764 -0.10463114883947944
4.003 -0.8469282351115162 -0.2039521190724913 -9.863444076162092e-05 -0.0002589706613437661 -1.717108178863869e-05 -7.148248595804396e-05 -0.9694663927515105 -0.10386655088041641
4.003428571428572 -0.8504016842603125 -0.20024779133363313 -5.44179442960477e-05 -0.0007617518675203563 -8.35704194805342e-05 -0.0002234360474435561 -0.9612756680314317 -0.09833259839838976
4.003857142857143 -0.8455211471996957 -0.19045280321641214 3.589270393978737e-06 -0.00017560068671310344 0.00023923276081668025 0.0003089120028511897 -0.9695441285208243 -0.10946713778587717
4.0042857142857144 -0.8560693971884848 -0.18551848353913183 -0.0001511718758603475 -0.0005284143821968558 -0.0001093612551762048 -2.9198661623088426e-05 -0.9665927778624743 -0.09996084702622605
4.004714285714286 -0.852845073766636 -0.1753996107144774 -0.0005893275467762497 -6.378980505894341e-05 -0.00011747710113944255 6.41658976959707e-05 -0.9605313744898271 -0.10897463497877875
4.005142857142857 -0.854345313767343 -0.16625721259425708 -0.000502613741080785 -0.0005192522624519299 -5.0265538346779516e-05 -7.166857486875347e-06 -0.9688850868994815 -0.09470264232155744
4.005571428571429 -0.8547821573845074 -0.16117016372207188 -0.00028306083505993306 -0.0006140442129558009 1.624365761727114e-05 -4.8201772130024036e-05 -0.9606297131035177 -0.09485657079080423
4.006 -0.8567214957749811 -0.1569683236175934 -0.0005937138964664233 -0.0005971052182835104 0.00018449392619486447 3.3917754247653165e-05 -0.9716970637439372 -0.09250008523297161
4.006428571428572 -0.8582868684998329 -0.15151532702721837 -0.0002603742938171809 -0.00027157910700222304 -7.28083991920029e-05 0.00020766023479272072 -0.9695425312195576 -0.09288332777731816
4.006857142857143 -0.8628715464815473 -0.14151151739464501 -9.661336984310928e-05 -0.00047722436627983827 8.348504988426406e-05 -0.0001944240430491987 -0.9656561281951828 -0.0878045446164383
4.007285714285715 -0.8661824226710995 -0.1335565802934369 -0.0004994728203357732 -0.00026285195591367155 1.7950787326766018e-05 -0.0001167828646630674 -0.9692428043672195 -0.07891177024541438
4.007714285714286 -0.8620370969142988 -0.12883846778750094 -0.0004231281361715385 -0.00014929232396299758 -0.0002658098354223835 2.820959889263771e-05 -0.9633140352975087 -0.08302867281127221
4.0081428571428575 -0.863733577115434 -0.12723103349688367 -0.0004334180315017888 -0.000640517847487195 -3.511714132995772e-05 8.21427235736228e-05 -0.9680187367294776 -0.0870810720166124
4.008571428571429 -0.8675029989199122 -0.11308094071814707 -0.00012657552198536297 -0.00025739191635556835 0.0002211118949955973 8.674516836197013e-05 -0.9641882830056686 -0.07827970437852648
4.009 -0.8685291980918932 -0.10675686201937629 -0.00045754482674853725 -2.4796317337832753e-05 -9.641031058637894e-05 0.0003173715212210677 -0.9761798884981495 -0.08545406494367426
4.009428571428572 -0.8648066559843774 -0.10372055242141168 -0.00013809888820707618 -0.00030457419477691297 -0.00010782722629964255 8.180518475554725e-05 -0.9744936887634811 -0.07625022432550953
4.009857142857143 -0.8692038326781869 -0.0927887897605069 5.657521651355794e-05 -9.92815889117432e-05 -0.0002531384398269448 0.00010845404929380087 -0.9680120456367515 -0.06990382203046112
4.010285714285715 -0.8708682607047926 -0.08580523867585 -0.000522378273284816 -0.0002502916291773776 4.1410386116046666e-05 4.5610004495978175e-06 -0.9638944906115022 -0.07423689058521084
4.010714285714286 -0.8701948471920832 -0.08148860922684496 -0.00018180348920087034 -0.0007543311719362466 6.053845725772663e-05 -0.0002778424410813401 -0.969511434756446 -0.07208354459435884
4.011142857142858 -0.8651955669964398 -0.07516748530580257 -6.692820697269891e-05 -0.0002323909613739094 0.00027789844880464905 -0.00011689225779573149 -0.9697649820461927 -0.06418618298049755
4.011571428571429 -0.8668113755947344 -0.06240694932107549 -0.0001108898964314834 -0.00040504610527595196 -9.454303386376548e-05 4.9113770408594764e-05 -0.9726185351136224 -0.0665915195091876
4.012 -0.8716753512569599 -0.05879755604142521 -0.00021494032301181822 -0.0005168768049854789 0.00011834359777996282 8.34297928944988e-05 -0.9767836559428723 -0.06290028774278175
4.012428571428571 -0.8693326203774417 -0.04886848809724283 -0.0006954271060662854 -0.00025551339930513856 0.00012681512295168425 -0.00015871412785425798 -0.9632756045014294 -0.05462219140029239
4.0128571428571425 -0.8760832340431824 -0.041682193858751465 -0.0001214984039823073 -0.0002477744690214692 0.00015227491594539195 9.72157166501757e-06 -0.9652921182647556 -0.0627749367506183
4.013285714285714 -0.86525565173558 -0.03573398108354674 -0.0007041945756273677 -0.0004226381449391915 -6.917184975567417e-05 -0.00018194385308781453 -0.9633634414436444 -0.05858554196933278
4.013714285714285 -0.8700663602104207 -0.027092609333513408 -0.0006161808196230999 -0.00041957833998169524 0.0002990237610516052 -0.00012561768607133891 -0.9747631783876923 -0.052431541723311825
4.014142857142857 -0.8692547226825673 -0.018171656750503525 -0.0002344322957115206 -0.00022527310684272264 3.0391401345209224e-05 -7.508855596634864e-05 -0.9699694683690723 -0.04722854832328936
4.014571428571428 -0.8685448413782527 -0.01688583088841891 -0.0006471343054776689 -0.00034986005384909295 0.00013961561587731166 -0.00020370324888635606 -0.9682118149604901 -0.0531918416808502
4.015 -0.8776239931407486 -0.005655688929502093 -0.0004311933706860496 2.6058737277399617e-05 -9.748257314958317e-05 0.0003923052684222146 -0.965078983809806 -0.05258620124580808
4.015428571428571 -0.8722653481892846 0.005646199262782002 -0.0005108863144366911 -0.0005572377964963731 -0.0002769117681614102 -4.533258703039821e-05 -0.9715776441409296 -0.047970232458835076
4.015857142857143 -0.8717119083265435 0.01166861627083178 7.622270085717323e-05 -8.273346192191548e-05 -0.00014886727729310643 -6.25791884382417e-05 -0.9702892486330802 -0.04547575863831456
4.016285714285714 -0.872074098655522 0.015950484704651106 -0.0005076532244298089 -0.0002330624925538215 6.228685756896173e-05 0.00014681227400673992 -0.9642991299817287 -0.04032618127339873
4.0167142857142855 -0.87062847481129 0.022586645221839206 -0.0006937376426414272 -0.00020397564217034694 1.252880757389445e-05 1.4913889214814082e-06 -0.9656727260190185 -0.05017515987584426
4.017142857142857 -0.8682082493565224 0.03231917399906138 -0.000584010712443634 -0.0003865593031606597 0.00016821141467686447 -1.1763336356342866e-05 -0.9622136657651081 -0.03913409104076709
4.017571428571428 -0.8727702234628996 0.03650438976157071 -0.0002666279509827007 -0.0004894775723848255 4.478871846587492e-05 0.00017107938625808374 -0.9741199344292643 -0.04054011529777451
4.018 -0.8692689155747629 0.0427679702657255 -0.0005474823635479801 -0.000715850520431552 6.999572320710767e-05 -6.697939788661524e-05 -0.9694245295638958 -0.040967234717983636
4.018428571428571 -0.8718811846712438 0.051920055932935125 -0.0005922366468435456 -0.0002244850097998214 0.0001463904975759489 -0.00019382438012737364 -0.9724091518035669 -0.03306852010886397
4.018857142857143 -0.8660862183343884 0.0601227720189776 -0.00044930496789480064 0.000302885321178983 -0.0004090879496527916 0.0001405723803617606 -0.9627627402305362 -0.02596737956271101
4.019285714285714 -0.8637120784792353 0.0709124598815409 -0.00019728672002841444 -0.00022704259040043882 0.00015001941894892326 -0.0003141427712628331 -0.970337252935501 -0.027604333805321343
4.019714285714286 -0.8685258195156988 0.07834935893703643 -0.0001550960867842449 -0.0001969098378086408 0.00030293927422276776 -3.2072247859313424e-05 -0.9646346881321631 -0.027572010271130997
4.020142857142857 -0.8692840186075341 0.08282019371815962 -0.0005152252053373573 -0.0004426529447578421 -7.482946264243028e-05 0.00027048732525812417 -0.9697794928987507 -0.024236166198486692
4.0205714285714285 -0.8666321558663046 0.09525166420688023 -0.00012779782287002984 -0.0001832271060780556 -0.0002434816699489813 0.00024677607444653876 -0.9676598189769982 -0.025559182447742673
4.021 -0.8635937475878979 0.09436922885200444 -0.00035766457195115115 -3.337663716216388e-05 -5.286993233652303e-05 -0.00013468770276193283 -0.9652764800716866 -0.02152285112623821
4.021428571428571 -0.8640810832997591 0.10674432282456053 -0.0007794346239628247 -0.00022249184813875393 -0.000212918392175035 -4.592164844078168e-05 -0.968955961380366 -0.020516436483607757
4.021857142857143 -0.864420915144108 0.11017464853093317 -0.00043602816223462827 -0.00036998223038458135 -0.0001676200851836856 -4.6518662764725246e-05 -0.965822487866854 -0.0160231962830998
4.022285714285714 -0.8564675114204531 0.11286117546898336 -0.000634673095783989 2.6670061512671334e-05 6.083387739304449e-05 0.00011105700576441133 -0.9758130666413122 -0.00972488140428831
4.022714285714286 -0.863984738910206 0.1296185847628552 -0.0005049398409425315 -0.00037179494143528053 -6.700538539603332e-05 1.1930892046904132e-07 -0.9659740635730862 -0.014058743157768526
4.023142857142857 -0.85842300216738 0.13332191343649288 -0.0007705966328926877 -0.00016838805680372365 -0.00011197168416801433 -0.0003312671855769003 -0.9683544982364527 -0.008518715140826739
4.023571428571429 -0.8595956307932845 0.13508148937387973 -0.0007742306579656575 -0.00028192530464394417 0.00021765826609347508 -9.875272830239534e-05 -0.9619472480164805 -0.004720708560327119
4.024 -0.8539424652051276 0.1482789646559415 -0.000551672942525724 0.0002075740796510166 -0.00014031962377959698 -0.00011091517753460172 -0.9696032245249613 -0.00862367112751767
4.0244285714285715 -0.8571065548537434 0.15055771796499723 -0.0006230191016262972 0.0001584539332403041 0.0002764299504060438 -2.800811538835809e-05 -0.969448951793135 -0.0022757468996522628
4.024857142857143 -0.8582237358932221 0.16447923315480237 -0.000427310223357273 9.319580170505457e-05 -6.997620272928148e-05 0.0002359556352572207 -0.9666617340584152 -0.002270713780568225
4.025285714285714 -0.8574903794762687 0.17153120180499734 -0.00041139128476817816 -2.753075762593034e-05 0.00015638939907337203 -0.00034278083288696024 -0.9660181634307761 0.0017134034887961106
4.025714285714286 -0.8551177621199584 0.17728977721350733 -0.0006806853026548471 -0.000169470082588063 -0.00010416030376356932 0.0001744438870265745 -0.9744861264242225 0.010828000290034738
4.026142857142857 -0.8586674728107724 0.18330099874760875 -0.0002876729206939854 -0.00026546767874104815 0.0003012305163555044 0.0003095112047724916 -0.9686596158899309 0.0035526843105521478
4.026571428571429 -0.8443335198857336 0.19188903841590502 -0.0007584420223861793 3.385558123698783e-06 -9.116371204668327e-05 -0.0003751987514648071 -0.9732007867035458 0.008529673448968687
4.027 -0.8453386665310952 0.19787904491159589 -0.0006134066849640782 0.00022367797345675472 0.00022592630533940515 -1.7831004205839536e-06 -0.9714352034105715 0.004809034623965843
4.027428571428572 -0.8512072995957735 0.19925854096677706 -0.0003986383456693287 -1.8844430307907827e-05 -5.252448082758489e-05 0.00020405493356470247 -0.9659325694601714 0.017074440194643176
4.027857142857143 -0.8445066769871492 0.20643832626296194 -0.0004950266936098408 -9.1721589128692e-05 -7.444756211465726e-05 -0.00012424216979843355 -0.9724210740157491 0.01116938122624795
4.0282857142857145 -0.8451204536965352 0.22310253709893219 -0.0006651606704275035 -1.5229060759333008e-05 0.00011484613139886197 0.00021235993718889582 -0.9707846533660268 0.02088159494926446
4.028714285714286 -0.8492007672126649 0.21957666188319588 -0.0002758010443647181 0.0002294156809520897 -7.073479833510209e-05 0.00015668358955335377 -0.9689348062721512 0.011916874843415413
4.029142857142857 -0.8429658766446886 0.23405782024482552 -0.0003857005321107842 0.00013998632652670572 -0.00018995290435456607 -0.00021899853261422324 -0.9684540373375015 0.023325124551345337
4.029571428571429 -0.8415870998723392 0.23592484751525075 -0.00034329973499377464 -0.00028311631851617993 -6.264971971112012e-06 7.902061769186127e-05 -0.9632801838893583 0.021124962211615236
4.03 -0.8354467470701291 0.2426506588809378 -0.00040459823587442545 -0.00043043566132596427 1.2298644709613573e-05 9.421391289073211e-05 -0.9713109698123504 0.033066869102282424
4.030428571428572 -0.8342180053100491 0.25466967212773883 -0.0010134176650839247 0.00011041550006037717 9.03055590413487e-05 -9.142604195614073e-05 -0.970342725711029 0.028493936616276007
4.030857142857143 -0.83595561361143 0.25769339347133285 -0.00041249504954112313 5.363101367919013e-05 -0.0001133847518779259 0.00011055377936621232 -0.9714523316235987 0.022414511795790338
4.031285714285715 -0.8281519307902062 0.26567102487870287 -0.0003073637805125833 0.0002345808854839441 -0.0002530632393390334 7.489609066115467e-05 -0.968537422848817 0.03453149767259027
4.031714285714286 -0.8258765847917325 0.2674807688728158 -0.0007397168667061582 0.00017553978270435668 5.137411228085604e-05 3.449677780293863e-05 -0.964496234988196 0.02419866691699541
4.0321428571428575 -0.8228608445809452 0.27780892891933684 -0.00036104443866567364 0.00024201306136941434 -0.00022249568092942568 0.00016849083197295787 -0.9727862809719877 0.033515601028526396
4.032571428571429 -0.8231997085537686 0.2860280113954615 -0.00035047957505027086 0.0005372690268442083 9.689336717074372e-06 0.0002524266852526451 -0.9663990930763062 0.04409280894577103
4.033 -0.8217256637025714 0.2917360602713467 -0.0006512191282575496 0.00015536722692318581 -8.45264407674591e-05 -0.00010503181632118761 -0.9667837717393971 0.04535425019730624
4.033428571428572 -0.825017662849627 0.30050483068342027 -0.00012554798129608315 0.0001385946904720689 5.823524808157361e-06 0.00012316942609155376 -0.9625693277177523 0.039077425295347634
4.033857142857143 -0.818676815176998 0.30694099258078195 -0.0005579198716470325 -0.00016646954349430542 6.878448379505171e-06 0.00031118719000235607 -0.962534889632745 0.04583998860480618
4.034285714285715 -0.8121232710595128 0.3116774763994304 -0.0006779511206986443 0.0002934067372307644 3.071125528854526e-05 -4.9466450382680136e-05 -0.9667607367847547 0.042976397671094006
4.034714285714286 -0.8057840929418899 0.3243361519464664 -0.0007916769727432856 0.00035995389804677934 -0.00021527680184387597 -0.00023984082231448068 -0.9656833478060001 0.04998033263486837
4.035142857142857 -0.8068600625427891 0.32734149684513997 -0.00024147104927580706 0.00021720040986965937 -0.00010623349095719716 9.069471908989293e-05 -0.9683140471212318 0.05152489981893279
4.035571428571428 -0.799518346071092 0.3353819157629241 -0.0006557244716073977 0.00024032819339543128 3.82173566852397e-05 -5.707127203634682e-05 -0.9686659766468557 0.057802288383839065
4.036 -0.7984473870968523 0.34419663932065625 -0.00033807722124137537 0.0002385177639390296 -8.304402363515709e-05 0.00028980639579347176 -0.9701209572103118 0.056414869291668134
4.036428571428571 -0.8051412760107065 0.34249302521666286 -0.00045206893165062657 0.0003151974681735686 1.4880346353594944e-05 0.0003214973524624569 -0.9681387454004109 0.05169616668120388
4.0368571428571425 -0.7983075610546889 0.35377775166097486 -0.0005398111103407327 0.00036952181993866833 -0.0002825425205620183 7.827819264184947e-05 -0.9700799992930577 0.052081672187790556
4.037285714285714 -0.7915283621764649 0.35923614699620215 -0.0006850598128887342 0.0005020077098920324 -1.613625356874834e-05 0.00010704203436352534 -0.9644076671791751 0.05810013581122835
4.037714285714285 -0.7895598789415793 0.3619687064527649 -0.00047066753456600265 0.0005258904341598466 -0.0002333123435644137 0.000199353283810553 -0.9701192230843664 0.055113317585879285
4.038142857142857 -0.7861597258754063 0.38006616872877835 -0.00018444752260592524 0.0004784997879707357 -0.00019651474610186823 -0.00036615957696006123 -0.9636359445677891 0.05964615479552213
4.038571428571428 -0.7869365545331641 0.3802273373133192 -0.00011814897299923699 0.00035351373762051297 -0.00035475360578935864 -0.00020220654882525604 -0.9602508417917444 0.06592222938469923
4.039 -0.7818306563224312 0.38301038508243584 -0.0006463546141286787 0.00024340955464025998 0.00014644796963020007 0.00014607524419746885 -0.9589739271212702 0.0637477533218213
4.039428571428571 -0.7734507829780213 0.40141226853213857 -0.0005762167410217231 0.00010294071990666206 0.0002039227007190255 5.553905863108059e-05 -0.9607414543379011 0.06894013092844917
4.039857142857143 -0.7778534886494602 0.3987027197352928 -0.0003348699959500404 0.0006281881603952755 0.0001351315835284708 2.6039113975377106e-05 -0.9703965785125784 0.07107004537475041
4.040285714285714 -0.7743694935847716 0.3996068772667503 -0.0006043433221964138 0.00038533433967284414 0.00018504252216367613 -0.00012286536326701103 -0.9644239581778649 0.07602795335526623
4.0407142857142855 -0.7724948270191139 0.41277139853821876 -0.00039603171745505693 0.0003129948735441231 0.00012818815036731485 5.663625155997295e-05 -0.9585302424946999 0.07548916003316852
4.041142857142857 -0.7587483823491398 0.4170133764329229 -0.0006627429148924577 0.0004238146627239485 -7.812212789781022e-05 -1.878805313355973e-05 -0.9697352519320627 0.08592956931934878
4.041571428571428 -0.7582981152410614 0.425672971110105 -0.0006783661515418916 0.0005661339074151769 5.4388274614061e-05 -0.00032488264010953707 -0.9650480019502325 0.08529345825409063
4.042 -0.7562030916568827 0.43292418640394875 -0.0002433373856290746 0.0002496245281895273 0.00021258634959745015 6.111244816924884e-06 -0.9635556745515985 0.090503255930317
4.042428571428571 -0.7485338209026531 0.4379276700944771 -0.0002757117847763098 0.00012966651850373391 0.0001564869350574208 0.00013211206454431448 -0.9612918063997901 0.09281858833509893
4.042857142857143 -0.7509015063062539 0.4343704014493818 -0.0007174300013000423 0.00016407430462556254 -3.643968285991133e-05 -4.2676493653948756e-05 -0.9635766925652901 0.08768307111523348
4.043285714285714 -0.745883777755353 0.4493145334214151 -0.0006684890295694658 0.0002280216903157353 -0.0002001860295200823 7.605457932699318e-05 -0.9666595887006095 0.08586731628520546
4.043714285714286 -0.7383302069583808 0.45366226226531114 -0.00012983177861326285 0.00034212152038300006 -7.143139472477867e-05 -9.792947429476758e-05 -0.9671057144926897 0.08297973261774559
4.044142857142857 -0.7370062157288046 0.46271586629388634 -0.00030848648165033915 0.00021515097767556542 0.0003564831496355739 -0.00015160961497299514 -0.9630682411114936 0.09755015818038322
