!Created with skrf (http://scikit-rf.org).
# Hz S RI R 50.0 
!freq ReS11 ImS11 ReS21 ImS21 ReS12 ImS12 ReS22 ImS22
4.0 -0.8466024695453581 -0.25218753631637836 0.00018487319389317276 -0.00023472905148681246 -0.00010156736626503348 0.00018098783958182832 -0.9640792505622034 -0.12911957513642158
4.0004285714285714 -0.8524692002593692 -0.24682358864706758 0.00016324483888529933 -5.117182306845516e-05 -0.0002661286384801814 -0.00021316627889980463 -0.9706581492483434 -0.1256216466394742
4.000857142857143 -0.8574145619126504 -0.23626994167628326 0.00010059109017782899 0.0001659950556011465 0.00015882880021268178 5.519032562730541e-05 -0.9657137180004678 -0.11623668112896
4.001285714285714 -0.8499371896281941 -0.2298417011725641 -0.00010145315147404443 -0.00014189754607510385 -7.201686111761e-05 -2.1950692061977246e-05 -0.9662420144527828 -0.11773632956452153
4.001714285714286 -0.8600662658406988 -0.222322933832271 -4.8629257259087105e-05 -0.0004456039095093844 3.627838163873613e-05 0.00013199577966415945 -0.9657876381371312 -0.12156988529213694
4.002142857142857 -0.8581626904439205 -0.22131664392639683 3.8783952530946064e-05 -0.0003297843287473388 -7.565324052376341e-06 -0.00010342720887464421 -0.9654019229663361 -0.11214504387905004
4.002571428571429 -0.860676304541249 -0.21199297083010657 0.0002975584663989962 -0.00036893279098073435 -0.00010595441431581482 -4.2808937320611556e-05 -0.971043855877581 -0.10676368062538377
4.003 -0.8647588431960925 -0.2010171798311693 0.00025290431035445473 -0.0003785424973451936 3.257685193934184e-05 0.00017361841024239282 -0.970756357714251 -0.10667193487678919
4.003428571428572 -0.8660349071345278 -0.19830426998789175 0.00014014774913617193 -0.0005532502869591301 0.00017930854619579802 -0.00017256797720747321 -0.9634255823306765 -0.09822800567581431
4.003857142857143 -0.8634278783747016 -0.18847140956128544 0.0002847587504229451 -0.0005739316456956559 -0.00016957530759961233 3.2366584475755075e-05 -0.9705737207274192 -0.11225736345790631
4.0042857142857144 -0.8739730595373433 -0.18181968605994894 -8.260285804703087e-05 -0.00034703037231888743 6.372093035074541e-05 -0.0002296319659415021 -0.9649085827859643 -0.09958830311611677
4.004714285714286 -0.8681671138005291 -0.17373514737073967 0.00027231153629099524 -0.0005684878866923594 -4.193161311203271e-05 0.0001175976666687072 -0.9604061375833064 -0.1076693262601634
4.005142857142857 -0.8702850566971002 -0.16342149445983423 0.0002855064112213262 -0.00043098667038710635 0.0003788780996317832 4.956810556686165e-05 -0.9677573397898059 -0.0966422810839273
4.005571428571429 -0.8727298769452646 -0.15821880761597368 0.00017860288839702848 -2.9751413905151954e-05 -0.00013407049690700884 5.213563982080559e-05 -0.9586973041055687 -0.09529058887312111
4.006 -0.8752889128344884 -0.1542875308624596 -6.363667414077452e-05 -1.2728178571999672e-05 0.00018570517955563394 4.4267384836078547e-05 -0.9698698151409104 -0.09335378954337273
4.006428571428572 -0.874004576022935 -0.15049856706022316 0.00031335340918073535 -8.313647149385195e-06 7.261904224113887e-05 0.0003276561952478219 -0.9685286803144955 -0.09439396275115045
4.006857142857143 -0.8796073341462325 -0.137585373905488 -0.0002362607137569082 -0.0006173215411109867 4.9255375565172395e-05 -0.00012846957387671552 -0.9633434498354229 -0.08759196636676812
4.007285714285715 -0.8808228473460294 -0.13028096967484398 -0.00021565946407951125 -0.0003128706766591576 0.00014406698561883908 4.216875533545239e-05 -0.9683296205894114 -0.08012148284608657
4.007714285714286 -0.8794888351435839 -0.125443967556374 -0.000205972981453558 -0.0003103684912964397 5.780174942712086e-05 -0.0001063054016708038 -0.9625814799574711 -0.08337572042575923
4.0081428571428575 -0.8803707955028249 -0.1229473021095602 0.00010945316768955862 -0.0001230520741109452 -0.0001410927713734194 0.0003873236782415653 -0.9687930965902171 -0.08768979162163887
4.008571428571429 -0.8835595150767689 -0.1098379018534984 9.607015825374021e-05 -0.0002343387221766956 0.00013211228607194842 -0.00022303545021397757 -0.9641063314366175 -0.07850415848642767
4.009 -0.8853161087058335 -0.10360508366758488 5.8233853437789985e-05 -6.549206101992246e-05 0.0002946445740784193 -2.832498670032726e-05 -0.9740795033927833 -0.08549153242938017
4.009428571428572 -0.8821993076804151 -0.09973546664549884 -0.00012386164198633485 -0.0004410928928369186 7.154774928788608e-05 0.0001822557896169067 -0.9759190884168427 -0.07583355114277365
4.009857142857143 -0.884691167905703 -0.08868357284127583 -0.0001468650517912142 -0.0003938922732480084 -0.00027503116039844254 -4.049565116898931e-05 -0.9680092889779572 -0.06997898048067855
4.010285714285715 -0.8890764914641404 -0.08210012567961 3.87606232041285e-05 -0.0003013074275761285 -1.83099936890937e-05 5.665101305710526e-05 -0.9645429048638042 -0.07469525743409249
4.010714285714286 -0.8870325487102804 -0.0754520992605359 -7.879896046662809e-05 -0.00023356529177748775 -0.00022228090533568797 -0.00021477278653310358 -0.970071899796962 -0.07255162176344528
4.011142857142858 -0.8827408501489356 -0.07257394453237183 0.00019727821426498382 -0.0006719540172659288 0.00018028077969345173 0.00019918078824875625 -0.9692818515817601 -0.06585440697872635
4.011571428571429 -0.8840797126801091 -0.058453214149456666 0.00012066732789316369 -0.00037049847153729947 -0.00028942506259508856 -0.0004007669525655957 -0.9720108428972608 -0.06630919515275309
4.012 -0.8881369551727529 -0.05511871981434403 0.00010242350923216108 -0.0001882050024008401 0.0002589421157774713 -0.00011030301436742518 -0.9756570051802911 -0.06445545185221628
4.012428571428571 -0.8853572841172651 -0.046009873382686445 -0.0002365835830178128 -0.0002520751714881976 -0.00014413608536218003 -8.179828875683644e-05 -0.9643289237787432 -0.05688097332940773
4.0128571428571425 -0.8917477978523892 -0.03623976759766755 3.434371084862883e-05 -0.00014516912761590385 0.00012265500756994757 0.0002931354130956532 -0.9654540557788295 -0.06431210881743607
4.013285714285714 -0.8823522909352659 -0.032415135889428584 -7.885496748541802e-05 -0.0003812817587196493 0.00040815065849667583 3.2246242584375184e-05 -0.9607417437583277 -0.0586801913405262
4.013714285714285 -0.8853180894472027 -0.02265795952494986 3.141040980634881e-05 -0.0005633473175553176 0.0001546478953056552 -9.49266308888938e-05 -0.9770602088033106 -0.052810401406906855
4.014142857142857 -0.8850681541739869 -0.013434252275792393 3.232063891773454e-05 -0.0010261021532469942 2.3597192929194933e-05 2.856474547102454e-05 -0.9707237807428988 -0.048135613731642005
4.014571428571428 -0.884441172303131 -0.012751020188460692 0.00017021571119428566 -0.0006024008533942313 -0.0004329786566550292 0.0005453337551086021 -0.9715746899302115 -0.05149814031705072
4.015 -0.8942170993408194 1.5050917064457737e-05 -0.00027433728166303923 -0.00047948826760336473 -4.863707305366488e-05 -0.00011861695274702947 -0.9649151690085689 -0.053844068979813774
4.015428571428571 -0.8891236858073658 0.008647551304462268 -7.988942588646162e-05 -0.00041391086042151445 -1.7081923430017617e-05 -9.34496414685647e-05 -0.9733495591405739 -0.05222540393238876
4.015857142857143 -0.8870477593202314 0.016633323387004323 -0.00021684194615542767 -0.0002858032058696059 0.0004105219657990494 -0.00028172435502603544 -0.9698002474898322 -0.0477597094902249
4.016285714285714 -0.88787907597751 0.022619019833200107 -0.000473510359819326 -0.0006121111828363751 -0.00013177328070232625 9.765409737793376e-05 -0.9650624510596579 -0.04049904930883791
4.0167142857142855 -0.8872628995594207 0.02816617613913505 -7.0479977954468385e-06 -0.00019086565961433792 -6.708007362607803e-07 -1.5544371256015029e-06 -0.96548290666249 -0.049377837715224
4.017142857142857 -0.8848793896461826 0.03730483689903833 -0.00029040789259991636 1.3767408358907677e-05 -0.00011625134481696637 -3.888501874554583e-05 -0.9625261067472162 -0.039298298466587785
4.017571428571428 -0.8886824515675761 0.04314580887380901 -0.00029780498007084125 -0.00016956704243297478 0.0002493304275854331 8.677369450287881e-05 -0.9736712838359389 -0.042078419508489555
4.018 -0.8834778043008809 0.04858694811308469 -0.00027805036126233153 -0.00040150224716048466 6.0875452367571864e-05 -0.00017657686418142562 -0.9697313017285492 -0.04137545253721032
4.018428571428571 -0.8879651665567109 0.057719279589501515 0.0003036424265187955 -3.3669300099149556e-05 -0.00016675939487226384 -0.00028490075134744237 -0.972989550458508 -0.03518579240368782
4.018857142857143 -0.8802236577595834 0.06674434110985973 -0.0001500740836765355 -0.0005776967359999712 -0.0002463001616865171 -9.088194178299317e-05 -0.9602093164669994 -0.028009696283910625
4.019285714285714 -0.8809782757719925 0.07794198222639032 -0.0004157618656168948 -0.00047487613531354124 -8.777242328983999e-05 -0.00016862677871210116 -0.970240937907191 -0.028230419263938277
4.019714285714286 -0.8848020020053557 0.084652861127995 -0.0002117263711902608 -0.0003624105064015736 -6.613552496300069e-05 0.00020584635199912452 -0.965072908103736 -0.03027500918794163
4.020142857142857 -0.8841795823153509 0.08762108503408672 -0.0007832985552026758 -0.00034094837879692475 1.6555292780525643e-05 -0.00016841591244464024 -0.9685007584715266 -0.024772765269739636
4.0205714285714285 -0.8829618040337487 0.10241523532243615 -0.00027617070417615907 -0.00039369160261625946 0.00012539938798419788 0.00036535862089986324 -0.9673480595036202 -0.025254096706881633
4.021 -0.8811578216399354 0.10029116419126495 -0.0003627795080205649 -0.00039393997496127317 0.00015040224574583463 0.00011369405439594653 -0.967650581274348 -0.020080513332319368
4.021428571428571 -0.8799561491967043 0.1136364761972005 -0.0005226574955524508 -8.79838419922966e-05 -0.0003188272098501445 0.0001301045673796764 -0.9681398893728279 -0.02080483329339236
4.021857142857143 -0.8819121956754697 0.11539336695911198 1.8875598947560207e-06 7.714489034772403e-05 7.901279096615958e-05 -9.774195949120806e-05 -0.9655674159032962 -0.01703086203604942
4.022285714285714 -0.8738123426264819 0.12199339739999941 -9.071767590669073e-05 -0.0005957305303682014 4.075025651643328e-05 -5.789368280987282e-05 -0.9774632638617208 -0.009837432996871297
4.022714285714286 -0.8786807291853908 0.13577752267037976 -0.000163744471893123 8.462720693738096e-05 -4.9772435983099345e-05 3.755244207415867e-05 -0.9665317390107244 -0.015518065546420774
4.023142857142857 -0.8724197242456146 0.14005107018436755 -6.483389926870095e-05 0.00016242370730845386 8.7713601129644e-05 -0.00039818263704832237 -0.9686440904626709 -0.007900452493846955
4.023571428571429 -0.8762889402639884 0.14246794621330397 -0.000526523094430615 -0.00038851034107949224 -9.984740245452037e-05 -0.0003471983977026419 -0.9636134194000179 -0.006054893687710889
4.024 -0.8702174868694307 0.15662614530033253 0.00011635141783365437 -0.00036371588525101195 0.0002300066080451326 0.00028243065438083307 -0.9716175820307695 -0.009089000064725496
4.0244285714285715 -0.8749311994378376 0.15856800433876592 -0.00041664879185674574 -0.0004540165248265367 -4.507181466578788e-05 -0.0001691117732009767 -0.9684322532193417 -0.002050595050338359
4.024857142857143 -0.8725501502114795 0.17133286781065366 0.00015131200755464177 -0.00010407275421610509 -0.00015586729337380584 -5.0104324324339574e-05 -0.9685772900568207 0.0001329102303497191
4.025285714285714 -0.8711732675453068 0.1782104583399245 8.78950259827664e-05 -2.5869265649084262e-05 -0.00017079132536228938 0.00025777528376944416 -0.9688681282219426 0.001478215037462071
4.025714285714286 -0.8696559435038023 0.1843195148095868 0.0002642294989294184 -0.0001437143669828198 9.442886800772664e-06 5.8393724020998145e-05 -0.9737774176046609 0.008222244959763108
4.026142857142857 -0.8721300241318061 0.18987649312710392 -0.00039333802208454466 -6.635300680013368e-05 -2.702414660961439e-05 -4.246079972941321e-06 -0.9697622694134054 0.001678108054210496
4.026571428571429 -0.8573978076550559 0.19943196093764692 -0.0004224528964831869 -0.0002905139524303395 -0.00012086047422559013 -0.00018688329084924328 -0.9727078194747164 0.006729682105394376
4.027 -0.8630334209035136 0.20600017218447386 -0.0004638834137919486 -0.0005168160857444164 7.961350707875027e-05 0.000321044790374728 -0.9710148456133282 0.004316951279422431
4.027428571428572 -0.8649333298863586 0.20897204450551682 2.6208312790751634e-05 -9.847153817833178e-06 0.00021289333824050277 0.00018440049953719493 -0.9656520144989877 0.015215323687233924
4.027857142857143 -0.8610420770686888 0.2163222391205257 -0.0006094841379434302 -0.000567761643079714 -5.9092499646889424e-05 -6.202896263712504e-05 -0.9744329299382553 0.010332068340412328
4.0282857142857145 -0.86036033076693 0.23186296064536807 -0.00013940175352683648 -9.752461907358539e-05 -0.00021997121455556546 -0.0001744415638631054 -0.9715052721187727 0.02019006939501711
4.028714285714286 -0.8621897324336224 0.22831695000640415 -0.0006068818274715867 -0.0002904581475559645 0.00024528109264299107 0.00024393899427079113 -0.9689022141249197 0.012795135830140929
4.029142857142857 -0.8565527932524087 0.24301532062508802 -0.0002751225558417203 -0.0001007739393667578 -4.6969428955656115e-05 0.00016007355406681047 -0.9669460690630215 0.024684966978568593
4.029571428571429 -0.8550936113365832 0.24360563780958108 -1.2665194438080672e-05 -0.00013005959950453556 8.067378915110131e-05 -9.527547115381029e-05 -0.9627751190276868 0.020529639937576564
4.03 -0.8507120396714418 0.25248236672410945 -0.0005264436215195841 -9.226091362572809e-05 0.00024105378747758861 0.0003914633689545163 -0.9734073992469006 0.03250491331756993
4.030428571428572 -0.8492319384040113 0.26271019352372627 0.00023950365765750998 -1.5127600836541113e-06 -5.950210381977862e-08 0.00026847301616812633 -0.9699824053379433 0.028200107506480488
4.030857142857143 -0.8514373785534534 0.2650851532738998 -0.0005317523260645572 -0.00010020591524796479 0.00026805774948813734 0.00032979846327713965 -0.9727736056163223 0.023451146609623538
4.031285714285715 -0.8415540448632824 0.2743460189074541 1.4529492555519244e-05 0.0001138223226985249 2.9421395884427028e-05 -0.0001803179639831831 -0.9672581863886955 0.033303904081035784
4.031714285714286 -0.8392642966605846 0.2766465690525393 -0.00044657536942089383 -0.0007605336259553841 -1.937947858016553e-05 -1.8127697391665085e-05 -0.9660130015673594 0.02426799868426796
4.0321428571428575 -0.8373662223129555 0.28813217920374395 -0.0005306834701970649 -0.0001008055979422477 0.00012589250882761116 -2.5577137781930755e-06 -0.9729789633234379 0.031831654349660655
4.032571428571429 -0.8381462537645097 0.2952575817685795 -0.0005813713314956294 -0.0002491184882568445 -2.7494774422463993e-05 -0.0001775578903365463 -0.9661478509701212 0.0439942695228901
4.033 -0.8375779561204758 0.30066634025411554 -0.000278105692764518 -0.0002583187913472721 0.00019733781034923973 -0.0002738879839944841 -0.9651469633324561 0.04553974517978239
4.033428571428572 -0.8394951639658862 0.30978643393294697 -0.00039237336327036844 -0.00019336875667245608 -2.372427797817799e-08 0.000122180692233229 -0.964367360515024 0.0369606111055377
4.033857142857143 -0.8331718881143063 0.31568940549011154 -0.000309731627316775 -7.220649999321971e-06 6.361278022112085e-05 7.64119621178729e-05 -0.9624677835914162 0.04132257017372398
4.034285714285715 -0.8243852163816384 0.3192717140597181 -0.0005112782120718001 -0.00039079062773384095 3.5213558109402975e-05 0.0002454386179289002 -0.9675850280140651 0.04155410011966033
4.034714285714286 -0.8190045861257943 0.3345331451483999 3.6031170419800065e-05 -0.00036648481298730853 -0.0001653981836921928 -7.863262447994734e-05 -0.9665394473680384 0.05110228652725488
4.035142857142857 -0.8212925628958732 0.33691653002862776 -0.0005361665949241025 -0.00035971293234448974 6.492206866516814e-05 9.342175035486173e-06 -0.9699648627624582 0.04998350344778413
4.035571428571428 -0.8145394495144723 0.3424560876359747 -0.0003930750351830773 6.310740473829242e-05 -4.427872465497163e-05 0.00010003347579392217 -0.9673293437481806 0.05608128116225373
4.036 -0.8102264929949748 0.35324599945092483 -0.00043386992850617963 -0.0002512056722458751 0.0001676930942847868 -6.781298101723783e-05 -0.9699621386610604 0.05367914121233929
4.036428571428571 -0.8190175547241018 0.351410051225769 -0.0003717707452614846 6.224528103831678e-05 0.00021876929685489462 -0.00016827341516542171 -0.9702542094499377 0.049309918339386354
4.0368571428571425 -0.8111022628558915 0.36461103139436296 -0.00039801317410122455 -0.00023852237523226544 -0.0001483509292618567 -0.0003164687909931872 -0.9705909988950044 0.052222847177438
4.037285714285714 -0.8047733326387336 0.37067439755378023 -0.0001525543720278586 3.1655486209166896e-05 0.0001059001053748178 -4.727403917938085e-05 -0.9633351735192821 0.058460192458519016
4.037714285714285 -0.8027334500061604 0.37305350102271423 -0.0008137068820851835 0.00012651532424927904 6.383184628748918e-05 0.00011464304892603787 -0.970354523638382 0.05497823791828548
4.038142857142857 -0.797256589531472 0.39279968355588524 -0.0005055286123107031 -7.460811220339207e-05 -9.92747173304352e-06 7.566921100830889e-05 -0.9644481468465049 0.06052687424772803
4.038571428571428 -0.7992488717886502 0.39118431682061033 -9.470006136196495e-05 -0.0005818857263148216 -0.00018706393308210562 -0.00019986656590881564 -0.9600862947645773 0.06447566411491391
4.039 -0.7931880274902529 0.39491905996697085 -0.0005821595701579296 -0.0001652930772787979 -0.00019158556965137832 -7.12650052118704e-05 -0.9587928260711739 0.06410430833221618
4.039428571428571 -0.78610361018967 0.41316403394238066 -0.00035712885054721075 -0.0004187123374985055 1.6835917332998083e-05 -5.937291343634779e-05 -0.9649035779892144 0.06854794130943133
4.039857142857143 -0.7893984392394591 0.4112244843995955 -0.000490684115081234 -0.0004924404819613298 0.0002908852523942684 -0.0002128626543403358 -0.9693945411552419 0.06887931076400122
4.040285714285714 -0.7872745511803961 0.40952854295288954 -4.465264432379894e-05 0.0001463754442451899 -0.00017378942795047954 0.0001274486587119292 -0.9654643540735469 0.07389631537002982
4.0407142857142855 -0.7851457933277054 0.4229275244953888 -8.232811370072504e-05 -0.00017810670449322987 -0.0004901120084450276 0.00023330331957784493 -0.9608853564833214 0.07488087937432507
4.041142857142857 -0.7725706330580867 0.42770617179414094 -0.0009542314400449054 -0.00021946163736839898 0.00012961231487355548 -5.6248332994563844e-06 -0.9699201792144219 0.08461873032824477
4.041571428571428 -0.77099079224638 0.4358306647259586 -0.0007300628970941942 5.8330709581063895e-05 4.624873952354001e-05 -0.00015203817898938328 -0.9656516504635194 0.08253681056233977
4.042 -0.7690115607743316 0.4457893651120059 -0.0009368825521765134 -0.00011040826106012128 -3.6873154358054344e-05 0.00033578947047538035 -0.9652348505699506 0.08866711735472144
4.042428571428571 -0.7634072528963879 0.4485017695129521 -0.00021946478095103862 0.00013798803941874536 -0.0003353178589579706 -0.00011802566996383256 -0.9583951552633889 0.091770731500577
4.042857142857143 -0.762807504710748 0.44496272345176074 -0.0007618005136618748 -7.959421590415621e-06 -0.0002533533509222324 -1.9171779609243014e-05 -0.9653840273857633 0.08769547087219444
4.043285714285714 -0.7560607784196118 0.46343588720591145 -0.00018676308419001696 2.7999399345994428e-05 0.00014062490241281708 0.00018334022965440526 -0.9656370081710488 0.08529579128513827
4.043714285714286 -0.7511569883755641 0.46558774451617796 -0.00012500254754854625 1.9833000241755e-06 4.3556356691944665e-05 -0.00015064307501354255 -0.9682540651415972 0.0805812410619735
4.044142857142857 -0.750286613255002 0.4748983086258085 -0.00037301864960953253 -7.377250417050955e-05 0.00018644676992875503 -0.00022164502981048494 -0.9633397144048133 0.09470814810118258
