!Created with skrf (http://scikit-rf.org).
# Hz S RI R 50.0 
!freq ReS11 ImS11 ReS21 ImS21 ReS12 ImS12 ReS22 ImS22
4.0 -0.8491441058902113 -0.2521833608672509 0.00012126047931437172 -0.00044256628106641665 4.8019814159454415e-05 -0.00013077955688156615 -0.9612195293378775 -0.13033489540841212
4.0004285714285714 -0.8565850210587487 -0.246228507232055 0.00020482589198008325 -0.0005288976474408918 2.733209194838566e-05 0.00010782698422828529 -0.9707011998942175 -0.1218788473891875
4.000857142857143 -0.8597018944689974 -0.23554381309554026 0.00015573591228992709 -0.0007643643925643872 6.935498122897001e-05 0.00011172528129794023 -0.9675687344019743 -0.11518910764785235
4.001285714285714 -0.8545285457519262 -0.22999843837614 0.000501925672548544 -0.0003084656626079348 0.0003041138627407692 0.00022679317599879446 -0.964769290128409 -0.11747448740072622
4.001714285714286 -0.8597953480722453 -0.22196730365709777 9.286651036303368e-05 -0.0003135015629491181 5.158029261578927e-05 0.0001441871025982892 -0.9673927607842983 -0.12103058784194072
4.002142857142857 -0.8588760865272039 -0.22218700599976934 2.2123818918415892e-05 -0.00047789939943599995 -1.6629622501119353e-05 -0.0001959433732561491 -0.9651179304946168 -0.11116669807361972
4.002571428571429 -0.8613387490775086 -0.21209381168724956 -7.406581586408769e-05 -0.00025689030592346756 -9.113707437281535e-05 -0.00016936730751283672 -0.9711315754279913 -0.10573274981393871
4.003 -0.8666459589129873 -0.20206009112344997 0.0002158312518996881 -0.00030124661839078326 -0.00016340911347064238 -0.00022733644018982913 -0.969643459168612 -0.10477597698258331
4.003428571428572 -0.8700099712815488 -0.19650731014989944 0.00019795412846730434 -0.0002976057922805366 -0.00033819826836563413 2.812053226852146e-05 -0.9622348156795302 -0.09779350261543222
4.003857142857143 -0.8632185180548251 -0.18925553112770485 0.00019874372766053418 -9.000565917475669e-05 3.680856016273344e-05 0.0002888372040517915 -0.9712533587978688 -0.11033341939087515
4.0042857142857144 -0.8760033611093653 -0.1824989149611126 0.0003750244227076767 -0.000541335341381522 2.5964509686739643e-05 0.00026542272067688245 -0.9662735968251718 -0.10111717325593782
4.004714285714286 -0.871441390414488 -0.1734851934028147 0.00019901268725484587 -0.0003513740943724507 -1.2533726107709214e-05 -2.5681291154632878e-05 -0.9605601090849467 -0.10720451493420946
4.005142857142857 -0.8739957774055613 -0.16420089120543216 9.528293763064726e-05 6.024676631954262e-05 -0.0001085523573313236 -0.0002720246393457567 -0.9677097976636736 -0.09606947380754796
4.005571428571429 -0.8743494191104287 -0.15767800641501425 -8.462574614855406e-05 -0.00013682830757812052 -0.00029487801713066607 -0.0003116347018642615 -0.9607981147154336 -0.09665901798878568
4.006 -0.8765877827952604 -0.1546238083232749 0.0003883996043111467 -0.0001738718948103414 0.00018311022816100937 -8.30751779206726e-06 -0.9708007442694108 -0.09381078814452481
4.006428571428572 -0.877951706093063 -0.1505250640164781 -8.66669641839527e-05 -0.00043978428051393345 -4.531833818922104e-05 4.807023527777046e-05 -0.9681096669612889 -0.09199701622587989
4.006857142857143 -0.8808818185109711 -0.13888008673509716 0.00017721937793023325 -0.0003194820494272499 0.00011863189970887891 9.005905086880526e-05 -0.9632171933610636 -0.08625545266210685
4.007285714285715 -0.8819665980506824 -0.12992328149559637 -0.00020552247800931293 -0.00038905456802730353 0.00012413271025392194 -7.049446684503856e-05 -0.9697228421095357 -0.07798864712322691
4.007714285714286 -0.8812921484884069 -0.1261420954080015 -1.5751958267957852e-05 -0.00011254000947457401 -0.0001341732499154805 0.00016852996025359357 -0.9641853145894735 -0.08319524924677803
4.0081428571428575 -0.8829027843301458 -0.12197854314201749 -1.6830815975837564e-05 -0.0005066339565803627 -0.0001667669932943989 0.00019002958023841461 -0.9690599018189365 -0.08750746019814798
4.008571428571429 -0.8851727719549839 -0.10881998322501953 -0.00018838316046658173 -0.00040213136004407546 0.00014510285703273016 6.075959236298142e-06 -0.9624271806567548 -0.07857030247378224
4.009 -0.8839526743271564 -0.10449044836673502 -6.053128236811377e-07 -0.00018610354811102102 -2.4013923458474032e-05 0.00025042814227332883 -0.9755335322026089 -0.08510523879535048
4.009428571428572 -0.8817750866335248 -0.09945090784292843 0.00010035799340818715 -0.00015991921225530967 -0.00018438478189897292 0.0001893417360091381 -0.9777990653273028 -0.07735577937415784
4.009857142857143 -0.8851514863502746 -0.08665583113145423 0.00017341646623422538 -0.0002898897801992385 3.399697258128731e-05 0.0002206585030670075 -0.9672749943950051 -0.06867479151694325
4.010285714285715 -0.8883399061408153 -0.08118386777921799 -6.914702763446109e-05 5.401716867971154e-05 0.00011845224205146845 4.36166756899012e-06 -0.9644192409319994 -0.07251475425015916
4.010714285714286 -0.8891123384907427 -0.07531288900887707 -0.00018316895452574766 -0.000615089616944343 2.6468317095249873e-05 -0.00029491261369072756 -0.9697977963124044 -0.06928949787345365
4.011142857142858 -0.8833158862161424 -0.07099816339426679 0.00013644362280420706 -0.000737132314900703 -2.0744935002919043e-05 -5.356006913648772e-05 -0.9712786556555356 -0.06579846625260807
4.011571428571429 -0.883521455685565 -0.05721683132765576 -0.0005887224213264715 -0.0003628547067917566 -0.00012367578565832058 0.00010231028743391967 -0.9710655628709635 -0.06718617717908494
4.012 -0.8897982885915067 -0.05426586346566223 -0.00013558491494194207 -0.0005423422972511384 -0.00024765849299697505 -0.00010508407719617676 -0.9742754121199568 -0.06264606317694658
4.012428571428571 -0.8867556745410965 -0.044302340931424974 -0.00027878542134474944 -0.0006796914240652975 -0.00019416151491334115 -0.0003601916011620119 -0.961791824252253 -0.05566247877250508
4.0128571428571425 -0.8932349609551805 -0.035482815460704434 0.00017504134858228908 -0.00042563126833533815 0.0001434964131104019 -7.270381094472658e-05 -0.9633786003330548 -0.06344112413100009
4.013285714285714 -0.8833681745230056 -0.03231278338396668 4.917640730561961e-05 -0.0008565180562523436 0.00015761675131821577 7.087350629105022e-05 -0.9632799685677704 -0.05891434044421781
4.013714285714285 -0.8866975124930767 -0.022474419920936472 0.00012963420673722223 -0.0004336364704036024 -0.00030364699627678755 6.280267771062103e-05 -0.9750642545961059 -0.050694480696058156
4.014142857142857 -0.887701701566163 -0.014102404505632278 5.203186679432288e-05 -0.0004378017048265531 -5.0548122154410086e-05 0.00010491720361863103 -0.9720681875418796 -0.04768167433798866
4.014571428571428 -0.8865907988683494 -0.012862117524389873 6.990071249710443e-07 -0.0003012816044167007 0.00013128103873532538 -5.384571700422069e-05 -0.9703261697420213 -0.05256440961261026
4.015 -0.8946176453619966 0.0005658378865830546 -0.00039306526416897403 -0.00022069829458206747 -5.149029145588506e-05 2.936218135759071e-05 -0.9652235951056478 -0.05163860980285882
4.015428571428571 -0.8916217121965284 0.010702688002169045 0.00015303562688745952 -0.00023676955527156894 8.16119099816706e-05 -0.00010772559298352452 -0.9711098202548338 -0.04998060852738164
4.015857142857143 -0.8893361376411156 0.016259472301961012 -0.00031357432218140086 0.00010429311997941357 -3.296543295816469e-05 -0.0002301016435117419 -0.9707865433279491 -0.04557722580601316
4.016285714285714 -0.8897035553145752 0.023846899702633585 -5.5704203211210075e-06 -7.837014794645334e-05 0.0003769128302950327 -0.00011607130697699515 -0.9659119326030262 -0.04221791676486091
4.0167142857142855 -0.888664216407284 0.028678128749603776 0.00015885560481752114 -0.00046759072469267397 6.989372060235593e-05 0.0002921844984143484 -0.9652494175562804 -0.04913163214632357
4.017142857142857 -0.8843171552830749 0.03788227371347021 -0.00014084849346986334 -0.00047114206961545763 0.0003242621863027262 -6.599962970104179e-05 -0.9606189252094286 -0.04025300509641312
4.017571428571428 -0.8900045405651221 0.04234634211690066 0.0001959371374192018 -0.00032056766303023137 0.00019165118939305667 1.3625822132927802e-05 -0.9719365384243154 -0.04169986511300187
4.018 -0.8855895786643434 0.04824975600245663 -0.0006002123668071714 -0.0003118664685505736 -0.00016281737377745188 0.00010916305244296459 -0.9694868315893468 -0.04200607651021436
4.018428571428571 -0.8889783105662128 0.0578390328493809 -0.0002269372234200194 -0.0001133463754230032 0.00014013246841141082 0.00010562682276121634 -0.971034976399459 -0.035178739574797634
4.018857142857143 -0.8825508297425196 0.0672090422573306 -0.00031818704330965946 -0.0003170803994299056 9.525511520914001e-05 0.0002022211199047126 -0.960463506259728 -0.027053972201912843
4.019285714285714 -0.8803791618559474 0.07825658348976262 -0.00024668817101920363 -0.00039780684972994017 0.00012757262152128187 -2.1122893064614605e-05 -0.9698825769563997 -0.02734443856458771
4.019714285714286 -0.8867042079182239 0.08438936501844936 -0.00013975690345437852 -0.0002491433529786882 -0.0001755669170340901 -0.00019822071546717475 -0.9658310588603894 -0.028584212964285934
4.020142857142857 -0.8852290595018218 0.08849724305175873 0.00019264344708842313 -0.00018760605909617911 -0.0001216187044208102 -9.335107502837935e-05 -0.9682414228268834 -0.02341755102201574
4.0205714285714285 -0.8840059548931642 0.10322678268197466 3.7244909174944204e-05 8.358765477023389e-05 7.434665106892792e-05 7.896241100470913e-05 -0.968859402084721 -0.026527513529464367
4.021 -0.8825356959261412 0.10153460898181173 -0.0003451567923576226 -0.00013612000828407435 -6.741752043271382e-05 -0.0003022778971528273 -0.9664671944971597 -0.01870075491169873
4.021428571428571 -0.880265558725391 0.11346036031418365 -5.418510479888221e-05 -6.386607838197988e-05 -0.00028135983561529475 -0.00014044529580954814 -0.9702479517687091 -0.019331308465693316
4.021857142857143 -0.8811780042272359 0.11757951753686603 -0.0002888292495207308 -0.0002494920183620062 -0.00031179444061759076 0.00017276380519025324 -0.9663915290517182 -0.014882455173255779
4.022285714285714 -0.874868099788047 0.12123693483751637 0.0001330335414960823 -0.0003909399568397283 3.092757603327186e-05 0.0003533405353958608 -0.978226419501267 -0.00977238394333672
4.022714285714286 -0.8811503411994632 0.13860266265084525 -0.00010511884953819956 -0.00034846395954895166 9.994271514358842e-06 -4.002839540374935e-05 -0.9663894110274726 -0.014946763030546985
4.023142857142857 -0.8748557423630805 0.1416532638676745 -0.00036456836763779603 -0.00041445716370344297 -0.00024182285707337553 0.0003369880179517565 -0.9666980353872471 -0.009002588967446165
4.023571428571429 -0.8765289398175724 0.14238386402677752 2.782462771713026e-05 -0.0003159039070977085 0.00020255555335734095 2.3648483802577032e-05 -0.9619182863659185 -0.004760658975917262
4.024 -0.8706489269491979 0.15451157846939054 -7.902755988844245e-05 -0.00037345023179026255 1.75646399838615e-05 -9.500816803943771e-05 -0.9704569905927114 -0.00922450550149287
4.0244285714285715 -0.874715409250077 0.15921733475813532 -0.0005787299725571916 -8.289177968577904e-05 9.084216966624764e-05 0.00025645075154928144 -0.9692001373208777 -0.0027501853511534492
4.024857142857143 -0.8745118136212151 0.17172265167185152 -1.9699561358477893e-06 -0.00011334250903839111 3.770589600239827e-05 0.0002732566923166449 -0.9677254775674522 -0.0012639674825818872
4.025285714285714 -0.8730607392250481 0.17951701943116918 -0.00039464098405304394 -0.0005656220649909729 -0.00018070602058473396 7.124017296550217e-05 -0.9655990144340166 0.003717421258356116
4.025714285714286 -0.8715342373208593 0.1863749688838368 -0.0006575572542773986 8.908261649747963e-06 -1.887788789837739e-05 8.030301509515896e-05 -0.9768104518152824 0.00945933011027994
4.026142857142857 -0.8729386787013872 0.1897814461343685 -0.00024537867213939637 -0.00039678239069112267 0.00010984724660088946 9.617924625259458e-05 -0.9681433357807743 0.0041927839418140845
4.026571428571429 -0.8591845085509223 0.20029105880023346 -0.00020332085636867557 -0.00019377654407224713 -0.000306102506410429 -0.00014998196491147574 -0.9732274037395982 0.008432482985488205
4.027 -0.8622390231681276 0.20627245239528297 -0.0005801135972401834 -0.00035585394302859884 0.00016867629231738222 -5.855883521375827e-05 -0.969732835785835 0.006606862284083087
4.027428571428572 -0.8673700211700606 0.2090761742950441 -0.00032878221250015393 -8.069453211638718e-05 -9.53934709671126e-05 7.5163748638957e-05 -0.9640504125993253 0.01652515931656851
4.027857142857143 -0.8610328856622341 0.2162869294871647 -0.0006956060372281133 -0.0005351856919667035 -9.31968039953818e-05 0.000302528947233807 -0.9732752427767534 0.011515481787634629
4.0282857142857145 -0.8607342351198559 0.23204132766693403 -0.00017182753714152936 -0.0002729431425858888 -0.00012914066364541423 0.0004796337617577553 -0.9702473071324818 0.02215395241190997
4.028714285714286 -0.8661549037235664 0.2302999163145662 -0.0002118646605075303 3.2714970997233755e-05 -0.00011129986647201329 0.00010711437799783947 -0.9700605004431616 0.01295831762989541
4.029142857142857 -0.8584815332392439 0.24429616366169377 -0.000598116279409013 -4.192307943825037e-05 -4.47690057608103e-05 8.030341008592254e-05 -0.9680623700727132 0.023761827572677596
4.029571428571429 -0.8559891071114494 0.2456803798046288 -0.0003779441491563279 -0.00027932457892612135 8.262178497130248e-05 -0.00023485547521352694 -0.9629325177710696 0.022708167182765256
4.03 -0.850767838494634 0.25309044357650273 -0.0004556586308166115 0.00033601760578421986 -1.9523621025210802e-05 6.348497316359785e-07 -0.9716182324355619 0.03285009783020682
4.030428571428572 -0.8509351365941005 0.26486263870931265 -0.0005142947003251371 -0.0008255535387252763 7.453040731107947e-05 -0.00017642051281859994 -0.9685631531524331 0.028149806871598414
4.030857142857143 -0.851572595457065 0.2676377937474821 -0.000609395397771955 -0.00031695563068843535 6.0772142113283374e-05 -7.339817125744363e-05 -0.9727134694782762 0.022828763262752582
4.031285714285715 -0.843557226997042 0.27590693068646255 -0.0003665793176090989 -5.3726984044931525e-05 -8.61814917668958e-05 0.0002464854138188372 -0.9668583000666914 0.03583300268641664
4.031714285714286 -0.8407181712440477 0.2778424108387481 7.995212297065063e-05 -0.0004502878085202202 0.00021652887107263317 -7.882351781544719e-05 -0.9650316204445869 0.026283965118583018
4.0321428571428575 -0.8370348616104063 0.28856313310992887 -0.0002611689678717868 -0.00037446227783209234 5.543774666723051e-05 6.375496479440385e-05 -0.9718293307467989 0.03599001442719536
4.032571428571429 -0.8377583913055388 0.2945462259324612 -0.0002659999537048056 0.00013622222506314967 6.319753711885558e-05 -0.00010464311937740811 -0.9661009871207742 0.04366595515993849
4.033 -0.8378339581206267 0.30154545612094635 -0.00045796641748890155 -0.00022324528217040603 -0.00022107693827823284 -1.2274622410317677e-05 -0.9675296468308666 0.04289534298153276
4.033428571428572 -0.8399191979238563 0.31076011259187913 -0.0001263459602607213 -0.00017563166618222954 -0.0003058528137109341 2.701193282193529e-06 -0.963088019874144 0.03911331422552284
4.033857142857143 -0.8333229734811438 0.3165916491291888 -0.00036897297732031356 -0.0003995325531056447 0.00020419770945795423 -5.4236397122674447e-05 -0.9630525811527726 0.043262399019253314
4.034285714285715 -0.8277195195472344 0.3219801414680488 -0.00040418456502915067 -0.0003193596646414751 5.3801048677082054e-05 -0.0002841117761149135 -0.9659058615949393 0.04265246638013611
4.034714285714286 -0.8191587399912452 0.33604920148692835 -0.00016563032529366895 -0.00044113201343037037 0.0002847402879248161 -0.00021485390653274472 -0.9664135311504177 0.05146612719392942
4.035142857142857 -0.8241527841251005 0.33894342282388273 -0.000547740567355481 -6.96235218278588e-05 -3.1994419499816245e-05 -0.00013507284746810418 -0.9673853684553646 0.05099213830400981
4.035571428571428 -0.8136760208548687 0.34518599172906794 -0.00010713611117054322 5.001175565896946e-05 4.502869859430244e-05 -0.00030720025604792693 -0.9672649130687121 0.057198904215201386
4.036 -0.8123869453086187 0.35498853868104696 -0.0009701045981758741 4.6771216266794854e-05 4.2451919876878585e-05 -2.6436874262294486e-05 -0.9706234369279805 0.0562075133709105
4.036428571428571 -0.8208209970486792 0.3531068312102612 -0.00012630148568089825 0.0002895115152043166 0.00011823324488626176 -0.00018509415638933143 -0.9676228410153439 0.05286189702098191
4.0368571428571425 -0.8141195735391662 0.36655001489990463 -0.00023827049752477407 -0.00031754716620622733 -4.3296607698039487e-05 6.628977023096712e-05 -0.970963383228445 0.0509385021653867
4.037285714285714 -0.8056722520471251 0.37242269553845175 -0.0006637622501853946 -3.3553771431067973e-05 3.7197046976250706e-05 -0.00012578904622966342 -0.9660981634314907 0.05955115519668872
4.037714285714285 -0.803804895343365 0.3722449094899269 -0.0005217309084724002 -0.00014490898361975234 -0.00014666641040186348 0.00023597139741723025 -0.9716139989369246 0.05643937575725665
4.038142857142857 -0.7987850715601846 0.3928205336920727 -0.00025740355278159823 -0.00013701503428849927 -6.610864238331051e-05 0.00012883411113875606 -0.9629233751296259 0.059231218825764244
4.038571428571428 -0.8009320501688231 0.3927080226072146 9.874299676298232e-05 -8.630809844977504e-05 -0.00014658952889454223 -0.00011964563952110926 -0.959397445210764 0.06477680823607933
4.039 -0.7957175373534064 0.394932841010096 8.011556201769236e-06 0.00010834940297278377 -0.0001144253504835185 6.828765693380727e-05 -0.9594787853010398 0.06439458289092229
4.039428571428571 -0.7882251987307705 0.41285847221857297 -0.00015027304881608751 -0.00016669015917652663 -0.00023665355496751088 -0.00042790555744942225 -0.9650563182801791 0.06783797842363179
4.039857142857143 -0.7925339304450036 0.4112420308878822 -0.0002884071015888337 5.704483528879435e-05 -0.00017619613791680785 -7.641665932928309e-05 -0.9701473601719486 0.07057885439903672
4.040285714285714 -0.7875546913644279 0.41231162657993803 -0.0004974099604094837 0.00027686619469353393 0.00034135535066876556 -6.347090162391026e-05 -0.964746694434348 0.07509687284217119
4.0407142857142855 -0.7871515311785333 0.42487684401418435 -0.00029143332620678756 -5.0955385009917715e-05 -0.00016977066461731986 5.547157658232794e-06 -0.959837220704564 0.07582568354868083
4.041142857142857 -0.7729647211369892 0.4293251680693434 -0.0002533051821389314 -4.113434718524211e-05 -4.260744263044364e-05 -8.013677431689952e-05 -0.9692882371059245 0.08723043620554882
4.041571428571428 -0.7734169400104374 0.43571926279383516 -0.00011046535768185681 9.786136911659809e-05 -8.182730346973872e-05 0.00016814771778329515 -0.9657945784957882 0.0841970377154578
4.042 -0.7677238916610252 0.44501872440881357 -0.00020696265832889437 -5.83975717857723e-05 -8.017078061236313e-05 0.00010489812664150414 -0.9631491966658077 0.08845824270095685
4.042428571428571 -0.7645870438856959 0.4513764758459975 -0.0005582291371975501 2.074636811849119e-05 -8.777112184397539e-05 0.00018200619460847898 -0.961645736235324 0.09299032650764888
4.042857142857143 -0.7657866366678909 0.44641012814179337 -0.000564180890963484 0.0002585476740777677 -0.0001816932474503955 -0.00012242536056147302 -0.9634491176433871 0.08724582461696027
4.043285714285714 -0.7582643057000512 0.4640151495537717 -0.0003459123489280006 -6.801554517739516e-05 -0.0004946181368896685 8.491791013074848e-05 -0.9639826578432943 0.08691182508299719
4.043714285714286 -0.7512005774425365 0.46591801885295947 -0.0003137691399242628 -0.00021548406186324808 0.00011006278939722585 -0.0003455387290267305 -0.9663742026178145 0.08244805563463062
4.044142857142857 -0.7520707364944332 0.47660947114253893 -0.0005493842314549912 -0.00020930165987958368 0.00016767045793717803 -0.00023782272889731992 -0.9633556660982453 0.09726717935287016
