!Created with skrf (http://scikit-rf.org).
# Hz S RI R 50.0 
!freq ReS11 ImS11 ReS21 ImS21 ReS12 ImS12 ReS22 ImS22
4.0 -0.8459240568064267 -0.2540177825141122 0.0002318646949680872 -3.0670093881366232e-06 0.00026483984846317234 -1.356298263945164e-05 -0.9627466816005926 -0.12895905973784266
4.0004285714285714 -0.8530326854602616 -0.24699786455034495 0.00018521827396052415 -0.000250960220393332 0.0001406351613272609 -2.123160952016069e-05 -0.970329309047357 -0.12253729330341706
4.000857142857143 -0.8574653596140599 -0.23702831614470465 6.837294991895306e-05 -5.562136566200594e-05 -0.0001031731967646913 4.110714599060044e-05 -0.9656073306028767 -0.11542525110341446
4.001285714285714 -0.8504252280825793 -0.23293188871975926 -0.00018270793538303928 -0.0005559216917905396 8.884194347627194e-07 -2.2478692340103898e-05 -0.966945318403602 -0.115260112731083
4.001714285714286 -0.8569925188354848 -0.22506353325882178 -0.0003027064921081476 -0.00016212258440399018 -9.531266760588184e-05 0.00014713912644098056 -0.9653396055448986 -0.12119231165780701
4.002142857142857 -0.856722783958304 -0.2244681327733508 4.095540452734765e-05 -0.0006107147125126172 2.9884419471405484e-05 9.910175666690169e-05 -0.9656592401473225 -0.11310422803786796
4.002571428571429 -0.8598731153056546 -0.21362122196569677 0.00014396466828802155 -0.00022621174995177945 4.684745895544422e-05 -0.00014273294616577392 -0.9688472872090459 -0.10532157160993313
4.003 -0.8643535414335037 -0.2018548778626711 0.0002705633120989824 -0.0004981932483114414 -0.00022476672992098156 -7.209385540841298e-05 -0.9677750779901094 -0.10342292289526765
4.003428571428572 -0.8660047963612245 -0.1984107811268215 0.0001402090286717409 -0.0005338742073233113 0.00015465745111146732 -0.0001354329132477891 -0.9619871895275245 -0.09911040669276133
4.003857142857143 -0.8630215454010486 -0.19043700762763377 -0.0002627709006888845 -0.00022710706630900586 5.592860452608683e-05 -8.949316839252408e-05 -0.9715235776639788 -0.1091389336671245
4.0042857142857144 -0.8740561392024899 -0.1846233722320865 1.6849289322939498e-05 -0.000674421973311296 -6.903328457981223e-05 -0.00022491487734516263 -0.9654061367334238 -0.09761150594615532
4.004714285714286 -0.8687862473935559 -0.1747423844892003 0.0002892386784311829 -0.0006091304516374338 -0.00013480564294119745 0.00016295311575396186 -0.9608770034604752 -0.1080635607382945
4.005142857142857 -0.8702714500733997 -0.16563877508388802 -0.0002947663825630007 -0.00041344119356550424 -0.000416904103738297 -4.75583737076647e-05 -0.9686620646963459 -0.09579150623111854
4.005571428571429 -0.8710448077583132 -0.16062477779542408 -0.0002826432855719623 -0.00030843788160783914 0.00010667977075832823 3.537312200689446e-05 -0.9601094640723916 -0.09665434188640071
4.006 -0.874300431308607 -0.15801520553521192 5.3827356355748083e-05 -0.00036699657978743835 5.4563163661435315e-05 -0.000526550110480062 -0.9711607826125375 -0.09235370328636727
4.006428571428572 -0.8747353395760527 -0.15248985417191432 0.00010325504098261422 -0.0001734801367190457 -8.157971191337292e-05 1.4587761827381769e-05 -0.9702434091604234 -0.09312001805263155
4.006857142857143 -0.8785781708444448 -0.13977665851354956 -0.0001432272766623268 -0.00017393747276620648 0.00021514951035812553 0.00011359810526468661 -0.9658013165609155 -0.0862005239817826
4.007285714285715 -0.8816675518064633 -0.1319714130054664 0.0002585017914653554 -0.0009343347364719179 0.00013443604503269414 0.00015594565880075535 -0.9684866119112412 -0.07998012286536733
4.007714285714286 -0.8795352996351882 -0.12876306498285248 -0.0002456203632985907 -0.00023668448735954907 0.00014945008703947846 -8.17412264433673e-05 -0.9639988714893248 -0.08325648009345131
4.0081428571428575 -0.8801653386139411 -0.12425573589132159 0.00012856769622309383 8.56448740147781e-05 0.00022063698401556458 0.00012402741541386745 -0.967770050010933 -0.08586407079754585
4.008571428571429 -0.8838056431982761 -0.11047697394126016 -0.0002863957894054093 -0.0005845101836551507 0.00012886526316952855 -0.0001030032240092843 -0.9637971606183642 -0.07932668812486698
4.009 -0.8832138436214421 -0.10590812772605027 0.00018450587013600365 -7.247697853813591e-05 1.7646326940430952e-05 -4.057469408376093e-05 -0.9756891679271386 -0.08587904684006391
4.009428571428572 -0.8821023857737783 -0.10298597361466406 2.115344215221063e-05 -3.9565280840689705e-05 -3.0459726520897063e-06 -0.00011148173481901969 -0.9763282966642781 -0.07580356352238025
4.009857142857143 -0.884607130628803 -0.09025522249249243 3.7684194004372585e-05 -0.0005864450360536249 -0.00025634873517436365 -8.090653201646764e-06 -0.966766078857421 -0.06783866847292669
4.010285714285715 -0.8865602831632751 -0.08477487226360063 0.0002383781846828764 -0.0003532137995584396 5.12853554244509e-05 -0.00020681133184931877 -0.9646820191927031 -0.07276980804558035
4.010714285714286 -0.8865927410155384 -0.07807579226188895 -5.34180590803168e-05 -0.0002209890323167927 -5.585078021695098e-05 0.00010617918060969407 -0.9691762057136394 -0.07249223549130913
4.011142857142858 -0.8830212700828293 -0.07566753803871387 -0.00011678441211434974 -0.00026040088898193444 0.00032867232819421113 -0.0002700651637509632 -0.9706159120598457 -0.06626395545488498
4.011571428571429 -0.8831371244719758 -0.060996086488768156 0.00014466637795203244 -0.0002747127195104777 0.00016360164425256138 -8.251575568157086e-05 -0.9697189263510582 -0.06522314753073462
4.012 -0.8884315977463123 -0.0567689262682749 -0.00015099292951917723 -0.0003372667976638591 -2.338322271261945e-05 0.00021653497169593045 -0.9733964763713753 -0.06392562190714562
4.012428571428571 -0.8855701391938784 -0.04756547652559108 -0.0007382449564178538 -8.846743330103004e-05 -7.429938982157857e-05 0.00028592764831852446 -0.9629294091813376 -0.05364126754946458
4.0128571428571425 -0.8911020366404485 -0.03800935367514727 -0.00045626538414574464 -0.00016141797431365115 -0.0002072454041892784 -0.00015838000969743379 -0.9638403172497503 -0.06272196135959429
4.013285714285714 -0.8815454323763545 -0.033510170611183346 -0.0002704072403088714 -0.0005033535278178814 -0.00010636688263658076 0.00013016731369757328 -0.961984741746475 -0.05991329385384988
4.013714285714285 -0.8848642092541532 -0.024496513098485648 -6.33477931838647e-05 0.00018773540905030954 0.0003944800591057818 -0.0004803726878583441 -0.9766863003008543 -0.05174902514622816
4.014142857142857 -0.8859458960762812 -0.015680009282520762 1.640508042678215e-05 -0.0002719651367840101 0.00021625433629472151 -3.9665202481475706e-05 -0.9716418380075255 -0.044494415498942154
4.014571428571428 -0.8851236895466336 -0.015105489489500128 -0.00033836576228669636 -9.896062656767468e-05 -0.0002014621499468458 -6.535475486305245e-05 -0.9706246574681646 -0.051995578308737696
4.015 -0.8943054387952968 -0.0027042491530501517 0.0002748149304021439 2.8993535534183007e-05 -0.00021624722913790413 -0.000193061248167071 -0.9661403710476835 -0.05167506871770855
4.015428571428571 -0.8900286788187539 0.00846429554295505 -0.0001833153424471929 -0.0005393638301119623 8.756155483905744e-05 -3.893170682580194e-06 -0.971348527414617 -0.05082867489663287
4.015857142857143 -0.88814916163674 0.014004173345693795 0.00015769535330886858 -0.0001966538759480333 0.00018426455590633237 2.8069209150165474e-05 -0.9695330542662981 -0.04530743028034525
4.016285714285714 -0.8867173079238241 0.02043146277116622 -0.0005707985486054991 -0.0004250879671384978 2.9229858442238173e-05 -0.00029830871194417934 -0.9657348756026859 -0.041468675874801054
4.0167142857142855 -0.8876551128687162 0.027153004626165173 -0.0006756228133535472 -0.0006181676101388205 -7.396533178522383e-05 0.00013462741963680885 -0.9648575227486679 -0.04820823939303271
4.017142857142857 -0.8836257261036943 0.03610208467449064 -0.0005040428356148375 -0.0007036619776623396 -0.00016982793338226238 0.0001606154794307283 -0.9624977958180582 -0.040336882165776355
4.017571428571428 -0.8879735376882313 0.03969939121098831 -0.000517724353338721 -0.000354848133547503 -6.279583362603231e-05 0.0001780849904988845 -0.9726688146531356 -0.03960145468561887
4.018 -0.8853311099867893 0.047150975246039784 -0.0003158664049318891 -0.00016724283783565942 -7.805604231594868e-05 6.88402889383985e-05 -0.9688146582441035 -0.04040633685854872
4.018428571428571 -0.8909830230096538 0.05542641722122449 -0.00035891608079209494 6.794141736374772e-06 -0.00019263954322190247 -0.0002796260297143574 -0.9736577688834585 -0.032256706395900094
4.018857142857143 -0.8823137362601187 0.06479752777688674 -0.0004455462577039159 -0.0007530639425272494 -7.529688142108646e-05 3.1123827239344415e-05 -0.9621317600302168 -0.026028079517745637
4.019285714285714 -0.8821319101673691 0.07433940249881328 -0.0005339856788702572 -0.00010882034971801055 -0.0006732827816716585 5.320735767390783e-05 -0.9711447930787676 -0.02763934008095405
4.019714285714286 -0.8864903639250771 0.0822438327900504 -0.00018070438597618272 -0.00047605590326031216 -8.102217832982662e-05 9.453116811605613e-05 -0.9650950246347635 -0.028143512395651726
4.020142857142857 -0.8844532392090969 0.0861969224907515 -0.00014435226051332236 -0.000419941903404238 -3.529945856577234e-05 0.00018853761737767002 -0.9689686163147404 -0.024768746387769
4.0205714285714285 -0.8827707717271104 0.09888858554165156 -0.000590756983780494 -0.0003467748191847508 -1.1224146926807529e-05 0.00013876513014806773 -0.9673814795131751 -0.02586672653222738
4.021 -0.8793341448661279 0.09854504118988942 -0.0004981238887942053 -0.0006516060095946461 0.00030247683682594636 8.72765196144379e-05 -0.9645387764656116 -0.019500109779356713
4.021428571428571 -0.8787087058074077 0.1118020459439449 -0.00030529999506743614 -0.0001665485118911597 4.755263593013264e-06 -0.0002452802418854557 -0.969167498273335 -0.01801910478340651
4.021857142857143 -0.882054753662643 0.11478356382959744 -0.000546766302276445 9.919112276243586e-05 0.0002505529498194387 -0.0003050611950965697 -0.9657145439155138 -0.016545697426618884
4.022285714285714 -0.8712430837872386 0.11727258240868757 -0.0004047044494897509 0.00011483923254908474 0.0002297344141249224 2.5813204382124653e-05 -0.9755436422006539 -0.011128924079190207
4.022714285714286 -0.8795700631320127 0.13506554802796727 -0.00025992611215181226 0.0002325002782133238 0.00015406035211776658 -0.0004068793622864448 -0.9652538044419602 -0.014141821501611076
4.023142857142857 -0.8752364542872124 0.14005050039214945 -0.00052943530061748 -0.0006263645789203541 -0.00025342111353826883 -0.00022656780701276304 -0.9686986359594831 -0.008806517515243735
4.023571428571429 -0.8752473575636167 0.14083239979510312 -0.0011907179437033646 -0.0004846429331600523 -3.636613501902187e-05 5.643710543456838e-05 -0.9643698410387722 -0.0035032830360906403
4.024 -0.8712282225728625 0.15268723075311502 -0.0007151548001778649 -3.201936654797632e-05 0.00043828105973679385 5.6547020999308276e-05 -0.9721346780197875 -0.00635151387196542
4.0244285714285715 -0.8728814997282269 0.15798733551825908 -8.704898770110512e-05 -6.144338688256395e-05 -7.374151811708007e-05 -0.0001272686026334192 -0.9703356261745155 -0.0021228239830398277
4.024857142857143 -0.87290085959697 0.16755209632654167 -0.00015462937809038586 -0.0003231819794960052 0.00012726707678013225 0.0004320575655227964 -0.9657326014951292 -0.0005446477749587767
4.025285714285714 -0.8715796867112486 0.1775081818493284 -0.0002482098835739161 -0.0004974833262186111 0.00024770193127736714 -0.0003113669376704883 -0.9665755546292828 0.002882760789862246
4.025714285714286 -0.8695992256678762 0.18343287941292535 -0.0003729924131333137 0.000103400580658307 -0.00024374556457299352 1.9539086194148434e-05 -0.9741373643251063 0.007872125216725605
4.026142857142857 -0.8739059696218221 0.18780015696137978 -0.0004108388541378336 -0.00010153477368738425 -2.351436115879543e-05 0.00011082926356502398 -0.9686159603673352 0.0024282207073767735
4.026571428571429 -0.8591399614280536 0.1976397901061035 -0.0007922951999158791 -0.0003098223014476677 0.0003042055190566081 0.00012376904233611172 -0.9733112965815318 0.009004351001431115
4.027 -0.8625126164968422 0.20612959464800965 -0.0003140423301918208 -0.0002897583186643359 7.817059957028183e-05 9.084889371099453e-05 -0.9694309602676381 0.004764413993994884
4.027428571428572 -0.8657106045637751 0.20545111435976893 3.9356919562281356e-05 0.00018337052485226232 5.936765519867755e-05 -5.117122653421424e-05 -0.9671576114802145 0.01655352359276451
4.027857142857143 -0.8604532229065904 0.2125800660406039 -0.0002626992390400595 0.00027318754162079106 0.00012802996312988072 -0.00015378938221351392 -0.9728376759607011 0.010840345435416215
4.0282857142857145 -0.8585945665900976 0.22931884925123874 -0.00012525730430145335 6.276542626061329e-05 -0.0003454030521701915 0.00024259525908703727 -0.9696780844602106 0.021378856842824104
4.028714285714286 -0.8645068132524889 0.22769140144958178 -5.735334837844206e-05 -8.521619588966428e-05 0.00036520337719768897 5.827544222018276e-05 -0.9704475203085798 0.013288891669913507
4.029142857142857 -0.8560092574189554 0.2413760768012478 -0.00044163614623470135 7.297781271351021e-05 -0.00011179613182722498 8.024737388676089e-05 -0.9689479587007397 0.022405623183949813
4.029571428571429 -0.8552241178473212 0.24403968136356435 -0.00030229645550765245 -0.00036788491952170635 0.00012215190808204522 -0.0001794605572269175 -0.9638977359384653 0.021658550955573133
4.03 -0.850111965905878 0.24861864376333193 -0.000784110914748474 0.0001411908089965059 -0.000348061190784153 -0.0003003256866636675 -0.9721647695826984 0.032502646437087404
4.030428571428572 -0.8496668381800239 0.26087051036324693 -4.711841885478352e-05 -0.000414909172185655 -0.00019591833027600078 0.0001439134252884263 -0.9693549475503563 0.029553524747222715
4.030857142857143 -0.85065153363355 0.26487177184822325 -0.0003025429273624073 -0.0003787757298135278 8.830816773264855e-05 1.4938156432486509e-05 -0.9728721633998068 0.022045905727647738
4.031285714285715 -0.8433813919565321 0.27413915624321955 -0.00033612731796350045 -0.0004757103074829111 7.475513742017257e-05 -9.697557945130931e-05 -0.9666504651012738 0.03364174225487895
4.031714285714286 -0.8407730581999726 0.27582299523920745 -0.0001711163924597479 -0.00032415561242589685 0.0003053879395005 7.515421829161317e-05 -0.963336342192754 0.023809251961690356
4.0321428571428575 -0.8372312219550242 0.28641626870356784 -0.0002481265636175431 0.00014203137841875148 0.0003468071600828009 -3.0023836754857088e-05 -0.971611244866842 0.03461710763486009
4.032571428571429 -0.8388122303194804 0.2945073443683852 -0.0001723710525338045 6.209626708349005e-05 -7.433822858787014e-05 4.4800492717200093e-05 -0.9651116313619049 0.04432692917655952
4.033 -0.8368212685699918 0.2979245096902615 -0.0004366200667242602 -0.00014029089267667086 0.00027396936569038975 -0.0003066676382423112 -0.9649792729957565 0.043071199974104274
4.033428571428572 -0.8416762913297029 0.3084471111083633 -0.00021731460126708788 1.913854452965719e-05 4.3640148985837145e-05 -4.329379754685562e-05 -0.9639853795599064 0.039982432421995055
4.033857142857143 -0.8341808657354909 0.3138512982372553 -0.0002690090697727904 -0.00018663963178215396 0.0002222323967379229 8.346875066041808e-05 -0.9631545484537404 0.04381671781068292
4.034285714285715 -0.8246446460274365 0.31749641567764614 -0.0005430036128581153 0.00011645249532519384 7.634479994526986e-05 -6.602212130943748e-05 -0.9654666660030744 0.04370096433627178
4.034714285714286 -0.8197534525748318 0.33079716728216374 -0.00048504192730528586 -0.00014607619951960212 4.853459982863519e-05 -0.0001523007485454398 -0.9658619055495312 0.05194940098130932
4.035142857142857 -0.8205869211862913 0.3354671872808254 -0.0003866070982098304 -0.00028270555353183507 0.00016429748469825908 -8.235109223314099e-05 -0.9698217454158717 0.05178394923443606
4.035571428571428 -0.8135243415793153 0.3425912918473954 -0.0001816303323056727 -0.00012954766263056027 -5.417058643152906e-05 7.909011337199998e-06 -0.9673751162471437 0.056042024454385476
4.036 -0.8121689330520846 0.3524931476534626 -0.0005946928296512628 -0.00046076880530719714 -0.00015436916249816286 0.0002236852378718192 -0.9683245028013564 0.057437091840941194
4.036428571428571 -0.8191982060309191 0.35083721627385295 -8.438476102990084e-05 -1.2489112384321001e-05 -0.00013833220761704553 0.0002619188991911986 -0.9684778654676337 0.051535703099241346
4.0368571428571425 -0.813632326336178 0.3639515302466417 -0.0006264060103677683 -0.00025260159069299005 -0.00014417352679522844 -0.0002548924030438976 -0.9689402954024884 0.054526950407785324
4.037285714285714 -0.8044783567957883 0.36877609918231363 -0.000707393913001688 7.02980402528165e-05 0.00013846839701786576 -0.0002863824212475188 -0.963325858997379 0.05875527049645233
4.037714285714285 -0.8048333906539058 0.37181189037440815 -0.00029260808964388387 -0.00037339975851782955 0.0003831309388266662 -0.0005403048385135379 -0.9691228089018458 0.05704370719105299
4.038142857142857 -0.7999258409627198 0.3907961824495925 -6.76531143972168e-05 0.00019310880455180538 -2.936922755681936e-05 -4.8422687234520286e-05 -0.9655991701012996 0.06168471033402951
4.038571428571428 -0.7995194102942753 0.3892707341361048 -0.0005132892070719854 0.0001706380623127637 -8.567976517756358e-05 0.00016774771722363093 -0.9592650478935304 0.06789410334142014
4.039 -0.7954686778887954 0.39230052097439144 -0.00037795131480603287 0.0003189354709837994 -1.5330877646685765e-05 0.00010418582031987074 -0.9606205534375669 0.06546761453911513
4.039428571428571 -0.7881239782172571 0.4103397621567392 -0.0006071626291849165 -0.00022638237082422128 -1.577292637627424e-05 -0.00039653106509889653 -0.9639069345870748 0.07054445003011471
4.039857142857143 -0.7903616540067532 0.4080706229988123 -0.0005910858561664083 9.585377558110822e-06 0.00017774365053228322 -2.8677953031902558e-05 -0.9690604409605691 0.07101727963997588
4.040285714285714 -0.787009576477991 0.4101272584188034 -0.0006554864913418117 0.00015288000006911836 2.5529937681986408e-05 0.0003253469306139052 -0.9646270696919254 0.07386579563426891
4.0407142857142855 -0.7855307670674396 0.42260555037293446 -0.00027244387630568425 -0.0001157761660383722 0.0002124134147834787 -0.0001242911968118795 -0.9583113741183358 0.0751492798217537
4.041142857142857 -0.7727901882142124 0.42695603103109964 -3.397744967329512e-05 -2.3415793946085717e-05 3.31660960364315e-05 -0.00013818803924014317 -0.9683808533523238 0.08605659121545786
4.041571428571428 -0.7725255737430006 0.433174106580123 -0.00039099705518170434 0.0003322687929051793 -0.0001447894607785178 -5.4825502864632724e-05 -0.9643698701797817 0.08397312200870967
4.042 -0.7683467096905631 0.4435716442993342 -0.0007169733606968064 -0.00021053136989078678 -7.131070609027927e-05 0.0001537172342205017 -0.9617321955893299 0.0890238905981393
4.042428571428571 -0.7640436497515086 0.4488615188331869 -0.00027470342429139103 0.00026226374682101843 -6.53698088671359e-05 8.99084444686505e-05 -0.9602186517462933 0.09192302326653039
4.042857142857143 -0.7629009254375493 0.44373501605480575 -0.00035665490259504214 -1.2479757794026053e-05 -0.00031219966754468954 5.901793471128111e-05 -0.9668249454279598 0.08686540272689827
4.043285714285714 -0.7575744475569569 0.462114550977244 -0.0004800009597432162 1.8632077744915746e-07 0.0001341967552007432 0.00010139581749571969 -0.9644770766310679 0.08762249734300138
4.043714285714286 -0.7515138784209193 0.4636755398305223 -0.0006935542949841208 0.0003273725492493781 -4.820478769656116e-05 9.004498653451336e-06 -0.9662215016980663 0.08198205012121856
4.044142857142857 -0.7516070909936219 0.473271538476237 -9.291064370219629e-05 -0.0003012056617858773 -0.00022071556033843428 -0.00011886707444590071 -0.9647779915851137 0.09702629906432313
