!Created with skrf (http://scikit-rf.org).
# Hz S RI R 50.0 
!freq ReS11 ImS11 ReS21 ImS21 ReS12 ImS12 ReS22 ImS22
4.0 -0.8493211536905911 -0.2518300635365676 1.7713753462538632e-05 -0.00032466513889322117 0.0001570180676603952 -0.00010250921761070996 -0.9628437899743315 -0.127585393808234
4.0004285714285714 -0.8541771645272004 -0.246835542635712 0.00026421966044738065 -0.00019227568441396075 8.182424003076665e-05 0.00013663034111226254 -0.971092189489606 -0.12441552245458981
4.000857142857143 -0.8608396859285395 -0.2369334609643125 -0.0003180768134909836 -0.0006034059835608981 -3.0722112925972733e-06 -5.4856331344118516e-05 -0.9654893430121767 -0.11617610678470351
4.001285714285714 -0.8533729534477031 -0.231515980667166 0.0003432629719152054 -0.0002073257534133904 -0.0001350341918976677 0.0001984781137245852 -0.9636689021781472 -0.11699333940018508
4.001714285714286 -0.8603686598672251 -0.2230599057550768 -2.8083298383712387e-05 0.00012682356073158635 -5.84729896835514e-05 0.0002176518017563874 -0.9643406772569376 -0.12114973818025683
4.002142857142857 -0.8592920729735721 -0.22193168746887157 6.353862797635969e-05 -0.00015702211848933506 -0.00012741201903722742 -8.26423844542258e-05 -0.9640602122227788 -0.1127105867496831
4.002571428571429 -0.8619872637621643 -0.21326797186766236 4.1392933163466115e-05 -0.0002592080854481874 -0.00022253578062049662 -0.0002902739856021835 -0.9700916432675344 -0.10537887431188558
4.003 -0.8664502426984781 -0.20137284727225455 -2.3197037185005358e-05 -0.0004234037027988947 -0.00024956154165773145 0.0003321645083041387 -0.9683085017950867 -0.10362590240189055
4.003428571428572 -0.869609829006296 -0.1980230385925061 -6.460148102930159e-06 4.691403872461345e-05 -0.00010864467359209733 8.829060386185624e-05 -0.9625351481918687 -0.09772698105238038
4.003857142857143 -0.8638705711449723 -0.19025775923213056 -0.0002898513878553072 -0.000680356382787958 -7.043493373366093e-05 -6.510750746648288e-05 -0.9707967427395864 -0.11084944084683487
4.0042857142857144 -0.8769946642027648 -0.1839659011540707 -6.418343352174454e-05 -0.00037310909968308497 2.8144899261473964e-05 -7.789328306416161e-05 -0.9652898301596774 -0.09863662142383188
4.004714285714286 -0.8706128038986592 -0.17163323624086196 0.00024979176674343314 -0.0004971963923699737 -9.572661281083697e-05 -6.856937851496818e-05 -0.9593595635631885 -0.10632157411300194
4.005142857142857 -0.8723308507527329 -0.16333109862751388 1.0916461987428151e-05 -0.0002830936572842245 0.00032934292352065366 2.356199209882157e-05 -0.9671794976845284 -0.09467656526302512
4.005571428571429 -0.8745269950623501 -0.15861085519678533 0.000296389442996466 -0.0005199144077741345 -5.966863475083575e-05 4.0856262661409275e-05 -0.9596171608189886 -0.09355073042133946
4.006 -0.877492454616063 -0.1553016080188889 -5.75731381213407e-05 -0.0008457164651941548 -2.9463142372728447e-05 8.829995339108635e-05 -0.9713859346005999 -0.09354553604063502
4.006428571428572 -0.8757624707682533 -0.14939311666884286 9.748118678949869e-06 -0.0002797030880202739 -0.00018321290610460973 -0.00011589461169203871 -0.9691135773794092 -0.09265443543587946
4.006857142857143 -0.8811302056186908 -0.13769267994037526 8.765004042974103e-05 -6.161315651939823e-05 -3.5142770691259193e-05 -6.390178321633052e-05 -0.9641766091055848 -0.08640515256978928
4.007285714285715 -0.8844940748469492 -0.12936977170744482 -2.0228706553005353e-05 6.789223014027678e-05 0.00032839473199842983 1.000540085610807e-08 -0.9685112934019923 -0.08047395234878618
4.007714285714286 -0.8819623645991408 -0.1260403999291298 7.329043568263916e-05 -0.0003680626283245456 0.00010418526358249447 0.00019619818797642993 -0.9639720822223412 -0.08316692265509276
4.0081428571428575 -0.8821494223070989 -0.12192588968110916 -0.00018703704141669232 -7.33449950629023e-05 -0.00025739093680765014 -0.000316445852256819 -0.9681346342836875 -0.08792235178194512
4.008571428571429 -0.8856735161977036 -0.10837364380988537 0.00019922041039829546 -0.0001223961257690942 -7.472479799039564e-05 0.0001792505276956914 -0.9630788248703052 -0.07809258647697578
4.009 -0.8860704638236373 -0.10344954424519015 3.212907178769954e-05 -0.0004402205940674535 -0.0002357812254017198 -8.088667645787673e-05 -0.972632463700755 -0.08456646239258904
4.009428571428572 -0.8834241227632911 -0.09868852236827799 -0.00016719195205234415 -0.00013643177858282924 -0.00023122993873999178 -0.00010863180136092011 -0.9748597619938953 -0.07572164469760953
4.009857142857143 -0.8865359729973762 -0.08865195170006589 -1.8821917489520232e-05 -5.9227344523919804e-05 -1.0393722363727344e-05 0.00036142107433416616 -0.9672752477512325 -0.07033179873661033
4.010285714285715 -0.888496023980768 -0.08141627041646055 4.250631274040664e-05 -0.0007951317226828521 -0.00015185420198438358 0.0002864027340825452 -0.9650515190658101 -0.07398960673527923
4.010714285714286 -0.8882724707193963 -0.07602808907411557 -7.415071408070716e-05 -0.00015217550981657884 0.00015512470399233413 8.448193996228094e-05 -0.9685316048635626 -0.0729771552134963
4.011142857142858 -0.8839738490037018 -0.07114174533402325 -0.00010030509738645037 -0.00041063513129710076 -0.0002998692354170646 -3.708887357159289e-07 -0.9692869859741731 -0.06484112515382406
4.011571428571429 -0.8854520723423959 -0.05877673906712354 1.5216156057486085e-05 -0.00024938779388989675 -0.00021649550419839086 -7.632585193350993e-05 -0.968625728301324 -0.06601185341980419
4.012 -0.8902729141223942 -0.05467557744486138 9.828283156725283e-05 -0.0005711585553609756 -2.66723305018864e-05 7.39069581254856e-05 -0.9741978221022805 -0.06353280500072704
4.012428571428571 -0.8864084321764218 -0.047351538812883925 0.000119428642966561 -0.0004919219243565289 -2.050468786990982e-05 0.00010005087597135516 -0.9623337783180175 -0.05610645715325378
4.0128571428571425 -0.8940319266828066 -0.03640762253283947 -0.00041656364484090924 -0.00030772485760289207 7.761877686993126e-05 0.00013141090593383727 -0.9654953763258607 -0.06322498197913057
4.013285714285714 -0.882748007821061 -0.03313912448942989 -0.00031245456063667916 -0.0003147502280001367 0.000158489687840653 4.1594007912317064e-05 -0.9618038867819787 -0.058978928784035996
4.013714285714285 -0.8881048109175194 -0.023159629702944357 -8.35320486250604e-05 -0.000337330804469522 2.352587147669024e-05 -0.0002829699780944601 -0.975729102723121 -0.05120529497424792
4.014142857142857 -0.8873773011963034 -0.014604969889094065 -0.0001683648134838428 -0.0005593850229962986 -0.0001258549001906133 -0.0002149329664125043 -0.9707774390356785 -0.046764342879607124
4.014571428571428 -0.8861793153479051 -0.012159204290229654 4.725390348000725e-05 -0.00029159014660554714 -9.121778929982685e-06 -0.00016615473448404144 -0.9700778211567442 -0.052206924784847314
4.015 -0.8960225486075964 0.00045559701359495716 -0.0005439261155024873 -0.000105266026917149 -0.00016389842957322565 -4.7270681885722684e-05 -0.9651289283664235 -0.05050864802383385
4.015428571428571 -0.8907460988732897 0.011486631895571812 0.00010821223091284534 -0.0005359738319515541 -4.4046012584189914e-05 -3.0555434116267644e-07 -0.9735154376041277 -0.051079657386002814
4.015857142857143 -0.8894333845084235 0.01690156426340269 -0.00010396852743091678 -0.00017538422040264075 3.204786878422764e-05 8.317667811497118e-06 -0.9698439007320079 -0.04679753594350989
4.016285714285714 -0.88885126690454 0.022899158644528083 2.635218429829339e-05 -0.00031250995610440066 4.1425711133862236e-05 -0.0001876860835011294 -0.9651908623489536 -0.04236193893602933
4.0167142857142855 -0.8900620085035714 0.028841738134151713 -0.00018352077707273586 -0.00021342116448062353 -0.0001575212193926996 0.00011834985503357982 -0.962519962289559 -0.04672480933690936
4.017142857142857 -0.8842693011391658 0.037983263774046566 -0.0004127710565249775 -5.1394706376819975e-05 -6.58580555164247e-05 -0.0002585831546040671 -0.9602359030299765 -0.03915654738119567
4.017571428571428 -0.889698217128282 0.04063623797938862 0.0003319635447813134 -0.0002663955808492358 3.2893897285175494e-05 -6.992539065840735e-06 -0.9739881377732555 -0.04149947916474684
4.018 -0.8872777364204021 0.046709501754829304 7.050899431471614e-05 0.0002301358383222549 0.00011803972560347229 5.689343609476188e-05 -0.9706122411432676 -0.0418350013812845
4.018428571428571 -0.890400778049324 0.05703390779515722 0.0001014797621878723 -0.0006598733811309109 -5.23100933660371e-06 -0.00021288666494301452 -0.9721610921812572 -0.03419967931860533
4.018857142857143 -0.883800824482405 0.06592497371621163 -0.0006398681342355718 -0.00019697549023807895 -1.4109563668770942e-05 3.0738780568878444e-05 -0.9614679216765868 -0.026818788828339737
4.019285714285714 -0.8820980838009951 0.0772915164031284 -0.0001582828772968665 -0.000547404690293333 -4.010157906912147e-05 9.667206843789295e-05 -0.9727946537279643 -0.029000512180841605
4.019714285714286 -0.8866764721126791 0.08363235633373109 -0.00014445555968287327 0.0001964200723291308 0.0002549158312529768 -0.00027444895351045543 -0.9650061684589928 -0.02650435121428975
4.020142857142857 -0.8863778285123872 0.08873603799013957 -0.0001625395977683621 -0.0004918783548294504 -0.00019469297901474614 9.745152040815595e-05 -0.9671303277604049 -0.02394236650905838
4.0205714285714285 -0.8855297107913831 0.10342282258170253 0.0001975311241838656 -0.0002537580102112453 7.557835949885453e-05 0.00016566855117315142 -0.9691943490478302 -0.025576967314553747
4.021 -0.8817606381400784 0.10208235824284173 0.00045080503256658087 -0.0008346711330369463 -9.406660318142537e-05 1.4960212309622276e-05 -0.9666686432234558 -0.01963919308842574
4.021428571428571 -0.8804223299776626 0.11303039579650581 1.9222976236292583e-05 -0.00033608876292259653 -0.00011845495068684933 -7.70273404200687e-05 -0.9683796432211272 -0.018375072193526826
4.021857142857143 -0.8825736037913744 0.11634785508050009 -0.0002706615988766287 -0.00021828342764127062 3.929671145086387e-05 9.425352828070594e-05 -0.9666851511632174 -0.016081563881540095
4.022285714285714 -0.8734435038226077 0.12162429531194598 -0.0002960388994987622 -0.00018026326787896153 8.627363386433548e-05 9.142625535268376e-05 -0.9770601726598709 -0.008549612173851286
4.022714285714286 -0.8804512227445589 0.1367495082744917 -0.0003286252275243467 -0.0002799324149289327 0.00037479336442558053 -5.0485169019943077e-05 -0.9633564600216626 -0.013965475804443036
4.023142857142857 -0.8754882637038546 0.14204146077627738 -0.00021422926750470044 -0.00014699037221606453 3.164117282062965e-05 -0.0001618226192292298 -0.9664037985885828 -0.009517194450348161
4.023571428571429 -0.8780893880095026 0.14348702106601466 -0.00021181878718516626 -0.0005688850036100425 -9.631488802034712e-05 -0.00028155934768602387 -0.9630618041057525 -0.004706440804364464
4.024 -0.8725880626627363 0.15593347935158586 9.724403610140604e-05 -0.0005316775382791026 -0.0003766614091450296 -6.943864898102502e-05 -0.9711044882101958 -0.0072449798364277234
4.0244285714285715 -0.8749447744104438 0.16101574648761685 -2.6273432005284553e-05 -0.0003634065281046304 0.00016830768856839482 -0.0003155885223635439 -0.9697862116627939 -0.0030893181899631023
4.024857142857143 -0.8737540064550066 0.17221422679264312 -0.0002672124359850502 -0.00017085945448914707 -0.00018582682563370948 0.0003022951029652376 -0.9664884201146121 -0.0009502391738594984
4.025285714285714 -0.8744492131600252 0.1783453945262305 -0.00027922807477413395 -0.00017500173914860779 -0.00017022182796280305 0.00020310770857278143 -0.9658529582105456 0.001623149880146233
4.025714285714286 -0.8709865376399533 0.1863433091191868 -0.00016921606958839277 -0.00019419168033235558 0.00023039727417834794 0.00025195279799723573 -0.9767227338678847 0.008119779444391833
4.026142857142857 -0.874735591780771 0.1910825399243838 -7.591446558637778e-05 -0.0003395233104865193 -0.00035221451432708987 0.0001743785402279936 -0.9693843879861782 0.0018111142886236696
4.026571428571429 -0.8595204007932807 0.19976813025970508 0.00015083573664104616 -0.0006244208892401937 0.00020138073025785923 -0.00010078319592910368 -0.9733077312333448 0.00813672822613727
4.027 -0.8626887918361603 0.2060402989044288 -0.00020056087807765203 -9.573497383318418e-05 6.838285748874139e-05 -0.00010184280452758624 -0.9701188744723435 0.006156335476719474
4.027428571428572 -0.8677408434160513 0.20838427969778295 -0.00033833224005119675 3.198077313599473e-05 -0.00018673078611962978 0.00012644459899469268 -0.964064699870173 0.01630794558266668
4.027857142857143 -0.8639332432833868 0.21644226977118278 -0.0004299316238888678 -0.00011564230801380171 -3.58944910073656e-05 -5.859222967915647e-05 -0.9742665181817819 0.012565113758968818
4.0282857142857145 -0.8606429944552844 0.2325488218364918 -0.0003721001372697099 -0.0003976259403003325 0.0002875521219585035 1.183817072683139e-05 -0.9710911624315995 0.022751381743600103
4.028714285714286 -0.8644994694888135 0.22985099349371393 -0.0005413265999004305 -0.0004068489927796295 0.00026535273923992676 8.61290007936787e-06 -0.96869146108166 0.012194419997373616
4.029142857142857 -0.8589314225112444 0.2433720421711875 5.423383584451972e-05 0.0001560393378568996 -0.00016692472115076236 -0.00025198035619276876 -0.9692473922069735 0.021921888383781046
4.029571428571429 -0.8570955318632277 0.2475176730306722 -2.1477985172168814e-05 0.00012731809088841923 -0.00012559909938469468 -1.5001321593466318e-06 -0.9641528756906679 0.02004137359858138
4.03 -0.8511193706078461 0.25228048771513584 -0.0005218921211575785 -0.0002021202081408599 -7.359233340725331e-05 -0.0001767074493909585 -0.9712017133401566 0.03377212207086197
4.030428571428572 -0.8507717541954616 0.26367725170118644 -0.00042684151450888614 0.0001711455751539395 0.00013794186109416596 -7.988031805846971e-05 -0.9699061515793698 0.029086538510094635
4.030857142857143 -0.8536608571734311 0.2672485977277289 -0.00056769217079259 0.00023165622652869332 7.374834683687836e-05 0.00031342125318381856 -0.972257693719713 0.020994368971746218
4.031285714285715 -0.8461119590239602 0.27610021707252425 -0.0004554895805516012 -0.0003241718844723328 -6.1029294205536e-05 -0.0002464918258426608 -0.9683644787628204 0.03500885657088434
4.031714285714286 -0.8413200957369402 0.2790368450864103 -0.0004010551917364676 -0.00028087377288855107 3.788436371994439e-05 -0.00018159592164829078 -0.9663563015865464 0.02463182591214562
4.0321428571428575 -0.8378028098909639 0.288763365643767 -0.0005441577997309987 -0.0003688458651080253 -3.662494725913642e-05 1.0263392862235216e-06 -0.9735800888771476 0.03568978099183516
4.032571428571429 -0.8401517189007914 0.2964049149365708 -8.54162715722224e-05 -0.00022677216392465632 0.0003472926296080363 -0.00012238959529783008 -0.9665176469261542 0.04614527853615036
4.033 -0.8389768699373233 0.30112321121062563 -0.00037838697407528764 -0.00011013660358797465 -3.88820362804225e-05 0.0003039637187141558 -0.9655404575829619 0.046029747882880376
4.033428571428572 -0.8411492997919322 0.3113423965849754 -0.00022122890790835493 -0.00012694781819553 -8.525519457699563e-06 9.005912217660196e-05 -0.9626571185027324 0.03900733920195004
4.033857142857143 -0.8346537913924859 0.31769562422565367 -0.0008098759049453374 -0.00022183853396372992 -7.688971379491681e-05 8.543426466464986e-05 -0.964335100634144 0.044696239690236846
4.034285714285715 -0.8256079562198037 0.320292695854003 -0.0004639272633479843 -3.589540269570375e-05 0.00016373558084280864 0.00013595485165634232 -0.9665142326665397 0.04158352414381976
4.034714285714286 -0.8197183779601225 0.33489595720111986 -0.0005181255914185297 -0.00023703226273015757 0.00023456135356739424 0.00034957879454489333 -0.9658313188270818 0.051053048750450504
4.035142857142857 -0.8220634570895281 0.33676570487044405 -0.00029860009655225067 0.00016051934219547153 -5.031638882012105e-06 0.00017856931121333625 -0.968095079941857 0.053041390822178784
4.035571428571428 -0.8168339130168252 0.34409457991244063 -0.0001534220332613858 0.00029835292033494247 -0.00012277103544579634 0.00024020101263268667 -0.9669390993661093 0.0556914523634515
4.036 -0.8132648704924219 0.35634478936449526 -0.0003800164783954133 -8.385830965382077e-05 -6.199134495361866e-05 -0.00037123298345297887 -0.9685340591717025 0.056335716660113055
4.036428571428571 -0.8204936524382195 0.3525877006892749 -0.00012552828198069888 6.483144978281714e-05 -3.6645754263701294e-05 0.00012351086174001763 -0.9677799487615808 0.049436739910903256
4.0368571428571425 -0.813884217270116 0.3662884191209736 -0.00015638042713976943 4.809830164282295e-05 9.508630418160717e-05 4.385527411102052e-05 -0.9687923529368955 0.054132888530863066
4.037285714285714 -0.8049750214477531 0.37437091429566083 -0.000232506747653142 0.0001142217226784374 -1.5256376697538513e-05 3.456666757425714e-05 -0.9651264885402735 0.05822379239607175
4.037714285714285 -0.8038086090869555 0.37311606429113614 -0.000360624451862935 -6.667627516560027e-06 -0.00030204318495969605 -0.0002868897825296908 -0.9693401654865115 0.054262344363976145
4.038142857142857 -0.7992212730946581 0.3931845427454969 -0.00013364602484202423 0.00010353494375121943 8.562838462328507e-05 -0.00018014036632719237 -0.9617012498450273 0.06169047653097732
4.038571428571428 -0.8016100548598639 0.3892494365429324 -0.00010669165369605958 0.0007153755813529004 7.03813646093581e-05 0.00020220742780179855 -0.9610784618996738 0.06638410368279929
4.039 -0.7956754827729938 0.39575781358194195 -0.00018104845000372572 0.00021966670363881579 3.456516217100041e-05 0.0001488597255630135 -0.9578449136756967 0.06460066482606663
4.039428571428571 -0.7893110370874612 0.4127195791556989 -0.00014140975046227915 -0.0002735737920614309 -0.00020999047067992417 0.00018126306404312064 -0.9629458927676422 0.06986755978012246
4.039857142857143 -0.790319945366286 0.41188099376026105 -0.0005303347019489513 -0.0002398019424668339 2.1372525600775334e-05 -6.130519145184222e-05 -0.9703259996078526 0.06828574357081642
4.040285714285714 -0.788593000120922 0.4130313936617738 -0.0008802564440649262 -0.0004472865938833253 -0.0003164330180086219 -1.156681840908059e-05 -0.964353918191295 0.07574391347666154
4.0407142857142855 -0.7882498107661874 0.4253531209841266 -0.0004656134567801798 -0.0002132546987461965 -0.00011602092792065046 -9.003374828237349e-05 -0.958692728429602 0.07645579357055246
4.041142857142857 -0.7750133330627911 0.4284641368930128 -0.0003086406980964177 0.00021333260289069193 0.00019723078148214438 -0.00010339723830337836 -0.9683391750262803 0.08401370547479932
4.041571428571428 -0.7723886266553078 0.4361142305713187 -0.00048440158363157766 5.914371367800374e-05 0.00020747897435972453 -0.00017073443861778355 -0.9632542391044953 0.08387275215855498
4.042 -0.7704784974070661 0.44619943680651464 -0.0005035109042028208 2.3517779849308857e-05 0.00010025407049960551 0.00010915448639587368 -0.9619078786771851 0.09057789594974903
4.042428571428571 -0.762361903429864 0.44910817643711093 -0.0002076205136650729 0.0002992188785276773 -0.00038477515561585165 9.383814163991473e-05 -0.9579872735766575 0.09063227793737957
4.042857142857143 -0.7651929144507821 0.44624276988307937 0.0002619278196596401 0.0001120641890829979 -0.00025539623067598257 -0.00014745419201603918 -0.965577018340493 0.0863510749069509
4.043285714285714 -0.7575318947723612 0.46407689447974737 -0.00043455242621789485 -0.0003044425974420453 0.00026600537051975045 7.34607672585869e-05 -0.9656740754975073 0.08662753695166152
4.043714285714286 -0.7505751363336695 0.4641144892085481 -0.00019381738203146014 0.00022056937031496516 0.0001279132947535006 0.00033501367254314693 -0.9671190521982064 0.08191538009912945
4.044142857142857 -0.7516346277253718 0.47534319065825076 -0.00023127531904545056 -0.0005170691362406038 0.00014887284773469552 9.199440885888466e-05 -0.962648263429545 0.09806829435224146
