!Created with skrf (http://scikit-rf.org).
# Hz S RI R 50.0 
!freq ReS11 ImS11 ReS21 ImS21 ReS12 ImS12 ReS22 ImS22
4.0 -0.8375186783237578 -0.24878466740098362 0.00024849263934671663 -0.00019808797560497262 -8.114108589550938e-05 -8.445781872526309e-05 -0.9627366768406328 -0.12980192712257713
4.0004285714285714 -0.8445299923151159 -0.2426837057169045 0.00022943026002266071 -0.0006123507835749703 4.567669118636371e-05 -0.00020753102006699437 -0.9693396923500924 -0.12284695758329409
4.000857142857143 -0.8491666335109163 -0.23247021141521984 -0.0002710076875332095 -0.0009168258427654962 -0.00022246280542345163 0.00010891165860087334 -0.9656813841923485 -0.11574572480439785
4.001285714285714 -0.8416591842186099 -0.2269659391130088 4.3107428053643006e-05 -0.0007314096654669389 -0.00012844791691235153 0.0002473303497908731 -0.9637605273616182 -0.11456831355344976
4.001714285714286 -0.8494714309827284 -0.21952280645754416 0.0002245503278981725 -0.00021865492402670014 -0.00015760876961127345 8.912486272240935e-05 -0.9654878945783872 -0.11952445124000009
4.002142857142857 -0.8491427275863989 -0.2195232939921469 0.00030409550435448374 -0.0004956373215120112 -4.1237667271214024e-05 7.101893979425217e-05 -0.9655962927179099 -0.11201087032485973
4.002571428571429 -0.8514304982229909 -0.20940521953645944 -0.00037885660138297294 -0.0005074941506635317 -0.00020937362667746494 3.355178031262911e-05 -0.9695368372276133 -0.10606500518465205
4.003 -0.8547428016924772 -0.1964363589267227 2.6210478203810037e-06 -0.00023235505394024187 -0.00011440902421061993 1.8191701470884582e-05 -0.9690163479130094 -0.10340996384630412
4.003428571428572 -0.8585847077491302 -0.19406530704493302 0.00026088725876431966 -0.0006986574854339342 -7.451209343151832e-05 -0.00011655304902793894 -0.9617071446156878 -0.09681433008159125
4.003857142857143 -0.8524418990191387 -0.18568553874932342 -0.00010931511072715358 -0.0003428132313469609 -9.801863450436556e-05 -8.090177071349944e-05 -0.9713929279223878 -0.10904451467756882
4.0042857142857144 -0.8645139676542932 -0.1778126291905326 0.0002774559456944834 -0.0006812000998168919 -0.00016706202196104883 -0.0001322760738143885 -0.9663848340546564 -0.09969425224033993
4.004714285714286 -0.8594126108884204 -0.17068059193483928 5.117153497192718e-06 -0.00022765447820235904 1.1950797172589784e-05 9.418226711882643e-05 -0.9592614216281394 -0.1077776886638266
4.005142857142857 -0.8610500392397846 -0.162133856409317 0.00023915320066252667 -0.00041433083522445364 -0.00013846085305582606 -0.00021029591768338034 -0.969086977029496 -0.09579578413439985
4.005571428571429 -0.861969578000809 -0.15492461556320503 -0.0001321783961388279 -0.000985903225041036 -4.5038468052227054e-05 9.989672929981366e-05 -0.9592696417872741 -0.09538447155075916
4.006 -0.8654794420754908 -0.15175216208500028 0.0002121027134730988 -0.0005717928942509639 0.00010987821653650382 -9.164150604768226e-05 -0.9720167908337082 -0.0919679031359152
4.006428571428572 -0.8658260365303868 -0.1476186684271511 -0.00044528975318482817 -0.00031586341824484733 -3.406137776569907e-05 -8.599114374302139e-05 -0.9666783240861491 -0.09111208083867058
4.006857142857143 -0.8697481217212377 -0.13623289760977014 -2.6098425569927886e-05 -0.00010000762932136865 -1.0119580840599788e-06 -7.432760812261324e-06 -0.9646607773160065 -0.0861829300339873
4.007285714285715 -0.8723233477811556 -0.12805893619676584 -0.00019471910976597383 -0.0003309019825407799 -2.2759805384491086e-05 -0.0002855667487500725 -0.9689213589766956 -0.07918172766832636
4.007714285714286 -0.8693666875478124 -0.1242700971721393 0.0001541756616473041 -0.0003556483404273368 -6.59575742308711e-05 -0.00013835080452303045 -0.9618715323196216 -0.08323376498736042
4.0081428571428575 -0.8716220997961353 -0.11989183031679514 -0.00020171155567204796 -0.0002948883016069982 -1.7767701990157645e-05 5.343024624854551e-05 -0.9685315113472031 -0.0856461659959718
4.008571428571429 -0.8730329148180903 -0.10736454748291441 0.00018621848555500136 -0.0007273929906305959 4.4407447640090445e-05 0.00015486121127594068 -0.9637551045906378 -0.07768422508894768
4.009 -0.8756813879165155 -0.10097796485936368 0.00020294397901656714 -0.00055489445773743 4.8986298298204193e-05 0.00016176545170594345 -0.97490908957944 -0.08560193413339032
4.009428571428572 -0.8723523919874343 -0.10041118816369582 -0.00020845098750104719 -0.0004906429881569594 0.00011338912242500286 -0.00023243620416825067 -0.9776493702173994 -0.07600405942194843
4.009857142857143 -0.8749874004039647 -0.08592167102736899 -4.856687785763313e-05 -0.000696813990809777 -6.0886760840897215e-05 -9.301200361669042e-06 -0.9656191747012316 -0.07007793608492657
4.010285714285715 -0.8772462715189577 -0.08190710395813383 -0.0005652081945814968 -0.0004218682853704231 9.16891158153782e-05 0.00012070804550701122 -0.9648248716053036 -0.07269305046067782
4.010714285714286 -0.8763135508236318 -0.07434919390333353 -3.4962185398992364e-05 -0.00023062987281106815 -5.190653666429699e-05 0.00017037408627828814 -0.9694650606901561 -0.07040672899862696
4.011142857142858 -0.8718492183646226 -0.07000129928143219 1.0652133202188495e-05 -0.0004781396999025342 2.767440409981636e-05 -0.000172709321733511 -0.9682327124174381 -0.06589324308474019
4.011571428571429 -0.8732244163453876 -0.05551977191149192 7.365481692766717e-05 -0.0006296907898993282 6.375471466324506e-05 0.0001711983197797356 -0.9716796948028046 -0.06673537938994395
4.012 -0.8773808430183025 -0.05280381057202691 -8.916749073335781e-05 -0.0005125063331760714 -0.00017310937052107336 0.00016203317004734622 -0.9739139036790954 -0.0616198236842992
4.012428571428571 -0.8760180610791126 -0.04371842708723209 -0.0004721696489452761 -0.0007137651014510046 1.4951224479390865e-06 0.0005339741067658169 -0.9627189837597101 -0.056291352821343406
4.0128571428571425 -0.8834199975415385 -0.03381360954824053 -0.0006167133057786468 -6.870534743130744e-05 -3.298608233247016e-05 -0.0002543444432249092 -0.9657606074557827 -0.06338570417369813
4.013285714285714 -0.8719179257979921 -0.030411974165979495 7.99225963647713e-05 -0.00013206374415589923 0.0001780825080890744 -4.638062924454386e-05 -0.9633331486556266 -0.05810996202718813
4.013714285714285 -0.8748844241286146 -0.02156466319798154 -0.00012627491176823633 -0.0001227954530565862 6.8432232214424e-05 -0.00010245345101406898 -0.9772295525449145 -0.050627467408026906
4.014142857142857 -0.8766919311894722 -0.01491568903902522 -3.138293504611461e-05 -0.0006082236919536276 3.531048503462641e-05 0.0002778104999479905 -0.9718055553480263 -0.046615733584264775
4.014571428571428 -0.8752802805503233 -0.011417738643364182 -2.3674148607074882e-05 -0.00030839401002100435 0.00012694695608742268 1.830139337248328e-05 -0.9702626915702319 -0.05334600881278547
4.015 -0.8843422862852346 0.0012807555462001983 -3.192264217165644e-05 -0.00023916715417083821 0.00023795360201579188 -1.3998319503088053e-05 -0.9648460103102501 -0.05007649316293131
4.015428571428571 -0.8791233914499257 0.011403454928524813 0.00023483889777725083 -0.000844411862226369 0.0001455311824307476 0.00023765943550299126 -0.9729328779093728 -0.04811311595863368
4.015857142857143 -0.8791097706183946 0.01561956467023592 -8.14696474592537e-05 -0.00038994601136123184 0.00023493655541660313 7.04852476673042e-05 -0.9684053048223255 -0.04562952732240562
4.016285714285714 -0.8758479082950082 0.022746315280401278 -1.4884746511265573e-05 -0.00047104586306878806 0.000380814333597669 -0.0001262839908401769 -0.9648928922898551 -0.043031536645463705
4.0167142857142855 -0.8764188016025913 0.030889481419170833 -0.0002651687022065308 -0.00024009139501835857 -0.00028084607623389833 -0.0004118006510744575 -0.9644523277615275 -0.04893869339595573
4.017142857142857 -0.8739114979783205 0.03782328127130042 -0.00027892325960583296 -0.0005567251403987343 -2.874080607979918e-05 -0.0002873878091067478 -0.9624185128708813 -0.03949717926213179
4.017571428571428 -0.8787233001108407 0.042571082339019364 -0.0002937105959685321 -0.000407850205280831 1.0693576612264477e-05 -2.655991540728667e-05 -0.9732785763794677 -0.04135826152389102
4.018 -0.8748180483667709 0.048674825697841435 -0.0005434345459531093 -0.00040337226497642485 0.0002037277827707587 -8.267490491246701e-05 -0.9694371388209568 -0.04016832592281181
4.018428571428571 -0.8785389416554932 0.05806629329491363 -0.0001574771934410484 -0.0005486025373758032 2.1390309939081558e-05 -2.1248774006186686e-05 -0.9721077594363855 -0.0344358272430409
4.018857142857143 -0.8707756190713739 0.06661540777099714 -0.0007291802057769967 -0.0003140717025084016 -0.00025504138877428383 -0.0002592712502589461 -0.9635401149206635 -0.025836214313307248
4.019285714285714 -0.8687583017322881 0.07638050975373402 -0.00011173368336954458 -0.00029408477029228694 0.0004455428198705877 4.81179856578349e-05 -0.9711845546377228 -0.028288937432190523
4.019714285714286 -0.8758827219754759 0.08233230394693085 -0.0005245554682011871 -2.6604062824335288e-05 -3.530429475198363e-05 -0.00011107647381706863 -0.9658235921438123 -0.028358978194803344
4.020142857142857 -0.8743165826081828 0.08756042323573332 -0.0002562042225427548 -0.0006614411442757163 1.6603026080855378e-05 -0.00017991205231754494 -0.9688472505930493 -0.025016234194994567
4.0205714285714285 -0.87372741004908 0.10292782720319285 -0.000401459028787657 -0.0005103885765800956 2.0401222738259216e-05 0.00024811842545609047 -0.9678729950894932 -0.024124322084349444
4.021 -0.8698494870578665 0.1006831996286239 -8.466487940197886e-05 -0.00012533211548830156 0.00020622779979410404 7.6068779324029e-05 -0.9654687976688199 -0.020668854608223725
4.021428571428571 -0.8697577019684035 0.114866410392789 -0.000346876249271435 -0.00013144825572769292 0.00012469241382080835 0.00026588728648143734 -0.9687330562700027 -0.019109021249855532
4.021857142857143 -0.8700699130496705 0.11580360993498429 -0.0005680192093277661 -0.00022689947884402465 2.0800299364356356e-06 7.777132004461555e-05 -0.9669080001723511 -0.014644870853679352
4.022285714285714 -0.8621764362633567 0.12123183121915973 -0.0006697363962020306 -0.00013598043367460478 -2.6744192857784437e-05 -0.000154877855734799 -0.9741754968027319 -0.00572367374104666
4.022714285714286 -0.8681347565576756 0.13633215123046136 -0.0007528414823792574 -0.0004790729791505489 0.00010608424156935426 6.0815741158937784e-05 -0.9659133279966056 -0.012519880787162716
4.023142857142857 -0.8637658805473709 0.13950855677009166 -0.000198370768320831 0.00011229952402045961 -7.202419997588598e-05 -0.0003742524464273398 -0.9668797550939731 -0.008379173568686707
4.023571428571429 -0.8651772198145778 0.14232333514232934 -0.0003614631185785341 -0.0004568440749810532 4.657683909869383e-05 0.00011652610147047372 -0.9623061371536747 -0.003711960982038857
4.024 -0.8600265495200209 0.15456868570011378 -0.0007675558829799454 -0.000646655503990834 0.00028269918726536703 -7.467092247121739e-05 -0.9715120714420497 -0.006605578385796496
4.0244285714285715 -0.8622423563135988 0.15800377673787386 0.0001177716239652196 -0.0001385694659809003 -0.00014930359149200424 0.00013275191412427125 -0.9697707701227433 -0.003579211347712852
4.024857142857143 -0.8630249673491392 0.16947945010681656 -0.0005085199729922395 0.00023945746277552514 -0.00020420571664445653 -0.0003866129245924632 -0.9680728820461165 -0.0013983649333841432
4.025285714285714 -0.8626732509944245 0.17795381052676218 -0.0004952045830131 -0.00035294943541102264 -6.55671874724264e-05 -0.000258531174718174 -0.9673946294302858 0.0038551897730000136
4.025714285714286 -0.8598219135728564 0.18524761242341822 -0.00026118163806341713 3.266953365630308e-05 -4.5488111347799425e-05 1.9343473090573902e-05 -0.9741827872187556 0.007127397121154055
4.026142857142857 -0.8628729151977977 0.1894892973396188 -0.0006888576908683189 -0.00033212077012412814 4.059106457048618e-05 5.8403019093932344e-05 -0.9688698822867479 0.00380963316239393
4.026571428571429 -0.8495684920923018 0.19949642884309718 -0.0008058148623342437 0.00017913529830578117 -0.0001223667491168025 0.0002487520448949867 -0.9730981429673495 0.009226477592248468
4.027 -0.8515946428565991 0.20491850389645322 -0.00017337429068152004 -0.0003397279003109659 2.773551365633071e-05 0.0001890399560112841 -0.9684985231881359 0.004602775421726573
4.027428571428572 -0.8570465066940356 0.20652031702985107 -0.00037229486100635796 -0.00023029009949108978 -7.401508554735149e-05 0.00018278360466930283 -0.9683846927190872 0.014932136902012687
4.027857142857143 -0.8494978854943456 0.21486183052101057 -0.0007168275685687293 -0.00012288420046374716 7.415838948571221e-05 -3.731037024986528e-05 -0.9736457556636481 0.011182035002008994
4.0282857142857145 -0.8487189015663306 0.22980235675386315 -0.0005805862314166558 -0.0004665805191634291 -0.00015405255471974497 -0.00010356893492708742 -0.9717513919748645 0.02222346665715737
4.028714285714286 -0.8536643481852152 0.22760773497309278 -0.0005692167288639975 -0.00022759097513287677 -0.00025390543941183907 4.2341319063592184e-05 -0.9697115872760075 0.012949906929221827
4.029142857142857 -0.8477851237240684 0.24268255483663445 -0.0007841719190272693 -0.0007289226396983592 8.036858183631468e-05 -8.382498115954321e-05 -0.9669855342731138 0.022482980713844896
4.029571428571429 -0.8462329279467727 0.24386700349446905 -0.00016475321632060286 -0.0005439035179810666 -7.482449010661187e-05 9.915741516002613e-05 -0.964710991040821 0.022460083086248635
4.03 -0.8392649221161894 0.24965502754350571 -0.00038734499646397863 0.00016178228815922263 -0.00019774572868751334 -0.0002857756756509628 -0.9720002318994563 0.03301678488091164
4.030428571428572 -0.8395629815177779 0.26172370659855254 -0.0006740591404717813 -0.0003638413668503272 -3.904109973708176e-05 4.729062293491664e-05 -0.967348533499235 0.030377405091070394
4.030857142857143 -0.8416672274779504 0.2646433274725946 -0.0009688772117491294 -5.603228493976982e-05 0.00023370389574758457 -0.00017221805243353041 -0.97254590121232 0.023873748891332015
4.031285714285715 -0.8354586591642186 0.27265580232555625 -0.0005034914417322954 -0.0004793908295363843 0.00011529940038572113 0.00022274609940298092 -0.9676073870228238 0.03425807604207413
4.031714285714286 -0.831032368395288 0.2757189666211889 -0.0007147182475220294 0.00013993747237305457 -4.0718241891701625e-07 -0.00039827368740389334 -0.9645969828573077 0.025623284172011006
4.0321428571428575 -0.8268016104324993 0.28621693080070687 -0.00032163305175003534 -0.0004901177530302017 0.00017733071945552493 0.00011978385364748964 -0.9725723728786894 0.035036408518346544
4.032571428571429 -0.8285723063724729 0.29373730864704967 -0.0005229396290017518 -0.000153678177075448 0.00015249384625837373 -0.00020430662283778305 -0.9650466664790693 0.04479635544322817
4.033 -0.8264694255231474 0.2993736908727238 -0.00041462771111018553 0.00011462842427382757 -9.226505800876557e-05 0.0002277579615076578 -0.9660394305853977 0.04384007256471736
4.033428571428572 -0.8301398252912486 0.30678952590024616 -0.0005264212095446975 -0.0001892192203060617 -7.829449243830962e-05 2.8634359127589955e-05 -0.9634707516675467 0.03977358494796063
4.033857142857143 -0.8233200981129555 0.31418511664271065 -0.0005850863213096321 -6.172198634727586e-05 0.0002539668170605389 0.00015083161188039271 -0.9649054096518427 0.04400704796559236
4.034285714285715 -0.8155472915404073 0.3183780738613266 -0.00028620797065902583 -0.0002783004451817066 3.0050536899856126e-05 0.00013008334641658375 -0.9664719272153829 0.043863319557708336
4.034714285714286 -0.8097819189344663 0.3316964105612985 -0.0006168993464274998 -0.00013609817246397745 -9.22932206249767e-05 0.0002281196267814657 -0.9664080195452389 0.051982842226121
4.035142857142857 -0.812447064579989 0.3355859048359217 -0.00031132929264718584 -0.00043771754585424013 7.965079691996886e-05 9.14713550139661e-05 -0.9687435447244458 0.053234192836201136
4.035571428571428 -0.8065713480332378 0.342030277029597 -0.0003371381104663467 0.00018322727179492107 0.00022045876824665077 -0.00040720089190155243 -0.9677486417071862 0.056826546794607996
4.036 -0.801656771008046 0.35137740763418135 -0.00012900517621935678 0.00024862534449825483 3.5773783351493004e-05 0.00016529379681005696 -0.9686833633979867 0.057421157395499384
4.036428571428571 -0.8096536453498021 0.35039455975988315 -0.0005973055187600676 5.33754343144594e-05 -5.67221045337006e-05 -0.0002722376804554467 -0.9687995962021502 0.052137528803854485
4.0368571428571425 -0.803101405114033 0.36158214647812054 -0.00026167924052479123 -0.0001138210057351612 0.00012420536705376394 -1.4143213076489568e-05 -0.969277576340887 0.05428463421209437
4.037285714285714 -0.7947182549123829 0.36846449406555626 -0.0006961561100744411 -0.0002977700930471472 0.00010922546117687365 -0.0002377045947105406 -0.9637931913533986 0.05941838647673496
4.037714285714285 -0.7932221198256535 0.3700434632813451 -0.0004942171368873131 -0.00022767120026187155 -0.00016152928585587772 -0.0001455323507261686 -0.9703855200435796 0.056980792248179556
4.038142857142857 -0.7886347556331808 0.38895898780208576 -0.0006691560144341789 0.00012131995930501957 0.0001189273896447384 0.00020401328326106747 -0.963886859113646 0.062130744950069976
4.038571428571428 -0.7901374426794879 0.38764799956740337 -0.0008333093325416899 6.101821684827899e-05 0.00012421351777091593 1.3992751276894036e-05 -0.9612934307069383 0.06619336355345667
4.039 -0.7874955459439941 0.39291657696124216 -0.0005574578838028092 -0.00025588371391985063 -0.0003496782230308428 4.533403533278828e-05 -0.9587715774097495 0.06375193474793932
4.039428571428571 -0.7788449237028277 0.40959863107264805 -0.0005295103452563897 0.0002610066548696554 -0.00011461906767710212 5.7521219528890555e-06 -0.9634503626837274 0.0706527987582561
4.039857142857143 -0.7818469226209666 0.4080514010601153 -2.8003552678269645e-05 0.00014018619403128083 -3.851400497160562e-05 0.00011404201647325427 -0.9694692442968459 0.07070655386564996
4.040285714285714 -0.7760986787655457 0.40875987113938117 -0.0009629787434149352 8.423680085346508e-05 -4.242610906349697e-06 2.1124196225937307e-05 -0.963828768576915 0.07627332829747555
4.0407142857142855 -0.776765335945736 0.42036111620305466 -0.00029819507327116573 0.00040594752649679785 -0.0003644607894012214 1.5545489777870334e-06 -0.9591030243047121 0.07663802079588644
4.041142857142857 -0.7636965144710133 0.4233623725567702 -0.00024489416415607047 0.00026261118786728087 0.00015083554475761674 -1.560709039175127e-05 -0.9689988543126216 0.08588797106231308
4.041571428571428 -0.7616876303133285 0.43159206912784914 -5.6258140155749e-05 -5.527112346944996e-05 0.00018621792934478775 3.7270101697025706e-05 -0.9651004508583417 0.08418411612921882
4.042 -0.7602309020246968 0.4416232094131475 -0.0007325072925510661 0.0004041007871303329 -2.7855918680943593e-06 8.446679580342616e-05 -0.9636644114076872 0.09027542315135208
4.042428571428571 -0.7552001107322102 0.44596323441970476 -0.0006250737684607818 0.00018109388450547487 5.416940260628722e-05 -0.00012413094134298275 -0.9603144052659911 0.09092690495816148
4.042857142857143 -0.7539824378447346 0.4412208988342545 -0.0005186408741490075 5.74841600192166e-05 -0.00023985625732366494 -2.689385178981129e-05 -0.9638529358076425 0.08626263831038
4.043285714285714 -0.7494592353300977 0.4594403828817163 -0.0008491268109340062 0.00021712279512695602 -8.674233873569171e-05 0.0002703866367778738 -0.965384617065581 0.0867874223908002
4.043714285714286 -0.742147708145589 0.4605342871016477 -0.0007467157706905764 0.0003672596564611839 -0.00020174436972137706 -9.035816364429194e-05 -0.964987772147581 0.08395814903973867
4.044142857142857 -0.7410626024695819 0.47056880418324487 -0.00026308948646534055 -1.0378798948829042e-05 0.00037091791717786075 -0.0002423882949374933 -0.9623024973040231 0.09773290422440457
