!Created with skrf (http://scikit-rf.org).
# Hz S RI R 50.0 
!freq ReS11 ImS11 ReS21 ImS21 ReS12 ImS12 ReS22 ImS22
4.0 -0.841870354865358 -0.24892012905215544 -0.0001876589178577808 -0.0007178039083777221 0.00017263188096528365 -0.00012437535835026328 -0.9623897737610461 -0.1290042160243407
4.0004285714285714 -0.84949995936718 -0.24357387428644808 0.00030347914755645067 -0.0004016127800210764 2.6311606607961334e-05 6.885195587572751e-05 -0.9691719404864741 -0.12272103118277004
4.000857142857143 -0.8526588797049562 -0.232500638500604 4.8773754093303875e-05 -0.0008672156058812263 9.591533531137923e-05 -0.00021869487593356534 -0.9666068225405122 -0.11410316661519879
4.001285714285714 -0.8460375998809065 -0.22996521617529458 -0.00019970178595918295 -0.0007894484344201248 -0.0001216310715762768 -0.00020059180094972271 -0.9635672231544147 -0.11696561766119966
4.001714285714286 -0.8537073209215045 -0.2206090460651991 -0.00015520462464851964 -0.00047545274550653743 -0.00012023933804872887 -4.607785124845245e-05 -0.9670666285856009 -0.12039949105473279
4.002142857142857 -0.8531127783273402 -0.21980412490473583 -3.50902837694792e-05 -0.00031784144091231845 -0.0001671090558350549 -0.0002506330068647672 -0.9652498341055179 -0.11270006916247438
4.002571428571429 -0.8552011160326668 -0.20947738895579315 6.767756105207754e-05 -0.0004516507599111251 -0.00019053920731226502 9.029374827395235e-05 -0.9695443769888069 -0.10513233971162804
4.003 -0.8598094818455991 -0.19987392891411832 2.520132956407185e-05 -0.00047669433613502845 7.619828038908175e-05 0.00021105158555511494 -0.9688797505771238 -0.10222564618868048
4.003428571428572 -0.8624948357158416 -0.19594520015301245 -6.229436404482862e-05 -0.00035941800775519126 -0.00011096240700746523 3.801380871130309e-05 -0.96105982188629 -0.0982287225785145
4.003857142857143 -0.8578688474571128 -0.1877400133031608 -3.725908505680437e-05 -0.0005558926760888473 0.0003966738695435332 0.00011036640078589975 -0.9702381782740135 -0.11003454767817929
4.0042857142857144 -0.8677942167421391 -0.17922090797465745 1.1394211944725792e-05 -0.0004850389101179205 -0.00044174431536322814 -0.0003996382152833891 -0.9654918050415852 -0.09890189551187455
4.004714285714286 -0.8634967069370154 -0.17086394453137202 -0.00024698820757493046 -0.000533427468881395 -0.00010997100041900002 8.069862121130652e-05 -0.9598315660196574 -0.1069728518857912
4.005142857142857 -0.8659336471781139 -0.16211307664834998 0.0003944627347089966 -0.0006209667519538229 0.0001966988261837232 -8.9759753561539e-05 -0.9691807320360691 -0.09577108562002291
4.005571428571429 -0.8672276767414009 -0.15634269647377871 -7.804470632373142e-05 -0.0005538186779010786 -0.0003644550825368786 0.00010598382010509781 -0.9595231911579651 -0.09411166036966007
4.006 -0.8703504673272839 -0.15257534906703063 8.073057371730867e-05 -0.0003357546350749964 0.00013371708796767638 -0.00010945802384880018 -0.9702892262123399 -0.09360267432257915
4.006428571428572 -0.8691810187659649 -0.1471673474300492 -0.000445886417110903 -0.0008672741853227179 -8.615043533570761e-05 0.00011900183437640405 -0.9678964929424388 -0.09237826237082127
4.006857142857143 -0.8753661801883676 -0.13546466329093027 -0.0003055509458903078 -0.0003555506720564286 0.00011705785580216432 -0.0001635834306071316 -0.964240303483739 -0.08505247655071664
4.007285714285715 -0.8765260866318714 -0.1300817890271049 -0.00019517810707193455 -0.0004033744711369349 -0.00018804368079957385 2.5794306176239785e-05 -0.9695361303390598 -0.07989443736510027
4.007714285714286 -0.8730015205818329 -0.12291721870566688 -0.0003023557563589851 -0.0005581834756041036 8.729518230451199e-05 -5.420627157406788e-05 -0.9640160723302095 -0.08212356619705229
4.0081428571428575 -0.8744450085582954 -0.12099944394139588 4.9537898920137244e-05 -0.0004718363474684492 0.00014059200945281888 3.715421310144908e-05 -0.9685300583814159 -0.08551514101225516
4.008571428571429 -0.8787509597747069 -0.106056125806154 -0.0001833775004789481 -0.00013138557017934916 -6.792832940058498e-05 -0.00012537565628793605 -0.9631489227622959 -0.07930140054781068
4.009 -0.8795324737980453 -0.10175314709961548 -0.00012640931410338253 -0.000665541652527631 -0.0001602965845035543 -8.341378258837967e-05 -0.9742313630808194 -0.0843267864289018
4.009428571428572 -0.8772315777663242 -0.09745109915221216 -0.0002238564214907652 -0.0005775700659421965 2.538622143043588e-05 0.0001606881698514659 -0.9752022523326535 -0.0741605292883941
4.009857142857143 -0.8788250086920578 -0.08595428354031574 -0.0002151260949868722 -0.00014353979980278038 -7.47675687668597e-05 -8.326514739863455e-05 -0.9657906032686204 -0.06993482049017896
4.010285714285715 -0.8819927141022147 -0.07994901309274964 -0.0004130489587939328 -0.0002146473680425889 -0.0001006126257183699 -4.163560365577353e-05 -0.9647586801873632 -0.07439651793683824
4.010714285714286 -0.8809990386507054 -0.0737339998575719 -6.740171106050999e-05 -0.0007522703984274687 6.327792596862708e-05 -2.4614663441348308e-05 -0.9694735635453849 -0.06982195405648682
4.011142857142858 -0.8780542708322244 -0.06921822413623291 -0.00010642209224633572 -9.395295828835668e-05 -0.0003297534648117461 -1.325038766783343e-05 -0.9699267008510897 -0.0657853647486874
4.011571428571429 -0.8777719007628711 -0.05590470501680608 -0.0003291202018920048 -0.00047366003998336784 -0.00014625783266616001 2.1012202601549163e-05 -0.9697457094464216 -0.06745348039641495
4.012 -0.8830646127142263 -0.05212505723385247 0.0001461435716909107 -0.0006863927163464101 -0.00014247097749805747 0.00010136967670320496 -0.9760724935182936 -0.06304758961250836
4.012428571428571 -0.8788866116704718 -0.04429543602049688 -0.00013210437902096435 -0.001109397439829857 0.00020920308352766477 2.2778220119958595e-06 -0.9626218078239882 -0.054574317646274746
4.0128571428571425 -0.8870738276114369 -0.03521506658815937 -0.0005416716894959283 -0.0005548409139890337 -0.0002518424174101598 9.382166481105878e-05 -0.9653696339744039 -0.06253326331686049
4.013285714285714 -0.8765589666190018 -0.028944541258131066 -0.00018626275297147808 -0.0005449259630594218 9.661573286804115e-05 7.604277103443145e-05 -0.9631452172771926 -0.05773380384447224
4.013714285714285 -0.8792846387840948 -0.020790412247872557 0.0002082174865974171 -0.00028625885371694307 -2.8945767578294302e-05 0.00014522715940673193 -0.9768016361804893 -0.051154676222916806
4.014142857142857 -0.8809288726317945 -0.013203825990193629 -0.000259373270812826 -0.00028831303489813674 0.0004461005233354558 -8.2258713789333e-05 -0.9693025062946267 -0.048320125467591686
4.014571428571428 -0.8798443416633419 -0.010568647587085913 -0.0005629571246208206 -0.00014133179754629004 -0.00020131010979186295 -4.383697441564387e-05 -0.9704650803896578 -0.05231097259655356
4.015 -0.8869954455583249 0.0022813919325523186 -0.00041399445033894777 -0.0006211076699684415 -0.00016185356241007413 0.00024039408354836262 -0.9645996527841721 -0.05113592952037597
4.015428571428571 -0.883264400499634 0.012125708236693709 -0.0002424003245550814 -0.0005916258356740579 -7.646767494156069e-05 0.0002629907116942729 -0.9710684197229624 -0.04893852883141492
4.015857142857143 -0.8831752646331679 0.018999388768053908 -0.0003565497845474768 -0.0002898180967511015 -0.00018339637871445477 5.57778181284899e-06 -0.9710257820858339 -0.04686928407573317
4.016285714285714 -0.882344484634208 0.02360431932187121 -0.00045783242391361534 -0.0005734502945999828 -7.886538333076554e-05 -8.379600030584662e-05 -0.9637472945812146 -0.0408860362791366
4.0167142857142855 -0.8823362382151955 0.030094319335056654 -0.00034287662282418626 -0.0006384270387188793 8.958660834720354e-05 -0.00012736176304305036 -0.9644654933695924 -0.04840591100361648
4.017142857142857 -0.8778553762310283 0.03994245713571253 -0.000370355873085413 -5.256259089058464e-05 -9.951919895723154e-05 7.468333447103009e-05 -0.9619205363202503 -0.03903087240241208
4.017571428571428 -0.8839077096816704 0.04375823025603831 -0.0001962861091846205 -4.653972372262558e-06 -1.3940058440299604e-05 -0.00024001789211751314 -0.9734951435752319 -0.040462491141701674
4.018 -0.87912134718062 0.04902411671749793 -0.0003596487650661467 -0.0005904220731235005 -0.00014554912651154776 -0.0003203533585806702 -0.9689453110390804 -0.03911231193009065
4.018428571428571 -0.8827032490273643 0.057819076400336324 -4.338587800264937e-06 -0.0003229400831718776 0.00011197240103942875 -0.00014687923616116098 -0.9712888285362091 -0.03381147546419775
4.018857142857143 -0.8762091117353182 0.0690609842770361 -0.0004493917519424788 -0.0007432653744432649 2.1996660294616675e-06 -0.00011916338425239243 -0.9610796132123391 -0.02563793670398966
4.019285714285714 -0.8740930800994863 0.07802871610934622 -0.0004112425439312725 -0.0006120682933817912 -0.00014054755458682225 -0.00026549160656360996 -0.9695480141530585 -0.026927137271591624
4.019714285714286 -0.8808798698670617 0.08535646675851448 -0.00039688936244621284 9.266529333703458e-05 -7.420561549574672e-05 0.00037061078199669136 -0.9637102329499397 -0.026555540565043438
4.020142857142857 -0.8780250642565015 0.08929387457996238 -0.00046829733151374295 -0.0005755680223672075 4.883410798122221e-05 4.4561613426694546e-06 -0.9675029619133141 -0.02400789387876856
4.0205714285714285 -0.8792932525064825 0.10387730518433246 -0.000911695268186889 -0.0002582563481125049 5.8502852792917246e-05 3.069879936020504e-05 -0.9690700334811878 -0.027456508685570136
4.021 -0.8742107974317417 0.10316995457207181 6.157815364962892e-05 -0.0005536642888428861 -2.4497671401805567e-05 0.00012001535205594979 -0.9660208867558774 -0.018652291183564096
4.021428571428571 -0.873856400775398 0.11422949009130604 -0.0007712303436478647 6.278286538099558e-05 0.0002642407406059779 0.00027924809635239964 -0.9696856895293281 -0.018747638501749764
4.021857142857143 -0.8761266395015098 0.1167586678734195 -0.0007669807155359841 -0.00042015112897639246 0.0002093654409234031 -0.00025035837305667166 -0.9677247517609097 -0.014315034078024844
4.022285714285714 -0.865658789737088 0.12177940726646826 -0.00029961858528862646 -0.000279796816128602 -0.00020103381736813434 0.00020330107620825815 -0.9742423361308576 -0.009774555944867208
4.022714285714286 -0.8723975691562474 0.1378053513804954 -0.00030820071658915765 3.8040806265103254e-05 0.00023457782186488003 -2.063703061432403e-05 -0.9663859127486524 -0.013264855122793332
4.023142857142857 -0.8693923128926055 0.14106903569659007 -0.0012421685251438825 -0.000525355410077369 0.00010133016292912395 6.517060019739656e-05 -0.9653922159380579 -0.006579921387584314
4.023571428571429 -0.8702433573652247 0.1436025217997683 -0.0004429102736562162 -2.965943649243415e-05 5.138054637247792e-06 -7.937684427925682e-05 -0.9626529145297911 -0.005140384758459243
4.024 -0.8644717931144721 0.15743414802500996 -0.00045376660379215346 -0.0004982406871750626 -0.00037575784803311996 0.00012414153829268376 -0.9702175525012618 -0.007110211574419319
4.0244285714285715 -0.8683493525104343 0.15971931922117183 -0.0003896194194133753 -0.0003259818565812194 -6.292683354660082e-05 -0.00016327572270278555 -0.9711184144494782 -0.0014117475535535503
4.024857142857143 -0.8673849119291006 0.17114655109825555 -0.0005533256741732225 -0.0004446028630685287 -3.020988434668748e-05 0.00019956604935088642 -0.9657494097428699 -0.0009058394985646185
4.025285714285714 -0.8666379786531075 0.17978411371454295 -0.0007810523990858933 2.070764019733842e-06 0.00016834354001207875 0.00023593569365392748 -0.9663875241660739 0.004445749272784854
4.025714285714286 -0.8638641149912567 0.1866872418917147 9.549520755997473e-05 -0.0005613333034394984 0.000411706500242637 -0.00014547571213176802 -0.9741900538731857 0.00826491862532206
4.026142857142857 -0.8662529195547813 0.1929140136167425 -0.0004506260656916619 0.0001454759699723706 -6.729720452649583e-05 7.3440389884141295e-06 -0.9696491722440752 0.004407022555972954
4.026571428571429 -0.8530339816550491 0.20159876585768108 -0.0003658417225887915 -0.00020633046634812427 0.000437368983237208 -0.00019713176878809492 -0.9717919810824504 0.009079910952209617
4.027 -0.8555201190404313 0.20655516913063707 -0.0006107245021380952 -0.00012867639869718303 -1.3843993694992724e-05 -1.4763248142432733e-05 -0.9692257614864974 0.005574994760070876
4.027428571428572 -0.859657419687143 0.20929457063272833 -0.0007485208777877547 -0.0004076766947053764 0.00031088264764959136 -0.00014974408047879016 -0.9641893231548712 0.016001238785668725
4.027857142857143 -0.8544514298214719 0.21617040370485294 -0.0008481955925941908 -0.00025917452901092695 -0.00012727557316033215 0.0002460096808508927 -0.974227816738234 0.011460192579488774
4.0282857142857145 -0.8542780549685491 0.23067730868649353 -0.0006504648733769088 -0.00012854243749646575 0.00010091560499156179 0.0006029726428406821 -0.9695124771550768 0.021821473252397163
4.028714285714286 -0.8578236306194884 0.2288449941805992 -0.0007082049442020328 -0.0003514842607409655 -0.00017716754108698164 -0.00012550783303098083 -0.9696963693544716 0.014531097424290356
4.029142857142857 -0.8516639001285556 0.24380473564096286 -0.0005397467291911735 -0.00016349913527423574 -2.6548557647441598e-05 -0.00019886545326142232 -0.9670153667056018 0.0242011734831575
4.029571428571429 -0.850354128873192 0.246122032687214 -0.0005125610353298804 -0.0001412362520162572 5.8785343829241805e-05 0.0002752573224839635 -0.9639316316723437 0.021044437459002533
4.03 -0.8431982778905888 0.2528087871222985 -0.0006360746526122836 -0.00047012179385341095 -0.0004150771625074809 -0.00022499612121859146 -0.9701061252442541 0.032358306357274616
4.030428571428572 -0.8436845853425584 0.2629827333190083 -0.00035592355086602127 -0.000287289275178811 -0.0001531733618702151 -0.00013481881644796624 -0.9702700504614064 0.02958434617299349
4.030857142857143 -0.8453956907540057 0.26633161607158223 -0.0009015319240268987 -9.676173050360424e-05 0.00014822824579439602 -9.842626508322192e-05 -0.9714181318954658 0.02325118999050739
4.031285714285715 -0.8368473802259399 0.2753416661629372 -0.00039451300940298776 4.896348252460759e-05 8.523616430001605e-05 0.0002187838685504503 -0.96852046961305 0.03697800465065874
4.031714285714286 -0.8340218919628393 0.2772623742941769 -0.0008390656877415453 -7.182162706257767e-05 3.912513825714813e-05 0.00022539064413271706 -0.9657089558671724 0.02529371826242186
4.0321428571428575 -0.8310907198623813 0.2880553615531633 -0.000514201358894577 7.360331616802089e-05 5.363541257003608e-07 -0.00011104873507088892 -0.9718505379125242 0.03386549704421614
4.032571428571429 -0.8314978833855744 0.2948640847258756 -0.0004514538646208078 -0.00017029099576994938 -0.00015949365635908937 2.7061793889229313e-05 -0.9663193607082287 0.045226188269963635
4.033 -0.830987585579506 0.3011468278950535 -0.0006761778946392474 -0.00021262662527974911 4.9861089676072526e-05 0.00031942121722853357 -0.9646080918253307 0.046838018777598675
4.033428571428572 -0.8352696919465282 0.30984581540477857 -0.0005358863903454328 -0.0001520111430699564 -0.00033679474497040775 8.803106288325841e-05 -0.9631175675012936 0.04164572076371112
4.033857142857143 -0.8270151301240565 0.31704583600090824 -0.00048548054862536865 -0.0003327919553437736 -0.00012586180015233226 -6.825217973748772e-05 -0.9629964633461383 0.04398049682811068
4.034285714285715 -0.8185119713986051 0.32139570124213457 -0.0006024197891169165 -0.00028570818655211986 -6.370807857817956e-05 8.361625274760278e-06 -0.9652429525635207 0.04361863560462229
4.034714285714286 -0.8141742857413187 0.3330688741810161 -0.0007499161762625993 0.0001079121521691084 0.00022344344454747203 -6.376510491637581e-05 -0.967566242196772 0.052990349041319176
4.035142857142857 -0.8160269664482594 0.3366079523676963 -0.0010044204400275134 -7.003377760440802e-06 0.00040135823826876907 0.00014939408240376145 -0.9691190829673554 0.053944454624799104
4.035571428571428 -0.8081689392740293 0.3442684894314605 -0.0006893327283166529 4.5712731753533986e-05 0.0003249822451987304 8.865086391132595e-05 -0.9661583239891202 0.05583976404930628
4.036 -0.8056195564619756 0.3525003107812555 -0.0005231364361140987 0.0002451605634364882 0.0002787757536993993 -4.819673786405201e-05 -0.9685214058412934 0.05654859531899295
4.036428571428571 -0.8125349277343085 0.3530583558974481 -0.0005036935276639459 -0.0006399026700497268 -0.0003415113961678054 3.1297906270472156e-05 -0.9681185613688127 0.052591856776056656
4.0368571428571425 -0.8062713655391992 0.364735169856449 -0.000612489446503659 0.00036111927112017847 -0.00010390684410973663 0.00027355621617793395 -0.9703516496727729 0.054963823069215205
4.037285714285714 -0.7977408121733656 0.3729724340804808 -0.0010707690002331495 7.598921821715442e-05 6.257076829844155e-07 0.0002430434745736594 -0.962617580092561 0.05985355735570569
4.037714285714285 -0.7975170293199492 0.3717464165338387 -0.0003190698334379481 -5.2664002372688474e-05 -0.00033630675608661327 0.00018220873093855778 -0.9698283768157043 0.056306346579982736
4.038142857142857 -0.7931720390452726 0.3919368057711362 -0.0007462673862166263 0.0002653825321677122 0.00017861344677303246 1.767278486099041e-05 -0.96287367886672 0.06261765772861076
4.038571428571428 -0.792914246147623 0.3909290130091122 -0.0012307292557376345 0.00010476172348441299 5.738166371940921e-05 -6.127989396512662e-05 -0.9598798982259719 0.06734186043982812
4.039 -0.7898175864527639 0.39370568213987606 -0.0006892209402108492 0.000360274185898435 7.362215111415136e-05 1.1716357878669935e-05 -0.9600092520699549 0.06513836270376336
4.039428571428571 -0.7806840437082693 0.4111649585244868 -0.0008668145865322705 -6.474755718983161e-05 -6.190950957170717e-05 -6.691054102533072e-05 -0.9644774619367771 0.07119645958193141
4.039857142857143 -0.7844255459680929 0.4103181097814678 -0.0007658645950793488 0.0004366842460510943 -9.724525931816253e-05 0.0001762282159805618 -0.9702965654149031 0.07109714852875272
4.040285714285714 -0.779726877689702 0.410911147171896 -0.0004068254345071577 -0.0003160224900412033 0.0002204761157139604 -0.00024126485019445204 -0.9635616014090527 0.07378161246338208
4.0407142857142855 -0.7799474051103364 0.4249947917633167 -0.0005014880158296401 -0.00016268721402888195 -0.0003429296654192955 0.00010993320302351989 -0.9589402811367441 0.07715125178749513
4.041142857142857 -0.7670152008011476 0.4291764874158267 -0.0006314712961615168 0.0001353254250171875 0.00017384732584742937 0.00013886901933649013 -0.9697635711938718 0.08490969539881772
4.041571428571428 -0.7646493643922893 0.4349860561877206 -0.0007487448072407338 0.00033101554131042144 0.0001047516776654472 0.00019087617355957812 -0.9633839217678093 0.08320953309529246
4.042 -0.7626275100518496 0.4454509297910981 -0.00031413950477668574 0.0005185003163407616 -2.3804435220895575e-05 -2.9852840047040438e-05 -0.9627438884815217 0.09058274509213239
4.042428571428571 -0.7575893166670424 0.4473717445878153 -0.0003916047788850706 0.00031621474506090673 0.00024556404270524 -0.00020369680575317245 -0.9589929911212794 0.09030645124889895
4.042857142857143 -0.756377185694287 0.44459286931825 -0.0004251776754014825 0.0004577098239090342 0.0004420727761877896 0.00029698919153089726 -0.9635168845579767 0.08867649671676313
4.043285714285714 -0.7504098863468729 0.4627097423284427 -0.001088551550269742 -2.811436678742119e-05 -6.116685839893005e-05 0.000204117539363521 -0.962676174033658 0.08626089092433482
4.043714285714286 -0.7453239061563206 0.4638556169900961 -0.0008852605000916801 0.0002276792150994811 -0.0002747797004177342 3.833092979462783e-05 -0.9668135958343702 0.08359392376235919
4.044142857142857 -0.7437736584504323 0.47384670388128397 -0.000713308008728407 0.0002697054506595773 0.00017344981254490674 0.00021565285787550513 -0.9638240944480027 0.09779474602052891
