!Created with skrf (http://scikit-rf.org).
# Hz S RI R 50.0 
!freq ReS11 ImS11 ReS21 ImS21 ReS12 ImS12 ReS22 ImS22
4.0 -0.8351075944934734 -0.2552360009996803 -0.000503418251157279 -0.000652769284815913 0.0003517330354459437 -0.00015375704535767885 -0.9631936500168592 -0.13020183186804057
4.0004285714285714 -0.842789943426072 -0.2474376261562844 -0.00010000913059985321 -0.0004062422925868394 0.00010067685219210513 -4.10907959695703e-05 -0.9730510565680234 -0.12213086498757218
4.000857142857143 -0.8459485753083492 -0.23846462253084122 -0.000318696827058131 -0.0005441270525132428 -3.438244864113101e-05 -0.00022615072250808496 -0.9663720272562092 -0.11597049081258003
4.001285714285714 -0.8390451013144113 -0.2319841572710545 2.7560708766595362e-05 -0.0004040558287363759 -0.0001471912573856572 0.00010183341142250381 -0.9647006661442613 -0.11566607275898955
4.001714285714286 -0.8473164635830084 -0.2250669658798242 6.853328389523167e-06 -0.00045903688974275366 -4.115787304084061e-05 0.00014729424510826687 -0.9665106686823718 -0.11928199936331246
4.002142857142857 -0.8444731978592248 -0.22530127954437046 -0.00022451602072776078 -0.000348031746311775 7.789901909051962e-05 -8.902441394550776e-05 -0.9669423321845387 -0.11129796910016346
4.002571428571429 -0.8476038936762724 -0.21402366889092386 -6.474745679342331e-05 -0.0007337658752798056 0.00027016424556996284 0.00017271277302622606 -0.9688325695797694 -0.10631516787493711
4.003 -0.8523664858798933 -0.2025293033593839 -0.000266983148184311 -0.00029200599977347383 0.00012912947906218002 -0.00014513261031969086 -0.9696152389976219 -0.1042487486734483
4.003428571428572 -0.85456532357974 -0.19969975708519372 -0.00019472572444396882 -0.0001994884746899772 0.0001248438111285657 -6.242341395404428e-05 -0.9628283314665915 -0.09782418143607717
4.003857142857143 -0.8510804587523266 -0.1919887042343153 -0.0001619043699689051 -0.0004377989080045936 -8.846114480467389e-05 3.200566212028623e-05 -0.9711326355768511 -0.11034777809007919
4.0042857142857144 -0.8618934964824472 -0.18450257960696406 -0.0004990066010105385 -0.000530386907319021 2.5520005058388844e-05 0.00021870819362405664 -0.9667516794386366 -0.0996289061692019
4.004714285714286 -0.8572888790690149 -0.1754259696159181 -0.00046222904964689866 -0.00041221440190401977 7.311079444414733e-05 0.00018163113110165698 -0.9622776595605026 -0.10847435550424675
4.005142857142857 -0.8595583005334879 -0.16744510880273356 -0.0003767218144230695 -0.000375886295323973 0.00046614592311104274 -0.0001146424511379601 -0.9677635557115992 -0.09622347984466056
4.005571428571429 -0.8602193062492516 -0.1615855097753017 0.00013059824254727236 -0.00040148391528068957 6.286456215759847e-05 1.1365056221944974e-05 -0.9608806755458709 -0.09571794547818764
4.006 -0.8642629529934261 -0.15853415623482273 -0.0003635751857807782 -0.00027150890409082115 4.923215220255143e-05 0.0004690473757267568 -0.9703465262649654 -0.09282033591089237
4.006428571428572 -0.8629143797937111 -0.15276488228792687 -0.00022331300435616508 -0.0008691904403439482 3.8463471284190554e-05 8.753980911471798e-05 -0.9683660229732838 -0.09377651383522205
4.006857142857143 -0.8663248501167037 -0.14090916101674328 -0.0002717276583021809 -0.0003887261576286555 5.667324186473785e-05 -7.655197914546758e-05 -0.9650081092212087 -0.08585124743400728
4.007285714285715 -0.868923917313145 -0.1348280320950272 -0.00028225093023235247 -0.0003511842247275641 8.341172103047382e-05 -5.005108989618219e-05 -0.9691506038592032 -0.07882259317275776
4.007714285714286 -0.8662279050227941 -0.1290321481027216 4.440452749403215e-05 -0.0005121361648289578 -4.532708307672938e-05 -5.733384519205242e-05 -0.9636666790899465 -0.08293652669757835
4.0081428571428575 -0.8684333807050364 -0.12462155041797043 -0.00019485797338891872 -0.0001978245076578494 -7.878094833226806e-05 0.00023723893100392306 -0.9692501833827735 -0.0876420781080147
4.008571428571429 -0.871290485269582 -0.1133504295796061 -0.00057728888034327 -0.00023816686275222472 0.00024509499035029294 -9.148644905228262e-05 -0.9647916064258372 -0.08026628704426317
4.009 -0.8734697173740174 -0.10753604708964112 -0.0007337665710994313 -9.092733028239779e-05 -0.00042513552142206567 -0.00016114725680317984 -0.9751672854687552 -0.08354277473209588
4.009428571428572 -0.8692964144634704 -0.10359412852023811 -0.00025040737816466876 -0.00040235261232198275 0.00023084037131406533 0.00011063816291447892 -0.9755655657684177 -0.07475331052643443
4.009857142857143 -0.8734403320052461 -0.0926699091243594 -0.0002898083734167493 0.0002669984210325502 0.00026685441966820906 0.00017641759250527315 -0.9672508584963116 -0.06939954401233511
4.010285714285715 -0.8758958497615935 -0.08682936382391435 -0.00021989744471704624 -0.0006389525294475368 -0.00015851510497380116 0.00016498279239470786 -0.966139765045546 -0.07318092442498991
4.010714285714286 -0.8735609847782431 -0.08077404920380948 -0.0007852922093642461 -0.0007160097790487475 5.9934497860699795e-05 0.00015023296958024076 -0.9688978613656022 -0.07214384437753234
4.011142857142858 -0.8706704398362347 -0.0756056950372394 -0.0005850784336178308 -0.0007299425368657712 0.00022819699002608947 3.2606459339468635e-05 -0.9684201881431 -0.06542393520724259
4.011571428571429 -0.8717830146169573 -0.062790094545134 -6.914443496623104e-05 -0.0005821772945127389 -1.0443222039368005e-05 0.00029081664027048724 -0.9722909524647261 -0.06538262112628637
4.012 -0.8756624893175152 -0.057306835338113225 -0.0002445037971000297 -0.00039826911350809705 2.2406462689852065e-05 -1.0586379567660997e-05 -0.9763689198963618 -0.06113468496294783
4.012428571428571 -0.8739275947321798 -0.04921544845975789 -0.0007928148296369972 -0.00034119762446491755 -0.00030301442075315394 0.00019433063952091638 -0.9626568940068738 -0.05431293925665165
4.0128571428571425 -0.8816412986007525 -0.04053956823082716 -0.0006292374058144412 -0.0005382006064122884 4.6744835267828026e-05 8.991208332123438e-07 -0.9648629244867521 -0.06335785605516361
4.013285714285714 -0.87064197626142 -0.03743530555563525 -0.0003651525056452367 -0.000425358336692782 1.2944858344298402e-05 4.2060986977689186e-05 -0.9637146079802914 -0.057348386692453054
4.013714285714285 -0.8733839316246148 -0.02764591917279567 -0.00018639609016209407 -0.00040737372060022087 0.00016654285551092254 0.00018858529495225846 -0.975537594238079 -0.0523661123344437
4.014142857142857 -0.8735807090964053 -0.01895884987872207 -0.0008816605934273336 -0.00024806464563123016 9.319252606280158e-05 -6.110570697552741e-05 -0.9706878138748553 -0.04605671563054181
4.014571428571428 -0.872902614870707 -0.01637928941688833 -0.0005251729359409994 -0.00011625314622880172 -3.241069602524995e-05 0.00016275821150384316 -0.9693717705897656 -0.0521498476416166
4.015 -0.8823709528406933 -0.0040172423421730285 -0.0002756287809277048 -0.0001571794639623102 0.000194859632962839 1.2531620664333692e-05 -0.9665694580816924 -0.05076664130612345
4.015428571428571 -0.8792006140256221 0.004762168899113785 -0.00012162336248712335 -1.1732348246581698e-05 0.00013551169677769663 0.00018200027203702675 -0.9728118332854417 -0.04958608639270771
4.015857142857143 -0.8749789949755581 0.009834865112175808 -0.00023381063867243006 -0.00029268717137362864 -0.00020928438010491728 -0.00014742415942098382 -0.971290859433733 -0.04703120277495841
4.016285714285714 -0.8757820227597746 0.018273989511191125 -0.00023280896636806352 -0.00045877390781545746 1.2992362055849072e-05 1.7462713557957286e-05 -0.9650592960052501 -0.04152002339716079
4.0167142857142855 -0.8773060598759788 0.022564066465173747 -0.000836112680317311 -0.00047722937115674604 5.725475018370181e-05 3.496989566168503e-05 -0.9638498591750305 -0.05071133680716328
4.017142857142857 -0.8727553102174227 0.03329060132754526 -0.0005466025091176795 -0.0003125998572817365 7.654147886496463e-05 0.00016561374395688327 -0.9612142290809078 -0.03918071538286883
4.017571428571428 -0.8765961346213332 0.036634245982600545 -0.000580885970696605 -0.0008192293154829115 7.843217608692916e-05 0.00016164144967485987 -0.9727533042538461 -0.04276118464317364
4.018 -0.8738093817146098 0.04236853270178522 -0.0005783536555764149 -2.7708891156867243e-05 6.832195622679963e-05 0.0002743254512667239 -0.9685184668730068 -0.037931604186736266
4.018428571428571 -0.8777860682697466 0.05321743382613918 -0.00040116649920091563 -0.00016224666142021784 -0.0003001045282145931 -0.00011370446506199738 -0.9707983699576311 -0.0333654101048368
4.018857142857143 -0.8680700950196302 0.06269995041043631 -0.0004653549262563455 -7.284570899834571e-05 -7.292991518688144e-05 -8.814284286792476e-05 -0.961808631335302 -0.02608809376740151
4.019285714285714 -0.869029833910467 0.071783667744386 0.00020516055234170522 -0.00042994912565182635 -0.00021000201563890463 8.544048543800474e-06 -0.9714508824255292 -0.028748214219459903
4.019714285714286 -0.873706241024741 0.07816023911919111 -0.0005256441186343649 -0.00037512701509077135 9.484924156884217e-06 -0.00018958732275798905 -0.9649425913576428 -0.02846555945424517
4.020142857142857 -0.8728563249402748 0.08286751652925307 -0.0006733645382069783 -0.00033917765546571363 0.00019170744575636758 0.00013352808460365644 -0.968791603521351 -0.023908518536869972
4.0205714285714285 -0.8717060248659165 0.0968555515442637 -0.000575990509505706 0.00019095003057837025 0.00020001080203105778 2.057953416308916e-05 -0.9694763508783507 -0.027082160272234132
4.021 -0.8691628336853475 0.09667317091317033 -0.0006332190287371839 2.6008563806071626e-05 -0.00010390622681329878 -0.0001443035845722091 -0.9672613232684225 -0.02004167904779427
4.021428571428571 -0.8689564256650256 0.10804372985380245 -0.0005043468882818717 0.0001227169243581572 3.0898267799933584e-05 -2.6373303763613126e-05 -0.9702971410984591 -0.01957113715372774
4.021857142857143 -0.8706093067501522 0.11114688408784439 -0.000346372807123397 6.275583879522587e-05 0.0002319504755120968 -5.679501157449672e-06 -0.9663622177570927 -0.014601693278563992
4.022285714285714 -0.8608113514863797 0.11358906646030974 -0.00015620918173801874 -0.00030868923725811285 0.00012615902240250643 3.5793904505139266e-05 -0.9772915250407334 -0.010484563740708244
4.022714285714286 -0.8689812907403459 0.13194363528067693 -0.0008092355548267026 0.0001029825296408874 -0.0001540360680706381 0.0002258223164919289 -0.9647319932938675 -0.012808375072818819
4.023142857142857 -0.862583930134168 0.13524737691187058 -0.0007592772450953617 -0.00011821378118610528 -0.0001694522129598495 0.00034709182681305433 -0.9677657508466186 -0.005525153137746784
4.023571428571429 -0.8657604510207119 0.13727641182566316 6.210449232343918e-05 -1.9528386808990313e-06 3.9528706703386984e-05 4.352255937853547e-05 -0.9632479905551538 -0.006100901064887858
4.024 -0.8585323103687779 0.14727641794939278 -0.0007507764769126693 -0.0004278779447707499 4.2623682328618745e-05 -0.00033681141070035335 -0.9706165666778419 -0.008715683784753845
4.0244285714285715 -0.8616887399003783 0.1525137932177085 -0.0003699881709613121 0.00031433128685639774 -7.753056743761864e-06 6.216322414381354e-05 -0.9703925339294001 -0.0013462878799566126
4.024857142857143 -0.8624400621888568 0.1660793367798944 -0.0003772637212659063 -0.0004162264022267015 4.2173038172975364e-05 0.00016706210471709656 -0.9669685598660892 -0.0006752545341396986
4.025285714285714 -0.8611758571190535 0.1728136042229015 -0.0005158390392643889 -0.0005111316589438664 -0.00022583523663802446 0.00038338555697730225 -0.9665710192339271 0.003050869304224932
4.025714285714286 -0.857647301768298 0.17822494383249113 -0.0008405432947788746 0.00010027628444830568 -0.00018574919832779207 -0.0001373660197953297 -0.9742665462608185 0.0098451632203165
4.026142857142857 -0.8623327915066973 0.185680566984242 -0.00047311883953268346 6.084400441254579e-05 0.00015691052316839024 8.974967983217148e-05 -0.9688247081743105 0.003161663473041929
4.026571428571429 -0.848078584933382 0.19311224459099427 -0.00019117026698572563 0.00016340469550527663 -7.344250268175239e-05 -0.0002744822962581397 -0.974791159868915 0.008137781998666662
4.027 -0.8520774795798322 0.1985049528330682 -0.0003181945382063148 8.744381238873233e-05 -0.00013649239371405967 -0.0001277921961765584 -0.9703427274250743 0.005658092077663909
4.027428571428572 -0.855597589901279 0.20290904478926286 -0.0002822224551845844 0.00015203411742134053 7.802686108698327e-05 -0.0001465148665648705 -0.9675591678835919 0.01681666896973639
4.027857142857143 -0.849911557004242 0.20842552266419576 -0.0008055724625136697 6.61554488212462e-05 -0.0001948916973432546 -8.470538493345747e-05 -0.9732264246218808 0.012774522228333612
4.0282857142857145 -0.8486961347412604 0.22383802813296225 -0.0007049184071743205 -0.00010244218105637916 3.654228048422107e-05 0.0002904355707621079 -0.9694178550021063 0.02371564293603112
4.028714285714286 -0.8537211838246277 0.2224768773259924 -0.0008367195776936471 0.00017318025329499337 -8.485797109280212e-05 0.0002127408179675377 -0.9712545729667571 0.014628910616995087
4.029142857142857 -0.8470745890226467 0.23520304211509072 -0.00018541571851687444 9.73740229188601e-05 0.00010987250011014645 -6.801843935770617e-06 -0.9670908468672414 0.024469483204268425
4.029571428571429 -0.8457283027604965 0.23971698515429463 -0.00010267446463363051 -3.433595938036772e-05 6.505229577236825e-05 -9.657732765309569e-06 -0.96453812311721 0.02294349555443122
4.03 -0.8397966892517991 0.24472390767655464 -0.00030762035194822917 0.00026897294794702635 -0.00029918920175522385 0.0001974066699497593 -0.9748764689253601 0.03316543496990653
4.030428571428572 -0.8385643517680681 0.25430997673991224 -0.00016587896156790543 4.773745012537993e-05 -0.000196574272369986 -6.598282773334726e-05 -0.9689695331139708 0.02939242820971636
4.030857142857143 -0.8402845010105388 0.2599105143475947 -0.00034180593853125606 -0.00014681889418476324 -0.0005002130508773754 0.0002088005989124874 -0.9699437075754654 0.022840982228938638
4.031285714285715 -0.833642105748029 0.26764651917072646 -0.00035505478921135533 -5.0161790736887064e-05 -8.513722128722786e-05 3.2686933066890535e-05 -0.9658053447658728 0.035369628183108535
4.031714285714286 -0.8300377754044375 0.27048056495870676 -0.0004308174336294526 -2.765907103401669e-05 0.00035016676162591686 2.1427357923272418e-05 -0.9644032865863308 0.022664195936448632
4.0321428571428575 -0.8263590790276822 0.27982687516334265 -0.00033106015911659375 0.00018037668004793804 0.0002096726431339741 0.00033853378114985516 -0.9711933328414841 0.034795530534743276
4.032571428571429 -0.8278493175729909 0.2867879004125555 -0.00047809222426545576 0.0002281032117416564 0.00022245266051195204 0.000350957973758766 -0.9662528127836082 0.04496189186583648
4.033 -0.8251933156950724 0.29422302553771024 -0.00025096392378686015 0.0001659190169282587 -2.7760636256254556e-05 6.238346422118023e-06 -0.9662540194878134 0.045174062019707056
4.033428571428572 -0.830902210331415 0.30169385890858735 -0.0005554563373890727 0.00045634749067424187 3.40398781525117e-06 2.7848075970481918e-05 -0.9640104768811987 0.039360218827487546
4.033857142857143 -0.8219084585983032 0.3079295993916501 -0.0001704372770244396 0.00012759658339871373 -0.00012154830092500156 -0.00010282420265527103 -0.9617041498673856 0.044320550077794556
4.034285714285715 -0.815331083121636 0.3123208887720019 -0.0003222158276376781 0.0004885053436557914 -0.00022000785686839445 -4.57124057615569e-05 -0.9657516346863474 0.044129662013554234
4.034714285714286 -0.8091534362856394 0.32495554363194645 -0.0002988203904255769 0.00024130319539229195 -0.0002056451893771769 0.00021119993191497167 -0.966505224667163 0.05206974253928698
4.035142857142857 -0.8119044974347992 0.3274548688120137 -0.0008128216798266658 0.000415797141724086 7.986765818100498e-05 -0.0002667237051858481 -0.9683782028490375 0.0521701672154146
4.035571428571428 -0.8051711593299706 0.33612082062039106 -0.0005291767109436509 0.00033453924644067626 8.133909319093107e-05 3.1700953938555384e-05 -0.9652856131101923 0.056433734939068295
4.036 -0.8022429240251912 0.34670675178186183 -0.0004927321023281093 0.0001251246186665519 6.809820738199748e-05 -0.00010493170087904155 -0.969986114117803 0.058625617969396276
4.036428571428571 -0.8114039427917186 0.3438494505319839 -0.0006714452644073904 -0.0003033469771835768 4.380818478193561e-05 5.688932392233278e-05 -0.9678241458045106 0.05051420460401553
4.0368571428571425 -0.8025967069155212 0.3556799989089383 -0.0006483027125378714 0.0006421709490445233 -0.00019606246792354347 -6.30814342428637e-05 -0.9706309756240981 0.05486306361779451
4.037285714285714 -0.7955224772394682 0.3614441119520787 -0.0006280529453678395 0.00016968254548399304 0.00012870251585694477 0.00015975941614737265 -0.9633373014224811 0.05980524294086759
4.037714285714285 -0.7930902100316904 0.36330849996853143 -0.0005129942917777402 0.00024990471373618155 -0.00025387617567959933 -6.138113976994703e-05 -0.9710421429060849 0.056432150527649404
4.038142857142857 -0.7886445208652826 0.3821787038479217 -0.00041065571608331797 0.00011063088233900166 -0.00013638450581412501 -5.229067048650763e-05 -0.9638929058120537 0.061260329409011036
4.038571428571428 -0.7913021411154163 0.3823480579348508 -0.0005612270935033057 0.0004627368218490422 0.0002467497098710642 5.6022706011554205e-06 -0.959544431007684 0.06531347958641975
4.039 -0.7849735426262163 0.38497496974247997 -0.00023384193228210222 0.0003032835647283513 1.931948321791131e-06 -0.0003735490892773188 -0.9584231772814915 0.06538830624776683
4.039428571428571 -0.7795844432931143 0.40271116425235476 -0.0007785067354461874 0.0007082607850508726 -2.6738216618409737e-05 -0.00024278955540524614 -0.9637443856665436 0.07011034694972729
4.039857142857143 -0.7816924407192112 0.402117686783622 -0.00042974349673187006 -2.0567909458896296e-05 0.00030728816876163955 -1.5324635679441964e-05 -0.9694403823043114 0.07317603256915581
4.040285714285714 -0.7769507118152061 0.4015233406566644 -0.0005846536856138893 0.0005760266603428495 -0.00017265587953304215 -0.00019159379346136082 -0.9629697112421076 0.07527698650794995
4.0407142857142855 -0.7763679001318642 0.41559971156574005 -0.0006569231444393552 0.0006419706129393415 -0.0001350897248810118 -5.635099176957776e-05 -0.9589497207068945 0.07722035381924852
4.041142857142857 -0.7661364816371465 0.4183885498401552 -4.5866608775134515e-05 0.0001600286086115617 -0.00018130042968003595 -3.5766941325546614e-05 -0.9697052359031177 0.08626578815829064
4.041571428571428 -0.7614742844200344 0.4252438718478007 -0.00046154915093195976 0.0004393378596531657 -0.0001890848968231101 -3.184695531623547e-05 -0.9665735256274164 0.08271444344347458
4.042 -0.7589201544985167 0.4352072788796876 -0.00016018904019392564 0.0005800335872905104 0.00026559649393575975 -0.0003465066925414197 -0.963324939545687 0.09179177399561304
4.042428571428571 -0.7543734231007487 0.4399482667826967 -0.000495494792953675 0.00026328074120020675 0.00024819029338416496 2.8477466874028223e-05 -0.9593727610134274 0.09371828154593245
4.042857142857143 -0.7524303599131029 0.4359663049123012 -0.0005091939061343391 0.00026592575661091127 2.002072973906523e-05 0.00032691028299690415 -0.9658982881608069 0.0879390861002971
4.043285714285714 -0.747558902395702 0.4527587249911633 -0.00022969659462998167 9.700672151365413e-05 -5.8784022147039877e-05 4.22177565823406e-05 -0.9648200814617206 0.08415848643938806
4.043714285714286 -0.7413471527293075 0.4558002748445697 -0.0004719724761403725 0.00012911860039748762 -0.00013324353800533533 0.00016921420120899683 -0.9665635796852234 0.082889121677286
4.044142857142857 -0.7419326339219557 0.46474824761122485 -8.622487480391914e-05 0.00039176628339599747 -0.00015341560721502244 3.360494652659828e-05 -0.9629522614927338 0.09881307708188865
