!Created with skrf (http://scikit-rf.org).
# Hz S RI R 50.0 
!freq ReS11 ImS11 ReS21 ImS21 ReS12 ImS12 ReS22 ImS22
4.0 -0.8409900695488286 -0.24889476680966577 0.0002522905298856109 -0.0007518025473379664 0.00031371682481929226 -0.00010702296980978058 -0.963886018293545 -0.13019660897015928
4.0004285714285714 -0.8489551418559309 -0.24347680548017595 -3.624475954443705e-05 -0.00034837901631245985 -9.980262320020077e-06 -0.00022213736276055433 -0.9718213322520366 -0.12321870925410676
4.000857142857143 -0.8524582239541512 -0.23313117171513018 0.0006760763579391361 -0.00035337065769878176 -0.0001283648159556313 6.196295240160619e-05 -0.9664055294251854 -0.11562369227426175
4.001285714285714 -0.8464525227540793 -0.22829751945074261 0.00021953887475739976 -0.0001147555938698506 0.00018857590538928242 0.00011124752215415538 -0.9642723227532263 -0.11526374845004396
4.001714285714286 -0.8528241461338849 -0.22148989861405627 -0.00032659221737307706 -0.0005419858637453137 -7.829851336614043e-06 5.718994365157666e-05 -0.9664134416065491 -0.1212845459276084
4.002142857142857 -0.8524400766784075 -0.22006417162492375 -5.7013676814339414e-05 -0.0006430671918797441 -0.00011015033396192038 -0.00015609754656410222 -0.9634379560086148 -0.10988973713769132
4.002571428571429 -0.855080874219856 -0.2120490461720076 0.00018037153832332095 -0.00040956802134609353 6.095543197467937e-05 -1.895087345674157e-05 -0.9705206891157467 -0.10572580421431056
4.003 -0.8599882311573878 -0.19832120455092173 -5.27258837744026e-05 -0.0001709121117202158 0.00020829119125372603 0.0001398598258395931 -0.9696740823296482 -0.1048086805719633
4.003428571428572 -0.8622239400922249 -0.19545332079287756 -0.0002238430251163567 -0.0008237689434652635 0.0001417928498069156 -8.014352233268949e-05 -0.9627036203168677 -0.09907251130955175
4.003857142857143 -0.8571165216490341 -0.18715652968554536 -0.0001415834167946349 -0.0005136996654331259 0.0002526137707883919 6.804501225679484e-05 -0.9712475362254073 -0.11074347788808427
4.0042857142857144 -0.8678140521010494 -0.18013251019030305 -0.00012051200973235541 -0.0003095652833718823 0.00015132609593972236 4.482245759190196e-05 -0.9661381936725681 -0.09935904684751533
4.004714285714286 -0.8648064714909963 -0.17106397156273773 -0.0001273109349832331 -0.0007057285739361813 0.00011294691055545687 -6.693179952367929e-05 -0.9604233854368727 -0.10793713929765773
4.005142857142857 -0.866054126592632 -0.1625789025841069 0.0002063380840789504 -0.0011067634086100746 -5.95464072236025e-05 -0.0003323812459104863 -0.9701951293958851 -0.09521866507192867
4.005571428571429 -0.8665597581783049 -0.15477927257352594 -4.651425216212958e-05 -0.0003127868081725837 4.940222080960957e-05 -4.0818583247170966e-05 -0.9605633852924004 -0.09583943204630675
4.006 -0.868792970229121 -0.15407030598750285 0.00010745706161461316 -0.0006820112160114966 -1.1561897439408388e-05 -0.00021206496949245532 -0.9703123364065704 -0.09269855092603205
4.006428571428572 -0.8695898907147271 -0.14816550208190007 -0.00027059417013186886 -6.388901936392936e-05 0.00018847766310801199 -8.630769737137019e-05 -0.9669897260074364 -0.09278999063638001
4.006857142857143 -0.8738247380583243 -0.13576491372888305 -0.00011481935512120248 -0.00016374510616014824 -0.00034256173657895274 -0.00015503652026526758 -0.9654707564273048 -0.08645799150159683
4.007285714285715 -0.8774729701704569 -0.12993825888580088 -0.0003665928239865964 -0.000776881850008638 8.325839453678819e-05 0.00018005132140796055 -0.9687836216528284 -0.07960321218225969
4.007714285714286 -0.8734031640189339 -0.12204239454458099 8.032120295657546e-05 -0.0005607857207048818 -2.9941268301467493e-05 -6.0836691960337457e-05 -0.9617778128708893 -0.0853976002044804
4.0081428571428575 -0.8752293419496139 -0.121107840978309 -0.00018331925888209633 -0.0007413414353676334 0.00011104671084285998 0.00014668912206675441 -0.9676783941164335 -0.08789916059806357
4.008571428571429 -0.8789593349174721 -0.10733661743822376 -8.444825823402337e-05 -0.0007338823737745279 -0.00031589542550473877 4.545923341926853e-05 -0.9638213969270625 -0.07721638384272649
4.009 -0.8781835572634744 -0.10294024785736346 -0.0002086558037734795 -0.0004700204716868721 -0.000303118121637157 -1.848611685401446e-05 -0.9751547630562825 -0.08424762629879036
4.009428571428572 -0.8770130709130811 -0.09912205627037725 -4.163445104063504e-05 -0.0006070940931202415 -5.057551806344413e-05 -0.00035469784693245934 -0.9759877616949972 -0.07400782882486247
4.009857142857143 -0.8799000793923533 -0.08746288824050304 -6.607054345919772e-05 -0.00016826366661041957 -1.4426276070816808e-05 0.00028687594144513406 -0.9664510697635096 -0.0692229156969384
4.010285714285715 -0.8804419971994951 -0.08109207217852503 -0.0003441568268105265 -0.0005067235766463843 0.00021824614350623883 4.399121956512922e-05 -0.9655522879148098 -0.0727403750458834
4.010714285714286 -0.8809607456153822 -0.07418624627926235 0.00014681329285583242 -0.000491180911358216 6.701773022844042e-05 0.00013248028708219843 -0.9693990613760399 -0.0701047744806717
4.011142857142858 -0.876302148357605 -0.07097513355829091 -0.00011947487881614276 -0.000456389536084412 -0.00012191325212696524 0.00010829701582601011 -0.9711288991472252 -0.06570230236003204
4.011571428571429 -0.8759698830595581 -0.05601526798841379 -0.00041998198405846654 -0.0005663706348464731 4.939395794167123e-05 -0.00013882872283799545 -0.9703112010561424 -0.06531071655418266
4.012 -0.8817591394501249 -0.05416222918387649 -0.00026516295643125325 -0.00021675188057751425 0.00020925102533723628 0.00014481785685460132 -0.975570670760359 -0.0635992575075447
4.012428571428571 -0.8785814471944257 -0.04443593421125864 -0.0008991639349349361 -0.0001229457750062392 4.877280824044362e-05 3.432719944914349e-05 -0.9623561179501428 -0.05663815675202612
4.0128571428571425 -0.8855325181322998 -0.03479872176049987 -2.2791813735971197e-05 -0.0007126187383191796 -0.00044104985314195736 -4.728212262184824e-06 -0.9652198653264672 -0.06295520535350511
4.013285714285714 -0.8758083422307272 -0.029606531716226545 -0.00016979421262845675 -0.00010919930736375391 -0.00024266947252949328 -0.00027956371260290375 -0.9632289572548342 -0.05775543912867628
4.013714285714285 -0.8803780596771569 -0.022407881698528545 -0.0005800911925370067 -0.0008340736255771865 0.0001285980788588185 1.2735454577936605e-05 -0.9753946322295921 -0.05197451710589991
4.014142857142857 -0.8794892473374141 -0.014457589486350191 -0.00020570208087150653 -0.00023726780664034354 -0.00018384406983960205 -0.00021898774923545788 -0.9710372465781798 -0.04571719662696171
4.014571428571428 -0.8786549394754349 -0.011000859973342863 -0.000179182631817074 -0.00054814097048256 -0.0001268572266272127 0.0001729723651298402 -0.9691052290942055 -0.05028574092964124
4.015 -0.8855513118738749 0.001295936917281498 -0.0003371726893793672 -0.0006209243538804975 -3.502487712148628e-05 4.93916811504738e-05 -0.9661928258107585 -0.05034444343071967
4.015428571428571 -0.8832185024830347 0.011023701531522968 -0.0003848409894501425 -0.0006011663942196879 -0.00024984023850572004 -6.178975728146016e-05 -0.9725856058067108 -0.048282069284735815
4.015857142857143 -0.8820754031089975 0.018833643429644286 -0.00011689059848425757 -0.00025982813301144624 9.433382605912393e-05 -0.00018511846687052576 -0.9704161776460737 -0.0467667603651392
4.016285714285714 -0.8800477910267085 0.023654079766649343 5.2214805460742746e-05 -0.0006043783758541188 -4.229015962066566e-05 -2.2925155099279728e-05 -0.9655918356767661 -0.041293163153239366
4.0167142857142855 -0.8812901359430111 0.02950474534070588 -0.000204317728630697 -0.0001273705546886549 8.027924808850485e-05 -1.435303015096169e-05 -0.9646188808087565 -0.04982824294035604
4.017142857142857 -0.878958203935647 0.038117863471027115 -0.00033529478437396897 -0.0004121118514322582 -0.00013618428420503282 -5.0544619471813495e-05 -0.9615897241347822 -0.040958876016295984
4.017571428571428 -0.8819985575434965 0.0422774805317431 -3.652141530729095e-05 -0.00011437903593866269 9.702416752601102e-05 -3.291283768910436e-05 -0.9739949470872559 -0.04039687424176302
4.018 -0.8775097400604851 0.049978517134049064 -0.00020905638825727377 -0.0007139584357928932 -6.728982889298445e-05 6.268932388177876e-06 -0.9682983814889657 -0.03876811861486754
4.018428571428571 -0.8823426101519452 0.058412880757169335 -0.0003275110362487834 -0.00040793307836548915 7.997193520573457e-06 0.0002199127592482814 -0.9719405268237753 -0.03377733049992992
4.018857142857143 -0.8754138699452408 0.06730194377174216 -0.0006439010303252117 7.863884041861739e-05 0.00018411640745023266 9.179925104383238e-05 -0.96201844836918 -0.026316704371116596
4.019285714285714 -0.8734488133496322 0.07767627297302823 -0.0002880548440467355 -0.0007477884012640744 0.00026424053203056295 0.00022278097423584099 -0.9710507682328328 -0.027816934204504224
4.019714285714286 -0.8790224915483207 0.08416089015145568 -0.00039489585086781114 -0.0005549430594743569 -0.00018223542700244517 -0.00029763624146986385 -0.9662280637340814 -0.027309472557339
4.020142857142857 -0.8769578096925569 0.08722228366537357 -0.0003160631682621653 -0.0008134221328575424 0.0002446442839712206 0.0001293513732283784 -0.9674559910314945 -0.022935718573574206
4.0205714285714285 -0.8764230344668608 0.10300066621853694 -0.0004771072362838036 -0.000360008653234308 -6.132474992251334e-05 5.31097916369708e-05 -0.968338914150583 -0.02519740688381629
4.021 -0.8749932012038582 0.10251137189472048 -0.0002254367735331629 -0.0005283942786252766 5.58986614292794e-06 -5.954659838417395e-05 -0.9653344887183863 -0.020058830669271627
4.021428571428571 -0.8745272866568408 0.11440616360170232 -0.0010507871705910568 2.7954896815860093e-05 0.00021127329439151854 0.00012551438672156278 -0.9683684688073011 -0.019825786208361822
4.021857142857143 -0.8749200886046166 0.11630530005378116 -0.0009938129562842928 -0.0005601401931573314 0.00016083303688552413 6.035897556946425e-05 -0.9665632946396405 -0.0144134297046201
4.022285714285714 -0.866895687095762 0.1210984704087524 -0.0003069135998394461 -0.0005049744489533488 -4.136524531261393e-06 0.00025498083255078637 -0.9737747571932203 -0.009056929308070635
4.022714285714286 -0.8711501017686507 0.13665205239596087 -4.1787157107200755e-05 -0.00022085653993751507 0.0002236110954744684 2.9396198489427373e-05 -0.9659389851977366 -0.01317753067138666
4.023142857142857 -0.8684284600024351 0.14150229349595178 3.699058727961309e-05 -0.00011158001570420565 -0.00017408493315252343 5.45184909844046e-05 -0.9653710934699025 -0.007409302632371037
4.023571428571429 -0.8717399935669512 0.14183540764614214 -5.879573959603461e-05 -0.0005032635816512709 -0.000345823579913835 -0.000136502745704907 -0.9621953913521251 -0.0033578518497110786
4.024 -0.8641551343983892 0.1552873102530579 -0.0007240971479504688 -0.00026919102003965733 -6.917078741809648e-05 -0.0002899401310583957 -0.9694164781567308 -0.00729338240226392
4.0244285714285715 -0.8669105363730375 0.15993947221752405 -0.000847181503511987 -0.00017241827681269568 -0.00019174013133614484 2.4626011707056326e-05 -0.9686476016973339 -0.0023876115593232765
4.024857142857143 -0.8667455311932658 0.17057550883564593 9.607844012136227e-05 -0.00021797278862405214 -5.56151520298338e-05 -0.00021794331945769468 -0.967634942221255 -0.0013845384006879178
4.025285714285714 -0.8666328710943347 0.17942244821159437 0.00016339024056719005 4.111601693649202e-05 -2.1447362759284925e-05 -0.0001103746793574594 -0.966062354408259 0.0023996113452926003
4.025714285714286 -0.8646354785767134 0.18339104030401165 -0.00043352906396130196 -0.0007548416369772511 -4.809834916316402e-05 0.00021315130788558242 -0.976778316805347 0.008859659974295291
4.026142857142857 -0.8671658977185238 0.1931086726922115 -0.0003660479000882603 -0.0002734547018967162 0.00010477304884895981 5.7014036260567804e-05 -0.9687822995018751 0.0031183022771113745
4.026571428571429 -0.854234819913518 0.19952609472704536 -0.00046033165823826416 -0.0004147859359440796 0.00040986518184972173 -0.00040477275618234956 -0.9738047675350168 0.008352210301256283
4.027 -0.8566736624074749 0.20514533243557131 -0.0004983777750262591 -0.00046964509871031887 -0.0001227811596398475 1.484723636880296e-05 -0.9686313045335169 0.005338080311408602
4.027428571428572 -0.8589010096031365 0.20659412459900342 -0.0007907239111776033 4.784466177661812e-05 0.00014613834090007084 -1.0025118805470802e-05 -0.9665120739596785 0.01773115724721505
4.027857142857143 -0.8539151220590436 0.21588785852681788 -0.0006129234793985469 -0.0001642172069431178 -5.4049186135052836e-05 0.0001445710059869009 -0.973359131513417 0.012143696898305053
4.0282857142857145 -0.8529114033623627 0.23156912690646944 -0.000323882804291887 4.172701163789762e-05 -0.00046188057403291703 2.7261464391178255e-05 -0.9700458703492895 0.023165071915422355
4.028714285714286 -0.8570260774181865 0.22925441766043722 -0.0005053503124962071 -0.0004594107144666367 -1.3192730425664317e-05 8.621122226706857e-05 -0.9683389565105037 0.014634421053610423
4.029142857142857 -0.8512294448365755 0.24183866271066426 -0.000566242796504855 -3.731429369456157e-05 -7.167626057190266e-05 -2.2122280665314878e-05 -0.9666126055496693 0.023521561382809808
4.029571428571429 -0.8482165263796798 0.24474187968324282 -0.0006312978453571174 -0.00011956293978232476 0.00017342258917878842 0.00011707513875562674 -0.963400229395772 0.019612615919712396
4.03 -0.8431900556159864 0.2532919310283022 -0.0008617108800864544 0.00010343445744932007 -0.000161699202204704 4.073366153892419e-05 -0.9720883445244171 0.034292568300203136
4.030428571428572 -0.8433987078466626 0.2639855646594436 -2.3831714993063385e-05 3.488019908106984e-05 0.0002598906322393247 -7.171695383598603e-05 -0.9698402532540447 0.029199676654583676
4.030857142857143 -0.8442001053070445 0.266022365253265 -0.00012662526082455138 -2.1785731033060494e-05 4.372062976638685e-05 0.00010308026730130679 -0.974125351121023 0.023125880548063985
4.031285714285715 -0.8375251847390137 0.27462533847758264 -0.0005259708573755412 -0.00033640209963707986 -4.8438903822563795e-05 -7.230341206622842e-05 -0.9674651046080048 0.03349325904840678
4.031714285714286 -0.8324990159415139 0.2763127563227695 -0.0005540448529680638 2.3757205583706095e-05 -0.00020208558685703163 -9.173862658810135e-05 -0.9640079818067128 0.02619938712490852
4.0321428571428575 -0.830328872237592 0.28531784390960435 -4.5446732034427404e-05 -7.092194406485282e-05 -9.028221480493302e-05 -8.875662523718131e-05 -0.9738044607703189 0.03723784488596845
4.032571428571429 -0.8330829686384775 0.2944419540192544 -5.013440156382759e-05 -0.0003564889361758953 0.00011096788469665202 0.00031024928180063254 -0.9654915021016033 0.04534130690403715
4.033 -0.8316243214799636 0.300066234143344 -0.0001334910542526717 -0.0001595440279464158 0.00022787511897679673 -0.00010878926501785105 -0.9656638047346235 0.04670526864467033
4.033428571428572 -0.8351131376057832 0.3091111477141868 -0.00037982361997679543 0.00018951304891683576 0.0003751247617845602 0.00023138167908366182 -0.9625530609741472 0.038733265587855475
4.033857142857143 -0.8265196010542895 0.3159060809174044 -0.00011670489821226596 7.006481027514675e-05 0.00014177889154206528 -0.00030981012004474193 -0.9630948444940075 0.045510925600248935
4.034285714285715 -0.8193736331695307 0.31942236106658334 -0.0004384985491551853 0.0001259349245468648 -1.9048889122897674e-05 0.00010045927007087342 -0.9676386757333721 0.04239750821547108
4.034714285714286 -0.8125344250412576 0.33421034756177986 -0.0006908096435135949 0.00037948425749799333 0.00028873796243918326 2.8399558577552966e-05 -0.9644795240551195 0.051811512976700384
4.035142857142857 -0.8155197855975049 0.33642965590858687 -0.0007411773145820305 -0.00041818145171864356 0.0003161056450118473 0.0001987359855099575 -0.9681473376054854 0.05261812559442567
4.035571428571428 -0.8085454737697095 0.3429223644583225 -0.00017665614132267237 -0.00031172178887850006 -0.00022837807471210865 7.029051968246342e-05 -0.9656381297140278 0.05628865744041967
4.036 -0.8062706062819879 0.35274275847459424 -0.0002839019317530061 -0.00042623389648420456 -0.0001349071125267111 -2.8039410738346798e-05 -0.9699105937776967 0.05659717151550462
4.036428571428571 -0.8134723962231881 0.35108561792547754 -0.00036523708785732984 -0.00035469397401886903 -0.0002014332829838037 -0.0002961998448537169 -0.9674214564745722 0.05393971696510327
4.0368571428571425 -0.8062222848378622 0.36278196214802183 -0.0007893351905357202 -0.00020961777605171263 -0.0002397526231343 -2.28393333114564e-05 -0.9689652025124947 0.053543680654024775
4.037285714285714 -0.7989259091147677 0.36954498405889913 -0.0007809609782205207 5.11509193885841e-05 -4.155055534004759e-05 -0.00021036524925012446 -0.9633202661951029 0.058927864043291936
4.037714285714285 -0.7971947559605276 0.3715667729183843 -0.00043223991443008597 -0.00027031110524051695 5.8564738691174876e-05 0.00010324200498390162 -0.9708530170459503 0.05696504890576804
4.038142857142857 -0.7939477825943082 0.3907100544422857 -0.0005856921540365035 0.0003051894793269301 0.0003019557086038791 -9.40040882477141e-05 -0.9629442266314475 0.06168127358319776
4.038571428571428 -0.7940513996810658 0.3894467778510711 -0.00039052900324182063 -0.0003739326687647149 -9.096611670637622e-05 0.0001774654825902747 -0.9587906539138379 0.06618078173329575
4.039 -0.7879288819795861 0.39440392247312905 -0.0007953463022232317 0.00036275513768206733 3.822617959955949e-05 5.1660185262272886e-05 -0.9602992270805978 0.06468186725444112
4.039428571428571 -0.7810300833088608 0.4105082100669147 -0.0009538124323288433 -8.681888855356538e-05 -2.0320807802138642e-05 -0.00027392157147110904 -0.9653170712841463 0.0696714137422915
4.039857142857143 -0.7852774502269104 0.4081060495874282 -6.825997036779919e-05 0.0004196324505034067 2.626501506687756e-05 0.0003246327019580678 -0.9723729987019647 0.07038212725891102
4.040285714285714 -0.7817494457985004 0.4084518981566778 -0.0005435367283716562 0.0001582908027480231 -0.000208566017408247 -6.173376291598202e-05 -0.9619707113932414 0.07576382308029277
4.0407142857142855 -0.7803404692620928 0.42250848412553244 -0.0006140462172388645 -0.00037064820313412444 -4.897810728277765e-05 7.546999692569279e-05 -0.9586845796997702 0.0774526027645794
4.041142857142857 -0.7687961663667853 0.4265184036796343 -0.0008109905614996997 -3.4773595657205174e-05 8.732696967350501e-05 -0.00015981460482732265 -0.9682272672818281 0.08603185338955867
4.041571428571428 -0.7659218519070219 0.4336788050336161 -0.00017918117324116042 0.0005992154298514939 6.012860125709895e-05 -4.0559850427086034e-05 -0.9673615079972996 0.08461258556733568
4.042 -0.7640252195184766 0.4441609099084484 -0.0006011504005448876 0.00022134788967796785 -0.00021173025433420472 4.6497971510662e-05 -0.9613298611263578 0.09019467895859688
4.042428571428571 -0.7568693003943093 0.44609180617027155 -0.0005235642612197855 0.0007318211718249688 2.4211557846169122e-05 0.00010881626260607153 -0.9578032190556565 0.0924879883013442
4.042857142857143 -0.7572444889676423 0.44405038565511334 -0.0005517384183692073 -1.8260613013520606e-05 -5.5806795778856826e-05 -0.0003333534083316857 -0.9641363533745807 0.08894391058030868
4.043285714285714 -0.7518166679642555 0.46010470981374363 -0.00017751759023026888 0.0003602299609930598 -4.298146304230217e-07 -0.00045822453167381426 -0.9654030054933723 0.08657021611147286
4.043714285714286 -0.7442130801015602 0.46235854210992733 0.0002170412395923464 0.0005574214443028358 -7.309987568426785e-05 -2.7617396994827593e-05 -0.9678623374085472 0.08339175088228502
4.044142857142857 -0.7434933702931387 0.4720830144405947 0.0002544432239057599 7.29635722124486e-05 -7.1064013976427e-05 0.00012439188914454096 -0.9617629065843151 0.09702293662320098
