!Created with skrf (http://scikit-rf.org).
# Hz S RI R 50.0 
!freq ReS11 ImS11 ReS21 ImS21 ReS12 ImS12 ReS22 ImS22
4.0 -0.8467088973156061 -0.25388690062613445 0.00037078499420832605 -0.00029873174276526314 -0.0002327712985034305 6.312663051240606e-05 -0.962513485870775 -0.1307466130191943
4.0004285714285714 -0.8532141525851711 -0.2455809741967018 -0.00019228962176999132 -0.0003647691607661573 -7.938484721155429e-05 5.789906541259849e-05 -0.9702755893442082 -0.12088099297215894
4.000857142857143 -0.8590271745108616 -0.23703449809332172 5.1034797411787405e-05 -0.0004265714634959095 -0.00029941133958367777 9.715618466995048e-05 -0.9653454542819643 -0.11570037035685594
4.001285714285714 -0.8516206273249678 -0.23134983065256753 0.0003174063090949987 -6.248695415888592e-05 -0.00014657736786418709 0.00010980691260421766 -0.966602957965748 -0.11601576150975383
4.001714285714286 -0.8593880679326618 -0.2228023545498083 -0.0002784579654071927 -0.00018767094288895747 9.056750810308574e-06 6.383953684610029e-05 -0.9670478033479033 -0.12129769607442827
4.002142857142857 -0.8580894944468097 -0.22334008525263205 -6.56304377694775e-05 -8.656599216372082e-05 -8.642663383433741e-05 1.9352511765539235e-05 -0.9650336211430232 -0.11130259821232197
4.002571428571429 -0.8617244719924064 -0.21223308231592475 5.099133061254311e-05 -0.00032402623105703135 2.8707346892990585e-05 6.633837615172974e-06 -0.9692733399862569 -0.105750395066255
4.003 -0.8647045131397294 -0.20021995777537488 -2.338236757360197e-06 -0.0002087625828523293 0.00029425319348384214 -0.00024520891580416657 -0.9670182665743267 -0.10458600827353623
4.003428571428572 -0.8679488039039988 -0.1976074696070948 3.8698158835899675e-05 0.0001168086505120244 6.363570126977735e-05 0.00016241197156747965 -0.962478111174857 -0.09813355339031313
4.003857142857143 -0.8618031308447248 -0.18983978616875632 -0.00016939399025623633 -0.0005636812001825766 -3.1153683875780534e-05 -4.300787983513569e-05 -0.9711335320647683 -0.11284880051087934
4.0042857142857144 -0.8740893881053519 -0.18303223704908145 -0.00022615293593751572 -0.0004645611333147164 -0.00028031063800791145 -6.099677550407417e-05 -0.9650382492888132 -0.09770544227345375
4.004714285714286 -0.8696733449162105 -0.17431978943508733 0.0001495417642203649 -0.00018779140598810856 1.1842959470773608e-05 6.339722466854487e-05 -0.9596646443179194 -0.10791792045865913
4.005142857142857 -0.8713256073945063 -0.16404094218361673 0.0003121292833962475 -0.0004721085753146488 -0.0002458121982906094 4.345495249176119e-05 -0.9682935525437019 -0.09378460532664411
4.005571428571429 -0.8727006322596854 -0.15915654153478603 0.00015151771799132337 -0.00019101471907811038 -8.105267951798827e-05 -8.197737154466411e-05 -0.9605381341714796 -0.0949260582847789
4.006 -0.8762646915514172 -0.15540845209389634 5.630140916962091e-05 -0.00025317225064015416 0.0003869177709005278 -4.924013088016215e-05 -0.9703918595249275 -0.09334044476051621
4.006428571428572 -0.8745591612574117 -0.15033581637270615 -0.00023893074837569718 -0.0003332516167330743 -0.00023985057822415793 0.0001615505067826051 -0.970784321126529 -0.09311326954074717
4.006857142857143 -0.8794234486029386 -0.13788991952848273 0.0002698497761929392 -0.00035396109109810787 6.272153146193754e-05 -3.283953189380674e-05 -0.9644726036056314 -0.08748834917520369
4.007285714285715 -0.8814602844069206 -0.1322129624445486 0.00031889510447402343 -0.00022823663330586805 4.1672900421879944e-05 -8.727426761182297e-05 -0.9689134644465576 -0.079408220082051
4.007714285714286 -0.8799343252419138 -0.12536653832430714 0.0003554867734857796 -6.200704010779892e-05 -9.264638931464554e-05 0.00012835086056585754 -0.9617769717515953 -0.08357384760134293
4.0081428571428575 -0.8807156003216411 -0.12271824497539449 -0.00021245297167219224 0.00012578663429592716 4.216633514771086e-06 -0.00013890116165291675 -0.9689673389785831 -0.08495064349228669
4.008571428571429 -0.8844485670146542 -0.11038714873657181 0.0003351932037382752 -0.0005449387970493771 7.958592714082018e-05 0.00021042238054113724 -0.9638071012800771 -0.0784933071860933
4.009 -0.8856946474940701 -0.10314053501380852 1.880917840381899e-05 -0.00020337207842095845 -7.227251148696719e-05 0.00010354212871215319 -0.9738664198977008 -0.08382443214623636
4.009428571428572 -0.8827095960499867 -0.0998510711817191 0.0002383466053833428 -0.0004057260544858352 3.729589680307621e-05 -0.0001107829535537779 -0.9768850271875865 -0.07404681725648744
4.009857142857143 -0.8853738750922209 -0.08842853369024373 0.0005605429709934465 -0.0002708304567453647 6.0202239198669393e-05 -1.3693683075069043e-05 -0.9653908503148628 -0.06965090325919346
4.010285714285715 -0.8872344563786987 -0.08280227937119707 -0.00010627583362979495 3.418063658921711e-05 -2.5400165118181685e-05 0.00014685216883200677 -0.9645990984651514 -0.07269440052612729
4.010714285714286 -0.8875998940413298 -0.07583840835655611 0.00016479601811454227 -0.0001969704976380414 5.3543247233691045e-05 -1.8369568431913934e-06 -0.9688157597882714 -0.07119175197974062
4.011142857142858 -0.8832974420354195 -0.0719286495998031 -0.00015395097185369686 -0.0001502416150657194 8.226523465611461e-06 -0.0001805944145246146 -0.9690833157660605 -0.06640253661092767
4.011571428571429 -0.8851299186200369 -0.05944948906791579 0.0004795517578074936 -0.00027122258221957404 -0.00010149171195243843 0.0001731177692593995 -0.9711500587943948 -0.06538939875683404
4.012 -0.890051052672942 -0.0549455316877548 -0.00017000402537500035 -0.00028619009122390595 0.00020109232148764024 4.05687168316518e-05 -0.9756063060176008 -0.0624880544176424
4.012428571428571 -0.8858307928691898 -0.045776194594196226 -5.1691050221508454e-05 -0.00011839499159514042 -0.00027410652688511267 9.806147066064817e-05 -0.9625946753252593 -0.05629489562750565
4.0128571428571425 -0.8920751439303746 -0.03633320529747033 0.0003057896622396171 -0.0007912575293802947 -7.316377540674255e-05 -0.00014274900907302 -0.9666421843629385 -0.06183392040700132
4.013285714285714 -0.8836893909097316 -0.03229600266271764 9.3569320766185e-05 -0.0004878722378956986 0.0001971345378917845 1.0285309242670846e-05 -0.9623613367265366 -0.05798281295163966
4.013714285714285 -0.8845104974871046 -0.022044319054942793 -0.00023123603910757528 -6.885843941313757e-05 0.00023571944239970965 0.00016992718864073276 -0.9759378538515934 -0.053092780134299085
4.014142857142857 -0.8857514087856937 -0.015473810466222763 -0.00023974145419034462 -0.00046171389824773427 -7.1765392092532434e-06 1.201139108662457e-05 -0.9722920714814182 -0.04658319374328239
4.014571428571428 -0.8861804240421577 -0.012706470357880365 -0.0001529629707191922 -0.00019509518756150924 5.7081696215396353e-05 -3.2527699455397724e-05 -0.9697841051656186 -0.052328801888597946
4.015 -0.8944551273237632 -0.002062135251876904 -0.0002046969291487052 -0.000269175572354726 5.282375194196412e-05 -2.0450943495737866e-05 -0.9645131257499893 -0.050226515632133734
4.015428571428571 -0.8902393070513179 0.010330369858548134 -0.0003214656846767479 -0.00017470440698211625 -0.00013510225899796574 8.072810410439203e-05 -0.9729038322038923 -0.049229551382031854
4.015857142857143 -0.8895747897071571 0.015779490771270024 -0.00032927618077331167 -0.00029865010906765527 -6.588448612184816e-05 -3.460151189547387e-05 -0.9710529685626168 -0.044559460693733885
4.016285714285714 -0.8881864333602689 0.022605405264396316 -0.00023062226550531152 -4.886461258816263e-05 0.00013670932262220347 0.00024108880433437277 -0.9648212581588148 -0.041096653049080556
4.0167142857142855 -0.8878608297635442 0.02966593951287851 -0.00041739739519803875 -7.478412065332691e-05 -0.0002580180116564577 0.00017611715027341063 -0.9635984845287758 -0.04693193766120262
4.017142857142857 -0.8847968737422769 0.03815848614800379 5.362055516363226e-05 4.73258751230976e-05 0.00015794157983817803 8.056073817857367e-05 -0.9619552728321417 -0.03956006343390094
4.017571428571428 -0.8888340599605584 0.042127628921172784 -0.00031302153063233925 -0.0005096809623981505 4.9094374514385305e-06 0.00026384397805296526 -0.972955943306773 -0.04312560490928584
4.018 -0.8829463830659686 0.0482240259966217 -9.869500682894289e-05 -0.0006413664553672455 -0.0001376113166863026 -0.00021520788776305876 -0.9692594853138746 -0.038801563733424325
4.018428571428571 -0.889371198814997 0.056607308964795613 7.238048781750396e-05 9.746972874056489e-05 -6.179274809979646e-06 -0.0003360669053240402 -0.9682949263609936 -0.03351999096611418
4.018857142857143 -0.8814073639490958 0.06595966332117603 -0.0003624484597049553 -0.00046019098048411596 0.0001242743793410116 -0.0003902865786393703 -0.96234173350853 -0.02591762100546426
4.019285714285714 -0.8812565323272301 0.07564645041742185 -0.0004841383993554085 -0.0005242709274444386 -0.00032027017935207924 5.7000405556826006e-05 -0.9729550666001401 -0.027122037074136175
4.019714285714286 -0.8860013647578721 0.08308371790216688 -0.0006031948834890397 -0.0003981064836183011 -9.470916526171901e-05 0.00020787229130443094 -0.9638117777914443 -0.028557041630266115
4.020142857142857 -0.8832282192651041 0.08730598687388619 -0.00024333695187171164 -0.0008083222083009004 7.465707130546773e-05 -0.00024351150969348704 -0.9683551947974496 -0.02616926487707633
4.0205714285714285 -0.8841804559142038 0.10059705164133531 -0.00016636885820273638 -0.0005763723005334099 0.00011424301305379722 -1.467791265395211e-05 -0.9673850071007306 -0.026561474990870505
4.021 -0.8809926348640161 0.1010251472638419 -6.433080569572622e-05 -0.0003017695976851367 4.1579873614668226e-05 -0.0002658076832663984 -0.9646826711145272 -0.0205476124479534
4.021428571428571 -0.8789747545662175 0.11249117526083376 -0.000581027350349942 -0.0006653441202359356 9.411016273984338e-05 -3.405223210242087e-05 -0.9703113747990246 -0.018979768151412297
4.021857142857143 -0.8808157913397517 0.11605122897135275 -0.00041881194608946713 -0.0002155447005872494 0.00012909696910364717 -7.185151908617734e-05 -0.9667688859389033 -0.016076651771369247
4.022285714285714 -0.8737618242830226 0.1208676967043072 0.0003732490987004754 -0.0001354406343732152 8.286344201750112e-05 -4.545892894301126e-06 -0.9775599892311301 -0.008305245432611344
4.022714285714286 -0.8776785255802094 0.1377967518481898 -0.000536996868396636 -0.00030549048185550645 -6.750734292574949e-05 -6.136872701106548e-05 -0.9639330474812364 -0.014273030980783363
4.023142857142857 -0.8737764107676723 0.1418771927205531 -0.00039747421024266836 -0.00013846257472556128 5.8607968747115956e-05 -3.6793602246422984e-05 -0.9667177360315475 -0.008334899494741881
4.023571428571429 -0.8766818762675211 0.14249417208237689 -0.0002142236654663938 -0.00020476379768504386 -2.325285598857252e-05 -5.913054114117121e-05 -0.9632709260330267 -0.0027383966512722615
4.024 -0.8721931109364149 0.1564975032602093 -0.0005287848218691529 0.000380737927431313 0.00035339128502465545 7.08877140363585e-05 -0.9687531958147556 -0.006021047110634379
4.0244285714285715 -0.8740583331301381 0.1603130164474294 1.5391937962840838e-06 -0.0004931181094227216 0.00015947355097566175 -0.000217432778507521 -0.9686730933079236 -0.0032681650917396176
4.024857142857143 -0.8730529725607419 0.17053940773466184 0.00011519796461070621 -0.0004217863961651576 -0.0001234277674776387 0.0002401804648880068 -0.9680137981431783 -0.00026271679334301045
4.025285714285714 -0.8733536770409251 0.17868495962168168 -0.0002963689223703518 -0.0003170552345182423 -3.043398839123173e-05 -4.8571617531980405e-05 -0.9658390302848106 0.003889459134787974
4.025714285714286 -0.8690404888532078 0.1845501510845015 0.00020665733035917514 -0.0002745075905213983 5.588931176420263e-05 0.00022426003880844403 -0.9755133944920448 0.007176300732166081
4.026142857142857 -0.8708152537488986 0.1907913149497039 -0.00035833037831902386 -0.0005519005248613451 -0.00020431924038622645 7.533914935032419e-05 -0.9697328935496639 0.0035381124982376442
4.026571428571429 -0.8598616682654606 0.198814800938262 -0.0005250344095444577 -0.00026493346679249064 8.056431670751704e-06 -3.327277549882299e-05 -0.9735318853395147 0.009997514216715724
4.027 -0.8616222777873398 0.20537308521074135 -0.00021106202741684492 9.247180399376631e-05 -0.00030715125770261936 2.173130996165401e-06 -0.9681629496914885 0.006710408865947603
4.027428571428572 -0.8672974741519398 0.20884081407214555 -0.00014751723969214325 -0.0003413545981852855 -7.975705077891933e-05 -0.00013556459488901133 -0.9648377520845465 0.016115878282533073
4.027857142857143 -0.8617206544190809 0.21538381472955936 -7.437620488757196e-05 -0.00031911121704859694 0.00043123241366790297 -8.655995696373236e-05 -0.9717350158128965 0.011942901837997707
4.0282857142857145 -0.859797882127621 0.2297329417639566 -0.0004866757368364766 -0.00026148068268384904 -0.0002702993679905013 0.00023606397288726747 -0.9693645423932131 0.022860425131598125
4.028714285714286 -0.8650802488179855 0.22864253020378403 -0.00022148674461106935 -0.00014111299617237415 -0.00020685945734929187 -0.00022831511134429634 -0.9708120978584354 0.015521545085901095
4.029142857142857 -0.8579466110701278 0.2450493565966202 -0.00025395858225727574 0.0004794502021753052 -0.00014824798887852955 -7.466959666847565e-05 -0.9687086295220363 0.02502736953072448
4.029571428571429 -0.855096377891691 0.24442118198465135 -1.54342084128522e-05 -0.0004689038748682199 -4.047637690633689e-05 -2.989235646828111e-06 -0.9653083660728979 0.020629379413245358
4.03 -0.850354720056594 0.25220699961296517 -0.0004624242685857361 -3.72147793898887e-05 0.0003162551072448446 -0.0004332352800521243 -0.9710054682523438 0.03271413168131087
4.030428571428572 -0.852202842724493 0.26431369482897904 -0.0003594855623858457 -0.00010967025694943188 -8.304055161874945e-05 0.00023248725144815182 -0.9692136965477286 0.028478210564693414
4.030857142857143 -0.8521361544700279 0.26593350544701 -0.00018538029463317513 -0.0001338199695463729 6.827732093619881e-05 -0.0003342911897304805 -0.9708937473409467 0.022644265021686476
4.031285714285715 -0.8440137254821902 0.27515252201888296 -0.0003789421320100469 2.465132333217068e-05 0.00011240735818828574 -0.00010963995078258225 -0.9653496373332994 0.03608987603720954
4.031714285714286 -0.8403770770174857 0.27657423654862523 -0.0002575314182812788 -0.00044501021841286887 8.286916608223599e-05 -0.0002105320582926749 -0.9641242193377391 0.026149774977678373
4.0321428571428575 -0.8367725086362786 0.2871450135248755 -0.0007234699681287379 -0.00026444632912090614 -0.00010862271279441775 -0.0001285553613683799 -0.972337057021707 0.03671751591485675
4.032571428571429 -0.8381764320066096 0.294804965082753 -0.00036397718124638647 -0.00010890798515107457 8.735599854637648e-05 0.0001999554822697949 -0.9641218301296834 0.04433207625792249
4.033 -0.8369276136998425 0.3009718303891274 -0.00034207238951761295 -0.00032827923441830666 0.0001977576663269768 -7.075086588454412e-05 -0.9673142849177292 0.044575358893298556
4.033428571428572 -0.8409884219858818 0.3089855648442898 -0.0006441962704641853 -5.3822248490177674e-05 -3.443276478776594e-06 0.00025887516633244954 -0.9648769499449895 0.04087251216042513
4.033857142857143 -0.8344801455072172 0.3173052574557321 -0.00024279972323322158 -0.00015719614486764998 0.00014158537487274456 -1.3568507502153322e-05 -0.9625047726778552 0.045232198406308884
4.034285714285715 -0.825806540989468 0.32144397049651485 -0.00011187976252202197 -7.468215984649726e-05 -0.0002236870678099494 2.2361764182743884e-05 -0.9653206176162834 0.04386686093866804
4.034714285714286 -0.8192906586671357 0.33419328603363846 -0.00032613110518590844 0.00016132862444530566 0.00014491728491457421 -4.6157386488845436e-05 -0.9667651981588706 0.05121320794041173
4.035142857142857 -0.8228251766762309 0.3372282777991116 -0.0002546943828243043 -0.00038134285711542796 0.0001420976175796132 -1.1511092279265657e-06 -0.9678137750386223 0.05168433598501173
4.035571428571428 -0.8160235889997207 0.34377326566354005 -0.0003514560312197833 -6.874917171813362e-05 -0.00010481465721490632 -2.4705654629802465e-05 -0.9675796077344468 0.0584708339498686
4.036 -0.8128367646822438 0.35397359705565373 -0.0003722664339086953 0.00015475919533409813 -6.367447997774138e-05 0.00031359941641957066 -0.9691514603055006 0.0568846611179996
4.036428571428571 -0.8198747925992159 0.3522018157681079 -4.5041281084947796e-05 -0.00016934304588294555 7.194641267235033e-05 -9.205460422911495e-05 -0.9693802259827811 0.05059394308615915
4.0368571428571425 -0.8125334026562919 0.3644096384301333 -0.0001339118515818922 -0.00012178971859297065 3.840393637233792e-05 0.00012923196655259889 -0.9687681424609191 0.0548486339839953
4.037285714285714 -0.8048064224713165 0.3720393556671296 -0.00017026851194654066 -0.0002549617220970651 0.00017206042038261487 -5.9909250939100174e-06 -0.9603386874484104 0.058507464306541745
4.037714285714285 -0.8045057520955493 0.37169121090856944 -0.0003689422232577911 6.12484741481498e-05 0.00032559723119692836 -2.799904798375908e-05 -0.9703635743639475 0.05597915272791533
4.038142857142857 -0.7996719096513251 0.39079270435133884 -0.0009853983967830803 7.170190967660513e-05 -0.00016105417272189524 4.850485799987796e-05 -0.9644937613039137 0.06234444069090051
4.038571428571428 -0.7999727247122852 0.38946872311044217 -0.00028665113708226944 0.0001167956398310155 0.0002036775325800457 -0.00027615535268290256 -0.9601072560661451 0.06672998938680876
4.039 -0.7950213132541819 0.39508521358420456 -0.0002786346835620354 -0.00041306923048050356 -0.00021571125786673997 6.753683071880269e-05 -0.9581915754440332 0.0646237672260223
4.039428571428571 -0.7860135659676089 0.4123168619362964 -8.196563321227116e-05 -1.6958148642409778e-05 4.581915956230016e-05 4.5126842558464256e-05 -0.9645136509411242 0.06847381269438961
4.039857142857143 -0.7917061947527101 0.4103645804058121 -0.0004796794797418503 7.846933705413231e-05 0.0001953778180540068 -4.425445276325165e-05 -0.9700139136508794 0.0711528028418851
4.040285714285714 -0.7872363675532645 0.41152872718501976 -0.000673443235389262 -0.000571026971688063 6.660931625737793e-06 -4.7470637481029666e-05 -0.9631786789613086 0.07529547875798451
4.0407142857142855 -0.7863660862453807 0.4237676313985741 -0.0005050310321232 0.00039306283863991593 -0.000262130151054089 -0.0002626057387444854 -0.9591414091191248 0.07690554331973784
4.041142857142857 -0.7731614097738482 0.4277738227815947 -0.0002827030094843015 0.00017620571369071424 9.179770225844953e-05 7.481785443368704e-05 -0.9690543869122595 0.08540523161764772
4.041571428571428 -0.7717275326283143 0.4359347260637718 -0.0002596646624719944 0.00017003280760049887 -0.0005422298602907515 -6.061145301911226e-05 -0.965457432181826 0.0840275622409603
4.042 -0.7685507571657266 0.4460737713229412 -0.0006643750612570675 -5.375256193056101e-05 -0.00019447117986423005 0.00013417632337273127 -0.9620666649003746 0.0916600621421709
4.042428571428571 -0.7630399771825342 0.4501551288803193 -0.0005425064423975896 0.0004669615839447852 -0.0002513835694658703 3.166328997902439e-05 -0.9583275993266931 0.09186032827360778
4.042857142857143 -0.7635594573927094 0.4454550224865954 -0.000346193786339438 -0.00019540204756348842 0.00021206425171134722 -3.175663672512816e-05 -0.964338463758506 0.08780669418384968
4.043285714285714 -0.75838007290892 0.46169052497213725 7.745941931258249e-05 0.0001398050815879964 0.00012664115787773506 0.00022542154109000544 -0.9638928608622503 0.08447696474524884
4.043714285714286 -0.7512215690676176 0.46541455486724315 -0.0006352057857308743 0.00016677069215217263 0.00030459063139357055 -0.00045644777943777167 -0.9673185504861301 0.0821238350188563
4.044142857142857 -0.7513008854723459 0.47373100680523844 -0.0004392710322996418 -0.00025717177469395096 4.499427381707688e-05 0.00010222091342413924 -0.9623315668579931 0.0981375824927832
