!Created with skrf (http://scikit-rf.org).
# Hz S RI R 50.0 
!freq ReS11 ImS11 ReS21 ImS21 ReS12 ImS12 ReS22 ImS22
4.0 -0.8475823700898825 -0.25161223216551465 0.00040881664190481093 -0.0008108243848211062 0.00022609614303108634 -0.00020617840062449953 -0.9633656566483877 -0.13128351893569756
4.0004285714285714 -0.8550500674005374 -0.24548520324374282 2.163616926326923e-05 -0.00030592298089616077 6.54849405984247e-05 0.00010902358413629912 -0.9714607503136476 -0.12283428399220123
4.000857142857143 -0.8608611993799469 -0.234361172655059 0.00047776631573216683 -0.00027722769553184106 -0.00031293323469938633 -0.00015926873680121532 -0.9671695555299665 -0.11669015790862272
4.001285714285714 -0.8535020580097815 -0.2287905765519926 0.0003157232994043645 -0.0003383658489112124 -0.0001955042893063612 7.815322305114832e-06 -0.9646252878014206 -0.116304593967
4.001714285714286 -0.8609674507480026 -0.22273475275040064 0.0004276512920530551 -0.00019717123006864518 -2.8606376341972525e-06 -0.000174859606223875 -0.9650931443686669 -0.12064329548052449
4.002142857142857 -0.8578645021121704 -0.22196745741794416 0.0002975345803545275 -0.00015550744294709829 9.96484193861559e-05 0.00036174890368372546 -0.9646761870762564 -0.1088678367459552
4.002571428571429 -0.8613946704601542 -0.21128632402842196 -8.588121080974982e-05 -0.0003683292419703599 4.637185058611743e-05 -3.416829935197873e-05 -0.9690120440532618 -0.10563036910035256
4.003 -0.8663040724385066 -0.20020595872788596 6.904943331260603e-05 -0.0005066470574251476 -3.7614349490463876e-07 0.00011501721776210807 -0.9680170984435881 -0.10444255658234237
4.003428571428572 -0.869138922821675 -0.19716993834819152 0.000458855300870717 -0.00013444989674055822 -0.00020546439115602728 8.185982081916954e-06 -0.9630994790960284 -0.0956222266093623
4.003857142857143 -0.8648098009970352 -0.18889248444873705 3.0631250519773814e-06 -0.0003603908328702235 -0.00028189980752753725 0.00040314842800852265 -0.9721380301491126 -0.11081093779891078
4.0042857142857144 -0.8753506980496573 -0.18051571675316103 0.0001128844705574826 -0.0005821991524128121 -0.00014256918196977459 5.737158400081192e-05 -0.9651116934630879 -0.099592760977968
4.004714285714286 -0.8700402217662528 -0.17307238952970544 -0.0001475658737487011 -0.00035467509792820573 6.549249820488436e-05 -3.967082043917016e-05 -0.9592806912603455 -0.10728397028971562
4.005142857142857 -0.8718097225532345 -0.16385239993822565 0.00012634290548173274 -0.0006019262058178911 0.00016547477553686496 -3.5654768267344674e-05 -0.9689826619036369 -0.0943027621303424
4.005571428571429 -0.8742087610804605 -0.15813332069637467 -4.303499314825207e-05 -0.00035251292092679747 -0.0002265290696517226 7.321650290034707e-05 -0.9606530592807953 -0.09555508265929774
4.006 -0.8764388702657293 -0.15352082505501552 0.0002613802061605275 -0.0003300204577981859 7.413703652198415e-05 0.0001622534915049512 -0.9714306257702089 -0.09220989265542809
4.006428571428572 -0.8766078587568322 -0.1492045085443692 -0.0001137249935794333 -0.00016664937813812075 -1.1148401966431199e-05 -5.103568275292407e-05 -0.9684238397497995 -0.09211860606917652
4.006857142857143 -0.8807689041508281 -0.13718186779917485 9.151593414589499e-05 0.00011942425834940583 -0.00018433166936850735 0.00016524106689217086 -0.9648151243920722 -0.0855002259936289
4.007285714285715 -0.8832308145071452 -0.13096439772245103 -9.294793102092514e-07 -0.0003704274164670954 9.693865569896135e-05 0.0001240485653178308 -0.9677815247349868 -0.07991900179212237
4.007714285714286 -0.8814709596104565 -0.12593247669086569 0.000320433300073039 -0.0004481469067282186 -2.4244765485905468e-05 -4.007973693082006e-05 -0.9625295386547719 -0.08247098808804187
4.0081428571428575 -0.8817670586496048 -0.1212127693759508 9.149551397063873e-05 -0.0003112636167286577 5.603009211954765e-05 0.00011228863732899852 -0.9683044697114195 -0.08824978470076125
4.008571428571429 -0.8837071769065998 -0.10867348622310603 7.342208401579343e-05 0.0001678894705775422 0.0003498782679185514 0.00017416577461336772 -0.9634650478737221 -0.07882908603727443
4.009 -0.8857611954894343 -0.10148595797607224 0.00010532336440808472 -0.00016480031451200725 -0.00015717461909748584 5.938049017938855e-05 -0.9763912051991067 -0.08506270104801836
4.009428571428572 -0.8839972043899114 -0.09860032437518815 -0.00025919300463451067 -0.0004982211269693549 -6.342002794149485e-05 6.602265273732671e-05 -0.9768597550843973 -0.07554754845369116
4.009857142857143 -0.886826191517706 -0.08641877031435234 7.0714117161762645e-06 -9.184635603300421e-05 -9.023604320788228e-05 0.00011931597718124482 -0.9678914739902497 -0.06879609035586756
4.010285714285715 -0.8886033708951095 -0.08066352451546097 -0.00040972557621712143 -0.00024861418839727703 -9.636142308165439e-06 0.0002663944479599681 -0.964788153815431 -0.07423889230083762
4.010714285714286 -0.8873906152923963 -0.0751484830841478 -8.764974616520059e-05 -0.0005250807287584214 0.00013784956009319776 0.000132017960472333 -0.9686985862745288 -0.073237802867426
4.011142857142858 -0.8840494041210168 -0.0701296864404885 0.0001739296381504752 -0.00044077799845055726 0.0003903124165234218 -0.00025760665298397837 -0.9697446843405877 -0.06522892627392743
4.011571428571429 -0.8847409692599623 -0.05697492670608255 8.59822728985376e-05 -0.0007649135690969118 0.0002566830659817762 -3.991373544168192e-05 -0.969046733851793 -0.0660430446115365
4.012 -0.8893054102904349 -0.05438863678865132 -0.00044837761205097893 -8.194602947344398e-05 0.0001223704709285845 6.890731958639672e-05 -0.9750266740380067 -0.0620158765206359
4.012428571428571 -0.8869481603249145 -0.043823748062019004 -0.00023091116070787977 -0.0006078871218370666 -0.00016603797630183921 -0.00031907637737103465 -0.9620042523749152 -0.05446646395788386
4.0128571428571425 -0.8928917527283441 -0.035163002941879906 -0.00010620612522295331 -0.0001839360822498625 7.623586815287037e-05 0.00023755712753224003 -0.9659645993225683 -0.06451613463474135
4.013285714285714 -0.8836102382895049 -0.031145118137527916 -0.00035462274791481826 -0.0003765741980030594 0.0002030987022067016 8.98726474840238e-05 -0.9640669993937507 -0.058274960236539546
4.013714285714285 -0.8868479308851334 -0.01976503425469223 0.00013151447066159778 -0.0003929813520353263 -0.00010328419112896772 0.00012643560063249545 -0.9740668523860312 -0.05207673783129528
4.014142857142857 -0.8853530355220169 -0.014022390791286001 0.00025262209240771005 -0.0001415943245745692 -0.00022936482652798922 -3.28353147295884e-05 -0.9718166940893007 -0.046468230862104117
4.014571428571428 -0.8863322400613328 -0.010434465806985291 5.41580007953009e-06 -8.33520845122179e-05 -5.41697983751581e-05 -0.00024334572980340018 -0.968766490848383 -0.051647388851713695
4.015 -0.8956492225516204 0.001015461584154843 0.00010059428558762769 1.897252359095991e-05 6.24004480234334e-05 -6.681269269740108e-05 -0.9655338438111837 -0.051494689615492834
4.015428571428571 -0.8903419321808269 0.01114623124548496 -0.00024248239548182546 -0.00021803080749882537 -3.1440781363942465e-05 -0.00034285244041822163 -0.9700913444050527 -0.04774536150346374
4.015857142857143 -0.8888099694144524 0.018387254357166306 -0.00018738780739982713 -7.438448585199985e-05 5.0637813050220135e-06 -1.7285679759465494e-05 -0.9702071331435626 -0.04507765658949711
4.016285714285714 -0.8886845347075409 0.02316547932382289 -2.708130139289125e-05 -0.00032007706285149776 -6.904629248088564e-05 0.00018794607672358173 -0.965529761046723 -0.04147159988342295
4.0167142857142855 -0.887799399997992 0.03033687803801312 -6.838102216332647e-05 -0.000367609237177359 0.0006360035502387155 -0.00011101094775132568 -0.9653884500803199 -0.04798429047422243
4.017142857142857 -0.8838680032234205 0.03953399354133581 -0.0002112404621681508 -0.0004885363403857247 0.000280355906570445 7.062551565831094e-05 -0.9620076117974561 -0.04104570273322279
4.017571428571428 -0.8906659132007086 0.04076285155499382 -0.00039034805297774616 -0.0005892551567192406 0.00021891446528507128 -2.9777420134148208e-05 -0.9733834119844442 -0.04198773064688636
4.018 -0.8884365221941387 0.051211209238643626 0.0001403291602616529 -0.00022882081326605354 5.607389335162626e-05 0.00023380108662102956 -0.9708456527267777 -0.038245102025963866
4.018428571428571 -0.8904581464986613 0.05891329887161026 -0.0002112805405472527 -7.806942686613818e-05 9.093515466439178e-05 2.151599696662995e-05 -0.9718937250385703 -0.034482769535155416
4.018857142857143 -0.8814120686692914 0.06836552239260403 0.00021141088081518306 -0.000539833774367662 0.00026629807733512706 -0.00016017463240496307 -0.9623701679036083 -0.025131076995639896
4.019285714285714 -0.8815945559004751 0.07952762878489056 -1.6317374786258167e-05 4.841853002282152e-05 -0.0003228719002599293 -0.00015743275931414852 -0.9729951875824183 -0.027694450842584505
4.019714285714286 -0.8861824784369057 0.08478307300401026 -0.0008317982719378382 -0.0008222030294770203 0.00015373021165764115 -0.00023252831244114153 -0.9635110912363025 -0.027397492988150116
4.020142857142857 -0.8859578898780108 0.08845239493498265 0.00027977113469805425 0.0002754922401414413 -0.0001653559609407817 -3.43566002473317e-05 -0.9659095437347852 -0.02301943367372639
4.0205714285714285 -0.8856658951884511 0.10428053499914003 -2.9785183887912354e-05 -0.0002266769859627366 8.957767906068687e-05 -5.030641335823117e-05 -0.9691120604001455 -0.02789141943136644
4.021 -0.8817471252338513 0.10253722482497137 7.331637165883462e-05 -0.0001840633243650271 -0.00010406206026538727 -0.0001238369012684628 -0.9654301886439656 -0.019201640190961346
4.021428571428571 -0.8792204933691252 0.11642445034744711 0.00042043229377003736 -0.0002855202022272774 8.944178644031116e-05 0.00011003281012878578 -0.9700172679582907 -0.018488163602423648
4.021857142857143 -0.8820666330794771 0.1185998418560103 -0.00039796386497390417 -0.0004992246850074448 0.00030405394274479476 -2.5314322186275223e-05 -0.9654348687044584 -0.013830069108915185
4.022285714285714 -0.8745225965409859 0.12345625706086297 -7.12975346146201e-05 -0.00018525786337840122 0.00010200313947870748 0.00020746787693229671 -0.9767137459645575 -0.00921625639801454
4.022714285714286 -0.8783673136722319 0.14011309788076604 -0.0003333676475387756 -1.708704525865632e-05 -9.86234599977994e-05 0.000175684186783551 -0.9652910079739169 -0.014944066616918357
4.023142857142857 -0.87512891304627 0.14268380829393046 7.799859468480537e-05 2.4152715289680997e-05 -0.00032430069800211517 6.178535946133062e-05 -0.967047398874805 -0.008118999422821715
4.023571428571429 -0.8778996718121369 0.14406648710038147 -0.0004901325735119568 -0.0001297236027547054 5.8000548235291203e-05 -7.844451676653237e-06 -0.9624205557933414 -0.0026328342964617203
4.024 -0.8709923697369685 0.157152092688316 -0.00015403891383131856 -0.00038516994643014935 -0.00014994016973519643 -0.00028849043849140684 -0.970840982156059 -0.008123504061226267
4.0244285714285715 -0.8740233775090512 0.16045800198500318 -0.00045622757597723565 -9.479320020832214e-05 -5.624275548254505e-05 0.000307500660703807 -0.9708870835429935 -0.0031460968189563326
4.024857142857143 -0.8742556992918031 0.1723124512304955 0.0002050390255016844 -0.00029131343600960024 6.880612725135537e-05 -0.0002979804076818142 -0.9672882403545592 -0.0018245364742973558
4.025285714285714 -0.8740153075231204 0.18139189091653218 -0.0003688799293893565 -8.628775383283499e-06 6.703710867590404e-05 0.00021155434753206172 -0.9664737910003746 0.003948160935241191
4.025714285714286 -0.8712141126816568 0.18734647502354618 -9.942641640474061e-05 -0.000196314158859528 -0.0003608405971959762 -6.592515492179743e-05 -0.974867717201446 0.009362777851136279
4.026142857142857 -0.8733074691738332 0.19193065890999167 -0.0004350023425170412 -0.00014452319654881121 -0.0001231358112363355 -9.356649044185472e-05 -0.9694328596811678 0.002971429186838599
4.026571428571429 -0.8602993634084531 0.2017455575727918 -0.00018316225442674576 -0.0002052146283838315 -0.0002680966040684429 -0.00034330951185770745 -0.9737391613722995 0.008333982803438701
4.027 -0.8628964970002418 0.20778430650009702 -0.0008967470887172923 -0.00023831806237607789 -0.0002830330853394205 0.0002729447960037446 -0.97101259693942 0.00579318087518291
4.027428571428572 -0.8673951410628676 0.2096608696207918 -0.0001061961498989525 7.155087013990485e-06 0.00016731385822517058 -0.0003599570559745855 -0.9655384985131865 0.0171989652559762
4.027857142857143 -0.8615891756911863 0.21776104832071458 -0.0002379226809747009 -0.00034810249357966746 0.00022652811388682167 -0.0001277783102797366 -0.974121270589025 0.012323488361252913
4.0282857142857145 -0.8607480262932314 0.23292393159732871 -0.00012226776845521525 -0.00022737814354608198 -2.0601620415881106e-05 5.9286905277149496e-05 -0.9729566105564237 0.02115953825575371
4.028714285714286 -0.86470559264669 0.22970873788808563 -0.0004985682554368452 -0.0002621254037309024 -0.00016958638549367485 0.000288731182098769 -0.969012852188292 0.012596798624577169
4.029142857142857 -0.8578503633325855 0.24506008780963598 -0.0005563790394041075 -0.00024065851877894906 0.00013785709249924366 -8.508827602586629e-05 -0.9666323021188519 0.024117768236538436
4.029571428571429 -0.8558377998938007 0.24736135429979011 -0.00038807358096373985 -0.0001685210619529332 0.00024870054867032784 1.1110597498114847e-05 -0.962843734762775 0.02147907957677973
4.03 -0.8499261474316062 0.2531739072014807 -8.289440490148107e-05 -0.00024976573613747616 3.626445495221398e-05 -0.00012382544986414042 -0.9711839053562322 0.03402050049944076
4.030428571428572 -0.8506926659936493 0.26638821258290063 -0.0004901771272740732 -0.0003062311307331099 -0.00017972958746695196 -0.0001733149212840524 -0.969830267523918 0.02855845270325911
4.030857142857143 -0.8509621123872223 0.2676345873015912 -0.0004336370904429099 -0.0003521195971209367 0.00020622782395188585 5.805634300554586e-05 -0.9703314474736343 0.02372264380328579
4.031285714285715 -0.8458828646569433 0.2780439044276361 -0.00020702915129346104 -0.00016510190764107728 -2.1096193229613376e-06 3.6586027425998415e-05 -0.9681051434525153 0.03557648857833874
4.031714285714286 -0.8398217045478722 0.2796814743621335 -0.00023219328962400073 -0.00023798296006068373 -0.00011835822514783316 0.00029576359612079584 -0.9656950773348252 0.024802459902683163
4.0321428571428575 -0.8382326838835406 0.28880523730690705 -1.9522857900546173e-05 -0.00019610508089094807 0.00019530271663637113 -6.07206659481299e-06 -0.9729655698512122 0.035863520624958234
4.032571428571429 -0.8381644451440389 0.2967371738291544 -0.00029188171314722727 -0.00028870279462404506 -4.3390274736152695e-05 0.00017805995286219033 -0.9658135354454314 0.04346248281827075
4.033 -0.8368722504595631 0.30256765763093607 -0.00046620663297361963 -0.00034650133348423836 -0.00025307022037370506 0.00036578063786075316 -0.9672310318946564 0.04454744323239443
4.033428571428572 -0.8429246791975038 0.3113843260075656 -7.851075715414696e-05 -2.4477840913240214e-05 -0.00011979973248208059 0.00021645058511085625 -0.9624720880318701 0.04025387799967755
4.033857142857143 -0.832754133620821 0.3188013433792691 -0.00041488875432753807 -0.00011717296887615744 8.43412838620949e-05 -0.00014203111416405382 -0.9623175177573816 0.045122263627024546
4.034285714285715 -0.8256460141719549 0.3233085648294497 -0.00034456993031750557 2.716110083429263e-05 0.00013689121245682182 -0.0001628361842671718 -0.9660348861189265 0.04261119668576664
4.034714285714286 -0.8198375289753655 0.33684464729620056 -0.0005329238878435059 -0.00021166692732263183 3.979821355040481e-05 -8.063083705907805e-05 -0.9667925158557087 0.0510854096361706
4.035142857142857 -0.8239261707449568 0.33856808117989506 -0.00011161409936913886 -0.00028836028863053466 0.00013264187902626862 -0.00028006621735020276 -0.9703942697982499 0.051623943681585426
4.035571428571428 -0.8155403626586449 0.345902702893851 -0.0003558940085307727 0.00019635577444271273 -9.448785375364099e-05 -9.669343642140122e-05 -0.9674275917347409 0.055820090564747044
4.036 -0.8119152791849577 0.3560496239913426 -0.0004506575069225997 -0.0002914291659568943 0.0002773867646708623 -0.00041517872041438325 -0.9673334501132144 0.054956690952485975
4.036428571428571 -0.8207654577246151 0.3552515531082482 -0.0006221961124447997 7.502097414392476e-05 9.020144213706517e-05 -1.7752735690444456e-05 -0.9688697487270302 0.05215684129571554
4.0368571428571425 -0.8129938609709216 0.3675544490090541 2.8674679656283893e-05 -9.462602089955586e-05 -4.292988136869161e-05 -0.00015095351343969476 -0.9707682223675496 0.05407583266554565
4.037285714285714 -0.8053929877798222 0.3735814497247512 -0.00023572103526218606 -0.00016144966093426398 0.00017620888481220535 -0.000521977339256069 -0.9643047010525235 0.058787260449622895
4.037714285714285 -0.8022964171478928 0.3748240939527748 -0.00015196250744460373 0.0004232472556901178 7.154392601036559e-05 0.0003729120968548875 -0.9690122403744121 0.05737626017708778
4.038142857142857 -0.7982395662495629 0.39245678476078344 -0.0003712324294155713 0.00018099958862484065 0.00030715396566180427 4.145734162960944e-05 -0.9643931413990533 0.061660970453800236
4.038571428571428 -0.7997790443323719 0.3930740052589372 -0.00010850195247293228 -0.00015364880453670675 1.7971144208302866e-05 -9.41086468256066e-05 -0.9607383011643965 0.06711115445411094
4.039 -0.7949330238059186 0.39786726011566714 -0.00037213278499626727 -3.379224133471287e-05 -5.745245156996328e-05 -0.00012231356169841383 -0.9595779210376564 0.06598757068038906
4.039428571428571 -0.7882584075631595 0.41467123215993607 -0.0006711691887495985 4.2782797467230555e-05 -0.0001372750653598604 -7.864662455455791e-05 -0.9642043281025917 0.06907200677949828
4.039857142857143 -0.7918297210240827 0.412815169754572 -0.00013818480488916814 -0.00018446036796838762 -0.00017825605584831147 0.00027514648079255376 -0.9710960079943275 0.06754212644918187
4.040285714285714 -0.7875026812694691 0.4131275029555334 -0.0006072482876584678 0.00016179057824380606 8.192166613646675e-05 -0.00023778411212341507 -0.963827031697432 0.07485079978490605
4.0407142857142855 -0.7868553615984618 0.42613863041971495 -0.0003992574897629234 -0.00015955220550081212 7.447592287035797e-05 -0.0001445788516801163 -0.9593013015953171 0.07690028268820001
4.041142857142857 -0.7732597299952424 0.43057117961340197 -0.0005638052794201567 6.661180151944499e-05 2.4440356051979952e-05 0.0002035756415567792 -0.9690762448958742 0.08573789242593242
4.041571428571428 -0.7719650239631346 0.4370849386614821 -0.0001372667210701315 0.00010480616800822734 -0.0001647117940180091 0.00016432421665970483 -0.965262710275078 0.0831075796992851
4.042 -0.7683930531830274 0.4465459089683276 -0.00016957345573366777 -0.00031244955434175513 -6.710313708596011e-05 0.00027005454969380614 -0.9635550763840453 0.09024862068449362
4.042428571428571 -0.7637773010200171 0.4502237619182308 -0.00021499135185487628 -0.0002709690536627277 0.00011142284329191158 0.00020358091507247404 -0.9598284781766775 0.09176563817426354
4.042857142857143 -0.76336364677026 0.44800626980363334 -0.0006081955596335096 -0.00020538763849195586 7.376638776901176e-05 -7.156389873756738e-05 -0.9653054355980111 0.08856745709947347
4.043285714285714 -0.7562239547682108 0.46385399329268434 -0.000596274478271964 0.00018543368097529952 -0.00015140890245883806 1.0334184104518607e-05 -0.9623968170467265 0.08613155301344311
4.043714285714286 -0.7511082854915268 0.4666759904045724 -0.0005402070386227868 -0.00022920018324348374 -0.0005043615542212994 -0.00026428501735110586 -0.9652585641987538 0.08193246569340686
4.044142857142857 -0.7494346750983489 0.47633163087182373 2.054605862486442e-05 -0.00017473020891760015 5.872548266017784e-05 -7.206691877638479e-05 -0.9625247106346574 0.09764401251675212
