!Created with skrf (http://scikit-rf.org).
# Hz S RI R 50.0 
!freq ReS11 ImS11 ReS21 ImS21 ReS12 ImS12 ReS22 ImS22
4.0 -0.8487734562596053 -0.252797062116933 0.00047317541242525204 -0.00031442652922929903 1.664296876139695e-05 7.460068842958665e-05 -0.9648186727557173 -0.12971221688385307
4.0004285714285714 -0.8548912695558607 -0.24628432924320343 -7.791971218749475e-05 -0.000364645466377079 1.0194507642644195e-05 -0.0003162289659989178 -0.9693582155704661 -0.1234383194484832
4.000857142857143 -0.8579348016352656 -0.2369439552741214 0.00041044076756577486 -0.0005682595682589812 -5.9720334879244544e-05 -0.00013639942921051792 -0.9667403349458992 -0.11660918330324041
4.001285714285714 -0.8527206406134908 -0.23156471694893196 9.09537965362168e-06 -0.0004659769904349249 0.00030896282280765656 2.4615634524892492e-05 -0.9633096948275623 -0.11736421357918932
4.001714285714286 -0.860727946099482 -0.2237728499384189 0.00010963237402443455 -0.00020904722991106186 -3.7554916242321315e-06 7.690549628785587e-05 -0.9685676940913296 -0.12191227926754711
4.002142857142857 -0.8586200201252786 -0.22331367475054498 0.0003189033815491645 -0.000775765191117045 -7.786151669397873e-06 0.00023702458159592215 -0.9648502992883345 -0.11153879721855482
4.002571428571429 -0.8612431613574932 -0.2126879755776838 0.0005186196294108716 -0.0006457564646209135 -0.00013331889985107852 0.00018645045524563048 -0.97078207301255 -0.10652334137113488
4.003 -0.8664046913217321 -0.20061250562343516 0.0003268841596294846 -0.0002301642871181141 -0.00023096218514520782 -5.2622831804930414e-05 -0.9664636285370138 -0.10382025534298706
4.003428571428572 -0.868546879221458 -0.19845050508023013 -6.039515071843845e-05 -0.0003418533300288414 -9.688918408709983e-07 0.0001605905466675234 -0.9630596556608594 -0.0988435626890255
4.003857142857143 -0.8648622010061124 -0.18973697886435004 -8.300268909181965e-05 -0.0006560175475861525 7.720032283016418e-05 6.490412946969389e-05 -0.9708350443602725 -0.10986796773172226
4.0042857142857144 -0.875022375547427 -0.18077574069617364 0.0004896693546378468 -0.00042086172165694435 -0.0001708783615603416 -0.0004106113847222709 -0.9669858795500341 -0.09756474383439336
4.004714285714286 -0.8707308802628759 -0.17299365768418906 6.916281278506711e-06 -0.00031653064418656177 -7.58065311583622e-05 -0.00013891211047566262 -0.9597939186663225 -0.10837783788908609
4.005142857142857 -0.8716439888156797 -0.16469958765522633 -0.0003404633287913247 -0.00033208226170769386 0.00039664572520327525 -6.408458150235136e-05 -0.96932529425368 -0.0960437909904371
4.005571428571429 -0.8728140979373105 -0.15868014554806317 -9.389145952915973e-05 -0.0003059551800596861 0.00016746030805613277 0.00018537275613077876 -0.9596340950513746 -0.09544099380362925
4.006 -0.876313882929857 -0.1565977205331707 -9.485337444465449e-05 -0.00038948487458738185 9.273796363895828e-05 -0.0002840326951275385 -0.9706915880783783 -0.09242662198279006
4.006428571428572 -0.8751474734311228 -0.14936150047922775 3.351623372184412e-05 -0.0005022112366128576 -0.00012853404858367473 -2.318190846370913e-05 -0.9695091529363252 -0.09332525786511882
4.006857142857143 -0.8798002112651983 -0.13734528595649942 -0.00018340348396779838 -0.00011593860164505507 0.00011197962979337528 -9.729072154241255e-05 -0.9639712947312405 -0.0857448148983538
4.007285714285715 -0.8819676378060806 -0.13132217466515628 -0.00012571669162234671 -0.0004155310576498943 5.795652240896464e-05 0.00019426623457533305 -0.970290176249969 -0.07974854348788785
4.007714285714286 -0.8796011084499451 -0.1259660328267199 -7.523862465516525e-05 -0.00010476800751631598 0.00018688077659965603 0.00015285350250280553 -0.961890683199722 -0.08317758245533728
4.0081428571428575 -0.8806097403521626 -0.12330445525763928 -3.332164538293083e-06 -0.0002173765237826668 0.0002134661770932919 -9.563182394807792e-05 -0.9685355430217533 -0.08814003893646097
4.008571428571429 -0.883664894799901 -0.10964245364283097 0.00017419675519976665 -0.0005792253685909144 0.00011501075325201562 0.00026451727195429055 -0.9631893557817937 -0.0792634771125225
4.009 -0.8859523171034938 -0.10404907857050796 6.070414898349961e-05 -0.0007370125734256338 -0.00013034299981398142 1.320718512951263e-05 -0.9753515730065384 -0.08434304774709402
4.009428571428572 -0.882413335183767 -0.09860765882765787 0.0002689368711567181 -0.00029885253179423447 -5.722129474709525e-05 6.055544763150075e-06 -0.9765577229144023 -0.07686685966775486
4.009857142857143 -0.8851200887187008 -0.0885853429648359 -0.00010388416062135267 -0.0005406465449314777 1.978768279952742e-05 -0.0001633841823371566 -0.9674580123056213 -0.07031387671270693
4.010285714285715 -0.889416487990746 -0.08223199970682468 -0.0002159537541271304 -0.000594437157009276 0.00010052855285835874 3.492892031196498e-05 -0.9652078932406896 -0.0738905949264346
4.010714285714286 -0.8876949541225406 -0.07370777922338657 -2.092475422177226e-06 -0.0004470599662901999 0.00016264537519533013 -3.965562280295914e-05 -0.9691689622430645 -0.07068422896401691
4.011142857142858 -0.8833025966734886 -0.07181274873027603 -0.00043464840101550335 -0.0011127052801279923 8.972514414763458e-05 -7.514668660976008e-05 -0.9685785395396731 -0.06709630924058774
4.011571428571429 -0.8860491649340659 -0.05766236181417108 4.646416164673695e-05 -0.00029372885161413847 0.00021251601210318182 -6.820452426167978e-05 -0.9698384832790702 -0.06639944966502358
4.012 -0.8881868113342698 -0.05491085508966007 0.0004139583737529603 -0.0006363130069381331 -0.0002061823522589866 4.80594451410204e-05 -0.9749650004467851 -0.06424691641352344
4.012428571428571 -0.8865775448062374 -0.04597988208166391 0.0003181816336293353 -0.0005446678260180674 0.00013207696265241111 0.00027331013980783173 -0.9630493959038547 -0.05698915953017653
4.0128571428571425 -0.8931178422884241 -0.03477382629880134 -0.00016042953027529207 -0.0005144246394334415 -2.9083880847331045e-05 -7.402228420949123e-05 -0.9648719727336366 -0.06571147943725267
4.013285714285714 -0.8829960872642587 -0.03353918857441872 -0.00011308789949406542 -0.0006885329558442297 0.0001535833317981993 -0.00018386456994000331 -0.9635457209578777 -0.05848290959254127
4.013714285714285 -0.8867375512259194 -0.023653350398713684 -0.00020162033224675312 -0.0004495461246246954 -0.0001496807226006217 -0.00022814669883482923 -0.97563674972841 -0.05025805430523946
4.014142857142857 -0.8855043571290555 -0.014397835866228144 -0.00021095367487117706 -0.000368289747980192 -2.6107079235972763e-05 -0.00017252212683020835 -0.9711553101573287 -0.04634244250460036
4.014571428571428 -0.8847204936258956 -0.012559509006910627 -0.00026096907730677627 -0.000387952511516289 -0.00014043557636936582 -0.0003217398480445003 -0.9708203978139781 -0.051774197635722656
4.015 -0.8948295949826962 -0.0007023515058063028 -0.0001054662371729273 -0.000431334389425464 2.074649708415678e-05 4.279626471112555e-05 -0.9659466435241283 -0.05168173008156633
4.015428571428571 -0.891258306138165 0.011145710021840852 -0.0001998059575686169 -0.0007004329905192422 0.0002542012969648164 3.0687233744610174e-05 -0.9706160688833102 -0.04888298360300438
4.015857142857143 -0.8894160425358989 0.01640101244545681 -0.00021137979296271227 -0.0007372354929304965 0.00018899688924618459 0.00040137039136532314 -0.9708282537107283 -0.04712222434368711
4.016285714285714 -0.8900442047878412 0.022630886659151625 -0.000703439427914983 -0.0007684395110686591 0.0002375580874985072 -0.00020548680135380813 -0.9651630224977926 -0.04114132528124994
4.0167142857142855 -0.8879342556204053 0.028802586651157126 -0.0002608752478281028 -0.00032031483178379883 0.00022967411309512492 -0.00011731347580010494 -0.9645331803354612 -0.05041375734359765
4.017142857142857 -0.8854224885600764 0.036993618066084394 -2.316315297038813e-05 -0.00030021371449237436 0.00020915670266700783 4.531651039886833e-05 -0.9618042550042076 -0.03969415569819639
4.017571428571428 -0.8900855143419921 0.04101888007115071 -0.00023732946265665205 -0.00038678724702869045 0.00021895901752037403 0.00015464386778225086 -0.9725995421711129 -0.03968276870199757
4.018 -0.8851934871417083 0.048875190054834136 -7.13550406856751e-05 -0.0005827694076214617 -4.705713245258038e-05 -0.00014082220263786677 -0.968667524108841 -0.04089827219439752
4.018428571428571 -0.8911029363371801 0.057249832857415715 -2.8977787318547208e-05 -0.0005968183239228852 -0.0002777520260825069 0.00033116165884993344 -0.9723164000606866 -0.03241691990362964
4.018857142857143 -0.8814847503559586 0.0673724890012264 -0.0002010700333383371 -0.0005515200244387988 -0.00011582960663536929 -0.00023339543689378662 -0.9595958989133004 -0.026238052492838736
4.019285714285714 -0.8803600554675759 0.07639435534801643 -0.0005220728987456113 -0.000452959507047797 3.4425068234581386e-05 3.9146627321432364e-05 -0.9707307714308159 -0.027512582682663527
4.019714285714286 -0.8869951243477854 0.08535351305326898 -0.0002112508927347459 -0.0005107789426873015 -0.00011243002334884339 -0.0003055701999150104 -0.9648844471350072 -0.027791214355875168
4.020142857142857 -0.8858011892198482 0.08749855671820851 -0.000241397184097178 -0.000863350814402997 -0.00010979959002123847 -3.214858441914846e-05 -0.9681714088633661 -0.023014341499267836
4.0205714285714285 -0.8845990271528152 0.10245951476936234 -0.0002861858128739376 -0.00018726774243408762 0.00015677733488146078 -0.00022074635727130208 -0.9683326816041223 -0.026854656213362547
4.021 -0.8809887350862534 0.10219066892437643 -0.00028258513317887864 -0.0003767870826856581 0.00015965185662425942 0.0003933782192341572 -0.9651562144950159 -0.018090536874095554
4.021428571428571 -0.8811347909858203 0.1143123038024033 -0.0007872831794719091 -6.852854274933844e-05 5.574671019473861e-05 -0.00021706160452524817 -0.9695122795748027 -0.019349570224506257
4.021857142857143 -0.8824961979704294 0.11622608318788902 -0.00043694793827600575 -0.00048820643021439084 5.031325130876503e-05 -3.8431663087710186e-05 -0.9679378681803907 -0.016248824014557527
4.022285714285714 -0.8743049750873501 0.12156535060204124 -0.00017086207016884226 -0.0005800049836443263 0.0001331545371211106 6.215672291879699e-05 -0.9741810336428103 -0.0103379450318604
4.022714285714286 -0.8791850296305175 0.1369257740231314 -5.6304112940426944e-05 -0.00033322675882037703 -1.4438420450984207e-05 -0.00011948319280635903 -0.9652785227584217 -0.014665368289219926
4.023142857142857 -0.8747012361525384 0.14168503644710895 -0.0005983159234678022 -0.0003737887638280186 9.299165904201048e-05 0.0003119435227851638 -0.9686153608339724 -0.005313201860114901
4.023571428571429 -0.8756645238639765 0.14382126339789206 -1.1632334201146618e-05 -0.0004299045739857124 -3.458781961526431e-05 4.808348884757378e-05 -0.9604484785497839 -0.006369033614548052
4.024 -0.870952108931811 0.1551916932092593 -0.0004845418136606717 -0.0002448210584152648 9.152467790754585e-05 -0.000416866087052513 -0.9711236123984358 -0.006972892706464069
4.0244285714285715 -0.87408921148528 0.15856082828020895 -0.00013199538643612476 8.012306655394778e-05 0.00010520685404881323 8.23730666760087e-05 -0.9712159918334015 -0.003016787048556542
4.024857142857143 -0.8737989852727146 0.1719778285859371 -0.0005747516148811449 -0.0007995801539441259 -3.388679526982841e-06 0.0001160863657357211 -0.967935086111669 -0.0009686508466214072
4.025285714285714 -0.8737385337725022 0.17915041733468481 -0.000379991015039321 -0.0006184866112342532 0.00021683733794269783 0.00031074088756958824 -0.9654236951510236 0.002357802044310213
4.025714285714286 -0.8718878000097894 0.18447875832651606 0.0003529970433637606 -0.00030334411179581565 0.00010215857450342638 -9.657998675079701e-05 -0.976669551015402 0.009281228657185036
4.026142857142857 -0.8739646539897726 0.19070931631065585 -0.0005924268546379798 -0.0004353702066214673 0.0002742504448570833 6.903808385345822e-05 -0.9680036441947933 0.002259765648782937
4.026571428571429 -0.8591680059535008 0.20042764031367463 -0.0002817576284703338 -0.0002788671190731244 0.00010781971381935357 -6.221114732391425e-06 -0.9739688695942731 0.008659982161018548
4.027 -0.8619586661930021 0.20581682212859537 -0.0001792144334468769 0.0002688709454960612 0.0004136180954324389 0.00010045795573493587 -0.9700356881126045 0.005392349741069628
4.027428571428572 -0.8674512298464078 0.2097374342492338 -5.000568473124379e-05 -0.00010025419916647747 2.3818835456747672e-05 -6.833881402784533e-06 -0.9663130523144127 0.015900522122994327
4.027857142857143 -0.8619901067886785 0.2153299359947844 -6.723188889536214e-05 -0.00021354396793637524 0.00026775110756726184 0.0003336058205932464 -0.9738349886559041 0.011461855845829696
4.0282857142857145 -0.8604881773955617 0.23234204237654796 -0.00016624270963703169 -0.0003874724107456036 0.00012103848027728587 3.0530187894691e-05 -0.9724739722929161 0.021675726397236132
4.028714285714286 -0.8641907583610304 0.22818258776283054 -0.00044551370305352195 -0.00042093855269109584 -0.00035579623225795757 9.292205468616932e-05 -0.970513371117006 0.016604231099990773
4.029142857142857 -0.8588096734616993 0.24194083262988036 -0.0004718839849824774 -0.00031394129386165813 5.720819829949706e-05 4.234293493170588e-05 -0.9690418669781395 0.024023388860090242
4.029571428571429 -0.8559289925213508 0.24555632790433965 -0.00022377702790075 -0.00039664050972165483 0.0001262936093404543 -9.929366969870896e-05 -0.9634455757237257 0.020750988971898948
4.03 -0.8519194428428799 0.2519156069759498 -0.0006090589374131077 -0.00021720291394442982 9.636105492227468e-05 -8.63819878818693e-05 -0.974556963411574 0.03255236038885784
4.030428571428572 -0.850735213769237 0.26438497789874876 0.0001016908584227369 -0.00013933311569062386 -0.0001393654585598881 0.00012685836451224643 -0.9698540566210344 0.029132931052817203
4.030857142857143 -0.8535233503409875 0.2672629771641526 -0.00015702926126137868 -0.00046059520812751506 0.00010614104582083451 -0.0004124244983223082 -0.9715176114935555 0.02207618666609075
4.031285714285715 -0.8441423032216993 0.2750629421175368 -0.0007132428855865244 -0.0002032607225807867 0.00047953623582234334 6.23063991823658e-05 -0.9683842840616946 0.03404252230529262
4.031714285714286 -0.8402597333117587 0.27684256529839135 -0.0006163762697289257 -0.00011299732841437156 -0.00012258126135547413 -0.0001957148396719576 -0.9651647283984188 0.02563374477483336
4.0321428571428575 -0.8372994911963675 0.28811946142953737 -0.00028597919685734483 -0.0003213094979175906 -2.0729733745500772e-06 0.00016699163464614213 -0.9737624133716194 0.03529313209443137
4.032571428571429 -0.8404498921821332 0.2955531453224769 -0.00039072082858227967 -0.0005078931863573971 9.505680448387853e-05 6.406356943908047e-05 -0.9665861685507372 0.0448882170603738
4.033 -0.8391971549118964 0.30158438833397666 -0.0003198249148291399 8.664848373237794e-05 -9.249568022058464e-05 8.610758819375497e-05 -0.9665061134742997 0.04635635893800253
4.033428571428572 -0.8400672864234267 0.3098053896659824 -0.0002471808933727021 -0.0002232027692428487 3.7673017112187064e-05 -0.0003475491854856636 -0.9634463231384793 0.03999669310970964
4.033857142857143 -0.8354531894053343 0.31714384787159217 -0.0003835741204322389 -0.0003052571375794867 0.000253113257433361 0.00034124226381077754 -0.9607073784023853 0.04357199835562255
4.034285714285715 -0.8265832123745656 0.3202894811274497 -0.000607529248876478 -0.0004788940458589489 -8.317110075635349e-05 7.866333768792238e-07 -0.9665677726284535 0.04362646697418549
4.034714285714286 -0.8195425550278007 0.33442553366838035 -0.000127324557978833 -0.0002399161559766266 0.00023109028120227876 -3.839187021217983e-06 -0.964781679384714 0.05157363623834752
4.035142857142857 -0.8243392090577452 0.336220255950094 -0.00039337072698673214 -0.0001738647196990835 -0.00028717698139161396 -4.3667424671467664e-07 -0.9669435955999196 0.05060372537864324
4.035571428571428 -0.8156047241051939 0.34584647791234674 -0.00042115215565100884 -0.0002793005090536789 -9.089914405951875e-05 -2.2761690503032184e-06 -0.9671292367484052 0.05868998602436098
4.036 -0.8134627848540834 0.35486242398194373 -0.000351012143807854 -0.00038506552494269085 4.910177890348442e-06 0.00021832401854249536 -0.9700324481217619 0.056962924546370905
4.036428571428571 -0.8199524829570212 0.3522709838148207 8.487563545099132e-05 -0.0003466298765610152 -0.00021346109305139276 0.00018222221000423045 -0.9671252053291268 0.05234395701117494
4.0368571428571425 -0.813034062268404 0.3656078301627587 -7.129933749153019e-05 -0.00014223818478576898 0.00027021275095745527 -7.90862037172331e-05 -0.9703304744054774 0.053402975924517225
4.037285714285714 -0.8056107573505483 0.3724011232702444 -0.0005038046865260117 5.5039896464897405e-05 -5.7016007990066255e-05 0.00041225496139030615 -0.964682180936386 0.0570448187742813
4.037714285714285 -0.8024690347015788 0.3727641591425553 -7.751845769666187e-05 -3.3045405919351534e-06 -0.00017216514674230302 -0.0002447534055123439 -0.9694030035198105 0.05621470941515202
4.038142857142857 -0.8000163896704441 0.3918034987547174 -0.0001912662766794273 8.315465846477493e-05 0.00033903021923555125 3.8665495652154767e-05 -0.9636336353666114 0.06191339349180567
4.038571428571428 -0.8007187259771124 0.39020080865237916 -8.124810509466837e-05 -0.00034260968488368857 7.316491048041614e-05 8.360470960283845e-05 -0.9598160668216806 0.06825151490400087
4.039 -0.796562520805915 0.39568254983098294 -0.00014545745837435015 -0.00010632118782588364 -7.343447801422165e-05 7.880697949156237e-05 -0.9616242144474706 0.06454419894113515
4.039428571428571 -0.7891429713007256 0.412289422527127 -0.0001202861518779577 -0.00020562478990583552 0.00026210550354407937 6.313257992842259e-05 -0.9650884478954175 0.06985015768592641
4.039857142857143 -0.7925306788938292 0.41129578871961414 -0.00014300038549251335 0.0002248491667175843 3.354758283033598e-05 0.00018786748022201082 -0.970783658148101 0.07015779894789656
4.040285714285714 -0.7858225847785318 0.4101932302430142 -0.00011477985037691838 -7.304894057283156e-05 -0.00019049772190725257 -0.00030685944714369656 -0.9634441305111595 0.07650564298327042
4.0407142857142855 -0.7864865713505427 0.42425522201639887 -0.0004541567739270396 -0.0005539855220668232 -9.625105134820806e-05 9.146743781452993e-06 -0.9595114401938761 0.0755801516712373
4.041142857142857 -0.7724274974120687 0.42941595645378405 -4.4874861943696665e-05 0.0002539862101741133 -0.00030669030257914526 -0.0003251444328001776 -0.9674899039875927 0.08362999334799517
4.041571428571428 -0.771318767051801 0.43551816734947973 -0.00026711284344471144 8.762214024087829e-05 0.00017311964320418366 4.357946414826742e-06 -0.9647859235545311 0.08512727926978696
4.042 -0.7689029573010724 0.44614144049152615 -0.0005940238593552953 -0.00017895762834997317 -0.00015335790080127368 0.00015027290444096728 -0.9616731666667562 0.09068459677227654
4.042428571428571 -0.7633948982174092 0.44745287507146303 -0.0003868649203530023 0.00048559351224807397 -0.00024704939724644787 -0.00010341572377516141 -0.9597906614087022 0.09196673815256615
4.042857142857143 -0.7639321856198273 0.445418356607159 -0.00021022605515202565 -4.9109215736870216e-05 0.0003158984301682115 0.00026794250795470826 -0.9636594123953961 0.08776969850836096
4.043285714285714 -0.7580657473113714 0.46213727202305527 -0.00022954340926527406 0.0003494656470109956 -4.4878956392417335e-05 0.00011670324922705703 -0.9652788126597953 0.0873741919695491
4.043714285714286 -0.750963335331776 0.46616271585112795 -0.00040472586180021413 0.00019580848488951966 -0.00011536719107426716 0.0003142272149615035 -0.966400438698109 0.0836368575951494
4.044142857142857 -0.7525743342196196 0.47455064021083143 -0.00020604446156211923 0.00011659901911280621 -0.00013709815446373046 0.0003121106097491996 -0.9624977841779473 0.09708956662044707
