!Created with skrf (http://scikit-rf.org).
# Hz S RI R 50.0 
!freq ReS11 ImS11 ReS21 ImS21 ReS12 ImS12 ReS22 ImS22
4.0 -0.8468902226044506 -0.2543021821962104 0.00044512561108471933 -0.0005318380194757854 -0.00017684442776008335 0.0001548621379782418 -0.964123333729658 -0.1305289350888692
4.0004285714285714 -0.8536909984552463 -0.24641103909918016 -2.593439122973941e-05 -0.00019701276584187916 -3.0963222965615577e-05 0.0001319394781522597 -0.9713543032990878 -0.12462401065406252
4.000857142857143 -0.8587517018227203 -0.23625375136496513 0.0003175515223552243 -0.00046715858925968 -0.00021836545044560352 0.00017355593969768798 -0.9669747646157382 -0.11767724954442756
4.001285714285714 -0.8515004426599392 -0.23025102553069637 0.0005705176425748341 9.255061512895876e-05 0.00020084693289026378 -6.574692435961884e-05 -0.9640946949554641 -0.11581293436830273
4.001714285714286 -0.8594962333548801 -0.22331620401379854 0.0002834311698806238 -0.000356350048036352 0.0001116296538896148 -0.00013774166303988258 -0.9667740883392748 -0.12262888001495213
4.002142857142857 -0.8580773626306527 -0.2227357328826338 3.9018108789601796e-05 -0.00011979032705027281 -0.00011943251036031134 -1.4596888436531978e-05 -0.9652557285530716 -0.11386454227361756
4.002571428571429 -0.8602996282006731 -0.2128458012460601 0.00021488873384168798 -0.00010598007266099526 7.46997666221567e-05 -0.0002055602194412947 -0.9714757763519491 -0.10593347694202136
4.003 -0.8660032901616307 -0.20221223899247268 0.00024907265485802786 -0.0002717106098215011 -7.444486358275077e-05 0.0002582331693142545 -0.9685978605684452 -0.10589829573290037
4.003428571428572 -0.8670740845493641 -0.19929385440558006 8.496678755931294e-05 -0.00045123390256480165 -0.0001893695340796487 -4.1187424875976494e-05 -0.9611949642156216 -0.09873138708538057
4.003857142857143 -0.8630478542561342 -0.188013777223109 0.00016241849040054195 -0.0007727809619297415 0.00017033688851611882 9.313313777763899e-06 -0.9709305232740784 -0.10996842296104604
4.0042857142857144 -0.8744366902891275 -0.183528446767744 0.00019814542621626098 -0.0007929124998347021 0.0002425891663750831 0.00043918787695756907 -0.9674783512525873 -0.09883690275722605
4.004714285714286 -0.8699665751684023 -0.17407316762759883 0.00048559820714364334 -0.0004344509562358745 -6.69898464269152e-05 -6.932677992000837e-05 -0.9597608204123321 -0.10756725026767625
4.005142857142857 -0.8715028389310319 -0.16474169146845835 0.00048415459135668865 -0.00037236546693787415 -6.782837424821559e-05 -0.0001552460931545939 -0.9680821253999194 -0.0952705050635955
4.005571428571429 -0.8721675048768308 -0.1578817010313598 -4.5588730502398687e-07 -0.0003917583745068771 -0.000227161633069566 0.00022903382712084768 -0.9600453353213982 -0.09590555961900979
4.006 -0.8745124695813841 -0.15508268925380594 -2.3671436835978598e-05 -0.00031113270442634195 -0.00011270498519756917 7.852330133988469e-05 -0.9701693103646735 -0.09419233000764489
4.006428571428572 -0.8742536763186086 -0.14988413806342768 0.00014563270151673707 -0.00047321611899669357 -2.8055325156143582e-05 -0.00014826154709790123 -0.968373707730993 -0.09376175196932282
4.006857142857143 -0.8804380694276097 -0.13842276826870836 4.475658010439889e-05 -0.000305683583482682 9.971356297992506e-05 -0.00023093601080062645 -0.9644622359390201 -0.08797750554441816
4.007285714285715 -0.8818670984156783 -0.13077146650496604 -0.0003316036920668201 -0.0002811022416169538 -4.9562432033415524e-05 5.816997918927398e-05 -0.9696352197257829 -0.08120664570471726
4.007714285714286 -0.8799630888852095 -0.1261978084906406 0.0004023229120386645 -0.0004771565577943723 -0.00027785968029656467 -0.00016453677763175674 -0.9631799848334731 -0.08265239920683352
4.0081428571428575 -0.8830697457213227 -0.12396762213344768 -5.082273551270396e-05 -0.00037279950479283085 -0.0001376155223532281 0.00012112441933080367 -0.9681817041180381 -0.08832721241541068
4.008571428571429 -0.8837221347252667 -0.10989578607374743 -0.00011932629027917196 -0.0006649679020817137 0.00015329564735816988 4.2480505887712776e-05 -0.9638836762055436 -0.0794501954019749
4.009 -0.8833828562788224 -0.10435778300717408 6.583220349000133e-05 -0.0006568185656509233 0.0004536255179959587 -9.608694211645954e-05 -0.9761649219761712 -0.08554408581123293
4.009428571428572 -0.8821741945756171 -0.10048245331620305 1.2648218647060047e-05 -0.0006305181520302979 -0.0002444756697537516 0.0003090274831605754 -0.9758709130529121 -0.07723617463055864
4.009857142857143 -0.8857560336795343 -0.08914312643194144 -0.00035534621976748626 -0.00034538311428529867 8.565219144114084e-05 -0.00019106626189538785 -0.9664584380246176 -0.07027823799491334
4.010285714285715 -0.8881382004251879 -0.08135469241366712 -1.4852525690325109e-05 -0.0005940725685788917 -0.00010423281631108867 0.0003278132080311992 -0.9656592237223611 -0.07304660202164293
4.010714285714286 -0.8867842022389317 -0.07535209227894077 0.00020412723061048198 -0.00030490152725656724 -5.9960309273612933e-05 2.53290353113833e-06 -0.9707525759277934 -0.0718174818301146
4.011142857142858 -0.8830467882081336 -0.07238824454309685 0.0005066007766445561 -0.0005250269132453346 0.00023061638945938342 -0.0001597691344349118 -0.9694684156204071 -0.06525758257421921
4.011571428571429 -0.8847630291753823 -0.05892624135259287 -0.0004692217325473373 -0.0003569087328568449 0.00012711796653339273 -7.786246250522216e-05 -0.9704755245618667 -0.06702410574644718
4.012 -0.8880286300592922 -0.05604914987250248 -0.00011349654267097787 -0.00031663479970738705 6.144524460207451e-05 -0.00019043061763106855 -0.9734182881964595 -0.06393606435293159
4.012428571428571 -0.8846826589551406 -0.04664023065157757 2.760417206949425e-05 -0.0005480899540457227 -0.0001344648773828133 -0.00014719939859373632 -0.9631725158785355 -0.055641311699165294
4.0128571428571425 -0.8918786791195737 -0.035132741006174154 2.842438673352154e-05 -0.0005753096857964728 -9.883616134566576e-05 0.0002568947302520094 -0.9667736880935319 -0.06407648898851168
4.013285714285714 -0.8828828074326845 -0.03367434001019617 -0.00016174594393570483 -0.00025570432157813087 -0.0002780421736914964 0.00024902515490991226 -0.9609380912972815 -0.059308192883845784
4.013714285714285 -0.8855031806711567 -0.023380128679882817 -3.978257486045103e-05 -6.946483077321239e-05 -0.00013905538640737448 0.0005101406399796205 -0.9752696656072967 -0.05265301638223644
4.014142857142857 -0.8850975442616325 -0.013369117538133876 -8.09962807887888e-05 1.1983267684785669e-05 -0.0003291421113651137 0.000276492153409518 -0.9705111659830051 -0.04656176712723605
4.014571428571428 -0.8831464808489243 -0.013350763220407022 -0.000250702692916137 -0.00026857832683092496 0.0006611140448102708 0.0002002419265339439 -0.9696021276455409 -0.05263629933577737
4.015 -0.8948569370820646 0.0005077403404657988 0.00016341667727378878 -0.0002608773427902494 -5.78184154368915e-05 -5.45158754504563e-05 -0.9657774987028168 -0.05230685014954753
4.015428571428571 -0.8896432726121427 0.009756772355081883 -0.00018215765763949992 -0.0004538692400221465 -9.424732600248443e-05 6.8030288048881e-05 -0.97151316424717 -0.04829473343557317
4.015857142857143 -0.8877548554909658 0.015194630712567382 0.000321682378826668 -0.0006193654839855596 -8.523918357292169e-05 0.00010975619880161105 -0.9692437977914163 -0.04748305352769508
4.016285714285714 -0.887260244029076 0.021838445181147227 -0.0001433102263814272 5.2555021165629905e-05 -0.00015940389296869193 5.873382315856337e-05 -0.9644901841135405 -0.04175207149855638
4.0167142857142855 -0.8873904721422657 0.027648247885099033 0.00034774373672810194 -0.00013867189822891558 -8.978054107177174e-05 0.00031320451094049464 -0.9648954974344529 -0.049513638932847805
4.017142857142857 -0.8826866035679068 0.03736698162229488 0.0001745394049095784 -0.00034123577000270787 3.744228130744988e-05 4.112650956859838e-05 -0.9619239430010584 -0.040798469169756366
4.017571428571428 -0.8892296707572195 0.04111226955805606 -1.7584423939767636e-05 -0.00016396891135394008 -0.0004538901018288636 -0.00019804206851659864 -0.9732006507028599 -0.04157125492087365
4.018 -0.8836688949995888 0.048116749222949604 -0.00043253474587113476 -6.762276433518818e-05 2.139600081254186e-05 0.00011046581156149603 -0.9701785193219741 -0.03934154656369754
4.018428571428571 -0.889750385523045 0.057247238988626034 -0.0002001788614287475 -0.0005307540218516025 0.00043260883634159517 2.127092608207e-05 -0.9709960175153619 -0.03389326486580741
4.018857142857143 -0.8821588035868625 0.0646226734052206 -0.0003194522776337965 -0.00033610908716920866 6.812517356818927e-05 8.598166050214926e-05 -0.962091055376852 -0.02893539440449118
4.019285714285714 -0.8806342072659412 0.07576778747850778 0.0001851929265590151 -0.0003429215764878243 0.00019978736454537386 -0.00033803354660161847 -0.9694936670392427 -0.029492525439920467
4.019714285714286 -0.8852792199259581 0.08554364391514356 -0.00011395321441562612 -0.00038339122693443887 9.292035379139056e-05 7.882110284219087e-05 -0.9641369779078028 -0.02963920383873073
4.020142857142857 -0.8847641442902511 0.08675497861076603 -0.00011539060479228025 0.0002695358795399744 -0.0004079148052978144 0.00016431657462814578 -0.9677771627339145 -0.023858601961527524
4.0205714285714285 -0.8837173524499968 0.10291753900368748 -0.00012328223033174074 -0.00014704506567593778 -0.00013505048412508976 -9.43327598636949e-05 -0.9694947989207013 -0.024685359929838883
4.021 -0.8813654999439526 0.10032599401259289 -8.047491286717809e-06 0.0001692585725344831 -0.0001300340615048245 3.590324443589453e-05 -0.9673746897370861 -0.01828001402436661
4.021428571428571 -0.8802189525565994 0.11111467670400012 -0.00014019302693867928 9.707116687896118e-05 -7.594078267445297e-05 -3.080441061835576e-05 -0.9691974051335716 -0.021551571868783894
4.021857142857143 -0.8808067338678661 0.11771283453409132 -0.0003085652140503833 -0.0003310932735354472 -0.00018281986314150643 0.00020112572395348133 -0.9693688223907939 -0.016256344550494524
4.022285714285714 -0.8711897992288771 0.12056467402566524 -0.0004181366383392841 -0.00032271359533225113 -0.00011180398675358245 9.70544344490244e-05 -0.97489293461881 -0.00972778675388441
4.022714285714286 -0.8784453263157581 0.13737105420043277 -8.340344395420421e-05 -0.00044608979020441665 -0.0002732375790013071 2.9289873217068993e-06 -0.9658071262661897 -0.015503625267249046
4.023142857142857 -0.8734971588258275 0.14139571777408208 -0.00013597262539368532 -0.0006377993036725537 -4.8358880224348786e-05 -0.0001199528900786892 -0.9684712577454685 -0.007648891184401374
4.023571428571429 -0.8750237231123781 0.14310358139685633 -0.0003501633765217554 -0.00048630908265686175 0.00026567197398764736 -0.00021178870061630678 -0.9647096732354118 -0.004810481975175295
4.024 -0.8707963820334186 0.15477785978179662 -0.0005705270532134226 -0.0003980434537081283 -0.0001447449166981765 -0.0002213701205111143 -0.9694262552301465 -0.008577056371432397
4.0244285714285715 -0.8734215007071091 0.159600255254445 -0.0002932548965494389 6.0676175989643946e-05 -0.00014423124623342195 4.207084824135529e-06 -0.9686492940870053 -0.0028355062802613755
4.024857142857143 -0.8734537995776779 0.1714494895207327 -1.6382869100155883e-05 -0.0001691788091570452 -0.00013923503537759664 4.2416894320936116e-05 -0.9675710695425626 -0.003103777023032367
4.025285714285714 -0.8731614285814475 0.1781756554284368 -0.00021525988973066114 -0.0004485854150262805 9.723042002404276e-05 -5.8237141147149454e-05 -0.9661733500301122 0.0017442326503614573
4.025714285714286 -0.8709155241493729 0.1851252468956661 -0.00039552461546925853 0.0001963305630394817 5.302661209936762e-05 -9.04692260185373e-05 -0.9768209611808568 0.008036696472839971
4.026142857142857 -0.8747057142694258 0.18989210262077008 -0.0004576045407665215 -0.00038428047762099064 0.0005231520456390853 -1.6731968375563083e-05 -0.968347912505586 0.002443541117803625
4.026571428571429 -0.8595170443076995 0.1994943108202843 -0.00016239000189383212 -0.0005323204380598426 0.0002680151658335745 0.00013815271390823632 -0.9723497382073057 0.00752622852635149
4.027 -0.8621066389954251 0.20762787177856487 -1.798095800264958e-05 -0.0002865198329084922 5.299605245195522e-05 7.668931830429244e-07 -0.970633293703838 0.005628346941285251
4.027428571428572 -0.8653216875651856 0.20818034327782647 -0.0006041102804674028 -0.00019127161677791305 -7.579528403718389e-07 0.00026619730406398295 -0.966079975187487 0.01692116222260834
4.027857142857143 -0.8596366507522629 0.2153334471004202 -0.0005025443371682597 -0.00016801581327342518 0.00023795473441321036 -4.8515222558448876e-05 -0.9765551299431715 0.01147266013091769
4.0282857142857145 -0.8596392513953006 0.23070770597860876 -0.0003075334164615296 -0.00040956765568414717 -7.344330117807969e-05 5.080121093355503e-05 -0.9730239251480739 0.02137234645393104
4.028714285714286 -0.8632834893930741 0.22846388721678274 -0.0007043848495314363 -0.0002368608755380187 -0.0001330926772186135 0.00017703993857072305 -0.9693667576484896 0.012115916531924214
4.029142857142857 -0.8583052135568331 0.24315653285604524 -0.00037292926543657645 -0.000416168591931063 3.4956112159157825e-05 2.9677976730817222e-05 -0.9695189466355979 0.023412624527712287
4.029571428571429 -0.856050574050226 0.24575349831926302 -0.0004318898307758001 -0.00019667542504361036 -0.00018300957197136698 0.0001104742517953278 -0.9643139261679055 0.02131129302601476
4.03 -0.8508308129550082 0.25207434813049834 -0.0008938199287846849 -0.0002562614109881053 0.00026602485964416066 -0.00010016707026398185 -0.9712794481000409 0.03394926463313362
4.030428571428572 -0.8485979543198896 0.26433226504860885 -7.179292859190174e-05 -0.00020391914407926447 0.00024291926963937913 4.6596965292610885e-05 -0.9699664112390116 0.027673596766883243
4.030857142857143 -0.8515536653174194 0.266200051253123 -0.0004322443467323474 -0.0001849422236694126 -0.0002660307372627677 -0.00011659917124768674 -0.9709390579958266 0.019794929226613793
4.031285714285715 -0.8439321084576615 0.27439866279654385 -0.0006833886976188061 -0.00043002089301456424 0.0003687394161514669 -0.0001623059510325408 -0.9668579925330427 0.034381870453719036
4.031714285714286 -0.839852164432645 0.27842866197400457 0.000140561147171134 8.560841778460633e-05 0.0005368428057892152 -0.00016659108699509603 -0.9645878740213893 0.023965829359712146
4.0321428571428575 -0.8363599622057484 0.2873834358374886 -0.00017108237479791436 -0.0001160555051883278 -0.00015300433741250507 -0.00015099684470478263 -0.9723798070934352 0.035134544152282995
4.032571428571429 -0.8385421290984195 0.2953119704296288 -0.0005473861358488658 -1.0821163015558423e-05 -0.0002856241925004657 -0.00012016499701103758 -0.9671641643240537 0.04545157976577628
4.033 -0.8367241501056422 0.30166337280571587 -0.00027917331309412687 -1.7336903596140756e-05 0.0001343465344137443 5.2387806249453664e-06 -0.965708755257911 0.046511223889666053
4.033428571428572 -0.8394196817331803 0.3090464695352819 -0.0006177375553208362 -0.000247299811079271 -0.00032897036538945913 -0.0001786785715502038 -0.9638669309503121 0.03956316861173176
4.033857142857143 -0.8324875409087374 0.3163468805231045 -0.0004586526988585067 -9.274106879959856e-05 -8.761070561699212e-06 0.00011102207053352886 -0.9632982843982055 0.04398651121349995
4.034285714285715 -0.8253512732359232 0.3207384320618551 -0.00037796685959481317 0.00010310783174275235 3.8567206412345385e-05 0.0004021422896293333 -0.9659463165125894 0.042354437106335914
4.034714285714286 -0.8192233924945544 0.33366993014419793 -0.00035563315721187357 -0.0002464449808328645 0.00027564592391572066 0.0003079880958090013 -0.9664546833252017 0.05074969624312214
4.035142857142857 -0.8234685197262227 0.3379247145126547 -0.0006313445049828983 -0.00019158195561145351 -0.00022815104659400668 7.548382474123025e-05 -0.9677352709122846 0.05214304103238574
4.035571428571428 -0.8156257049358904 0.34431788017276727 -0.0007303485991178307 0.0001342580551549116 0.00022923366641848256 -0.0001460346520800226 -0.9684360911142139 0.05601932254589528
4.036 -0.8107524887152693 0.35352996372576273 -0.00043389577578177823 -7.072546583565718e-06 0.00020716182241165853 0.00013121705059950683 -0.968591319174984 0.05653622826281409
4.036428571428571 -0.8203516346107325 0.3524445766503011 -0.00039883513441809194 -0.0001429953487169866 0.0002868488284513966 -0.00014146996625310408 -0.9680645772015246 0.04978938076015954
4.0368571428571425 -0.8121308784466773 0.36412100041983586 -0.0004560235700268643 0.0003757167529749025 -1.902880303266682e-05 -0.00010590374252374116 -0.9693853145937079 0.05142222654159892
4.037285714285714 -0.8042565055896428 0.3726782592488882 -0.0005969308613991152 -0.00010441813808360425 -0.00010383260090702954 -0.00013448700757413452 -0.9623087651513151 0.0571772375360724
4.037714285714285 -0.8039774347776363 0.3714860983624372 -0.000140549535129123 -0.00025447046355290523 -5.7588305809573545e-05 -2.0142878500473726e-05 -0.9708666197144824 0.055829525120173945
4.038142857142857 -0.7984776788176844 0.39233283621550813 -0.0005983904767335673 -0.00011448814621784693 -0.00018129831082979036 0.0001859691248610087 -0.9637098379476879 0.06085698684086109
4.038571428571428 -0.8002825165660173 0.38924358578236185 -0.0003289748794880728 -0.00014186763475054225 -0.00026435335271787324 -7.175711239836103e-05 -0.9614731216511222 0.06562619223747046
4.039 -0.7946884793200999 0.394152041321288 -0.00030170668795455633 -0.00020226068443456022 0.00012185611973452359 -0.00020376925435232077 -0.9588983285379187 0.06442119321308636
4.039428571428571 -0.7871685330460247 0.4106171333939404 -0.00045800195604109187 -0.0001226795219984218 -0.0005494901432698562 1.761502721211205e-05 -0.9630119065612972 0.06807302865456298
4.039857142857143 -0.7903005104881868 0.4103060427187045 -0.00028363063988223405 -0.0002656721546679799 7.206171561512939e-06 0.00010680563965754891 -0.970394129036508 0.07056617233608516
4.040285714285714 -0.7858747445223736 0.411069288822238 -0.0006386065326582776 -3.662824341203963e-05 -0.0002252381672264013 -0.0001572678619098932 -0.9645722812287966 0.07592397168651593
4.0407142857142855 -0.7872402540169428 0.42298685259910024 -7.915365958229852e-05 -2.1975886907579878e-05 0.00015795146423757794 -0.00016655769900463945 -0.958338888965396 0.07444197879856389
4.041142857142857 -0.7737939256265416 0.4275597660922352 -0.00046297797357920694 -0.00019035032673228757 3.378067920630832e-05 0.00021895877849352748 -0.9702360946839693 0.08453089120087764
4.041571428571428 -0.7723336061912336 0.4355010157399972 -9.219788536597735e-05 0.00012009313323271623 7.006929813335281e-05 7.079722655929756e-05 -0.9645506696367177 0.08222315766734574
4.042 -0.7695377878677073 0.4447721518643227 -0.00047593910398541716 -0.00012617645254741995 -0.0003035480476146816 -0.00013740528063696026 -0.9641768266232223 0.089943800088014
4.042428571428571 -0.7638471873686202 0.44665044222455097 -0.00014086685802057748 -6.344824101770077e-05 -0.00022094153000029408 3.8596551695366096e-05 -0.960248756724502 0.089816795130758
4.042857142857143 -0.7632153889509928 0.44575416336452084 -0.0002791106620966956 -0.0004959675986524355 6.07403586455582e-05 3.8542411407131545e-05 -0.964207411947603 0.08620306618463158
4.043285714285714 -0.7565332373028062 0.46379764501111714 -0.0004687274911718548 -0.0003388775455121205 5.7292628534144375e-05 -0.0001453044770573821 -0.9637929793160287 0.08521716015372453
4.043714285714286 -0.7526650119277191 0.4641422460736853 -0.0005077898502557221 -9.454492249868124e-05 -0.00019587825812657133 -2.361146300184631e-05 -0.9673468538189763 0.08226442879731398
4.044142857142857 -0.7504255502644596 0.4737700381735916 -0.0002216995878216603 6.218868585698647e-05 0.0002699607578171157 -9.210509296076006e-05 -0.9639218348545485 0.09598081873008021
