!Created with skrf (http://scikit-rf.org).
# Hz S RI R 50.0 
!freq ReS11 ImS11 ReS21 ImS21 ReS12 ImS12 ReS22 ImS22
4.0 -0.8413497660508155 -0.24780525319032318 -4.301645377009798e-05 -0.0008105222041568124 -6.015542958506573e-05 4.070229209782426e-05 -0.9637935773792874 -0.12928129293795024
4.0004285714285714 -0.849953507437301 -0.24090449456461635 0.0001818286267658228 -0.00032940162072854826 -0.00012986489479776688 6.781782278382513e-05 -0.9707294350829612 -0.12237751396451294
4.000857142857143 -0.8532260302366708 -0.23164497240657098 0.00016677903150214796 -0.000523125952283224 0.00026272236452792955 0.0002573117781397889 -0.9668619274667987 -0.11517213808664147
4.001285714285714 -0.8457804937919743 -0.22724302132383042 -2.7210359567448843e-05 -0.0004768430176528318 -4.191757706244759e-05 -0.00011316082951824753 -0.9642289488227643 -0.11611270022824657
4.001714285714286 -0.8521311282386164 -0.21937541208726272 -5.72815629598607e-05 -0.00021585859001036506 9.279139934295502e-06 -0.00019712674867196906 -0.9662729312576368 -0.1199416221630552
4.002142857142857 -0.8517994899553041 -0.21787436909701874 -0.000125972657274061 -0.00042608410537183715 -9.258451519211922e-05 6.075156965420907e-05 -0.9652313277871656 -0.11258434377450172
4.002571428571429 -0.8548504820971038 -0.20855763091205043 -3.00058790395356e-05 -0.0005424907061720923 5.1781864161016614e-05 5.974256435723875e-05 -0.9692403897472067 -0.10536719653047708
4.003 -0.8600777177407832 -0.19762624183999394 0.00017185590627570672 -0.0007277340958522099 -0.00013150776589604827 -0.00012727776993983232 -0.9692646871676811 -0.10497560410459472
4.003428571428572 -0.8605227872089742 -0.19197567136052587 0.0003173751257913523 -0.0003859190924753665 -0.00047777767400911754 -0.00010186908281145033 -0.961521537907066 -0.0982290279028533
4.003857142857143 -0.8583550683335226 -0.1856856475195789 -0.00026276055738842763 -0.0008058811245001161 2.402491863829823e-05 -4.799615185809866e-07 -0.9705828547458538 -0.10841306800060543
4.0042857142857144 -0.8688768457005052 -0.17793160588745674 -0.00013238016648029494 -0.0005303149587143313 7.909674321339784e-06 -9.643826836036426e-05 -0.9657905885215167 -0.0987847304952246
4.004714285714286 -0.8651156396152222 -0.16928054317598956 -0.00030772065635503135 -0.00027626902589885873 -2.7601408263739996e-05 5.1271712691816984e-05 -0.9609215499953623 -0.10801084565817709
4.005142857142857 -0.8654383944333297 -0.16151295010324287 -0.00014420495682223363 -0.00017554736130281367 0.0002044964383947191 -2.1641441304063135e-05 -0.9682753796872499 -0.09620324378691074
4.005571428571429 -0.8677413054660554 -0.15528469826058072 -0.0001839997438183058 -0.0007071726905428565 0.00010421812534718581 -0.00022227194900557984 -0.9611852752763592 -0.09478573733879893
4.006 -0.8707962106349649 -0.15049702375895047 0.0001990740514900983 -0.0004666388758904777 -8.463893185772333e-05 0.00011543569630999754 -0.971118037918682 -0.0918683314907062
4.006428571428572 -0.8685823474415674 -0.14610919253766927 -0.00021132429302606745 -0.0003445605115098811 4.73079363326899e-05 0.00022623778625866257 -0.9664130574800976 -0.09265715634929143
4.006857142857143 -0.8750650216915427 -0.1338512483035359 -0.000108322163479103 -0.0004018481645742354 -0.00014587903146121988 -0.00016001547977605987 -0.965301290676381 -0.08484094344358716
4.007285714285715 -0.8752542595877745 -0.12902129600689616 7.849311594388867e-05 -0.0008757150003483372 3.43700462175239e-05 0.00013909989754107359 -0.9692126552502968 -0.07939368239266813
4.007714285714286 -0.8728768455492363 -0.1211808740067343 5.133775887896587e-05 -0.000852268857013685 0.00014487621697577692 -0.000106136343074059 -0.9632772223355096 -0.08164770116916663
4.0081428571428575 -0.8736076094109592 -0.11819403847813541 -2.784427786868575e-05 -0.0007978682489468936 0.0001371747876154401 -2.2137288455101576e-05 -0.9676472080019667 -0.08746162820701002
4.008571428571429 -0.8788618571406743 -0.10474763817614467 9.055717656775618e-05 -0.0005626915108477025 0.00030714424376832527 -0.00011786820355171998 -0.9641800378694106 -0.07740238873300763
4.009 -0.8797394026056413 -0.09951679622355783 5.260819583999713e-05 -0.0009156964924867734 9.351842821031042e-06 -9.675824230800097e-05 -0.9752440131017944 -0.0848427649641162
4.009428571428572 -0.8779865092005025 -0.09818825385348179 0.00015181212583170473 -8.227954640685888e-05 -0.00022459005544108262 -2.4177469744124874e-05 -0.9763918157821017 -0.07637829817823888
4.009857142857143 -0.8788962724414139 -0.08577297950131292 -3.659739824096522e-05 -0.0010124100905936112 3.0236404199254684e-05 0.00015679280291697986 -0.9677807833336238 -0.07020075318383742
4.010285714285715 -0.8807649427485492 -0.07951539798695495 -0.00040948712837789994 -0.000616220538875184 0.00012800791865665495 -3.1804709524219565e-05 -0.9639692719244485 -0.07392001884562953
4.010714285714286 -0.8811217282280118 -0.07306272535503548 1.4833213657894047e-05 -0.0006469881602891675 -3.0183244338257264e-05 -5.779036314160934e-05 -0.969414401893382 -0.07171459261104458
4.011142857142858 -0.8761701355969939 -0.06912282141343512 -0.00047615171496605285 -0.00019867233536534346 -9.43646596786165e-05 -0.0001110164157880685 -0.9700381067942687 -0.06610850983835978
4.011571428571429 -0.8785119633162974 -0.05510761341841298 8.398993775007828e-05 -0.0004342827281809001 0.00010907611355636617 4.490151006159487e-05 -0.9704178109477631 -0.06644098846116586
4.012 -0.8824775970461817 -0.051254425963474994 -0.00034769198605664613 -0.0009583989714582096 0.000353658177903755 0.0005610445525215887 -0.9741966238095948 -0.06320072883368308
4.012428571428571 -0.8787915105838917 -0.04339215522237912 -0.00014220410869271268 -0.00017687200076511308 -4.617851339455257e-05 -0.00010513861218872701 -0.9648311857616949 -0.055588823701806594
4.0128571428571425 -0.8858430450363988 -0.03297788839913726 -0.0005325682280173827 -0.0004261437577209257 -0.00017996319247579816 7.214276140735386e-05 -0.965611694652499 -0.06298193764716065
4.013285714285714 -0.8770747208805144 -0.027345721447436265 -0.00011772225948783531 0.00010753009830619575 -1.7039054288799876e-05 2.651632430772952e-05 -0.9648617616576414 -0.05917558030881431
4.013714285714285 -0.8806571304300915 -0.017833166855988503 -0.00033191748237968317 -0.0006511150616447995 -0.00024516679506701765 -6.585909127721823e-05 -0.9769840955010256 -0.05145081792893842
4.014142857142857 -0.8803511541471145 -0.011105878207131341 -0.00021829008146856413 -0.0005307110002557015 0.00014572542590582204 0.00022954677760194398 -0.9716494851589962 -0.04468010078573627
4.014571428571428 -0.8776828498818008 -0.009878376622210501 -0.0002904835280656765 -0.0002329209619421687 -7.442068400117925e-05 -0.00017937400790874887 -0.9703575329995291 -0.051945536841414154
4.015 -0.8875233264272242 0.0029131025662021744 -0.0006268135121595506 -0.0006447954169188883 -0.00018772947302897846 7.777651620833867e-05 -0.9636651976043141 -0.05160083279942864
4.015428571428571 -0.8845940278504798 0.013622961886184743 -0.00011741353264568176 -0.0001872823147352405 -8.781674485794357e-05 0.00018567577969736115 -0.9716340573128455 -0.049602108937906036
4.015857142857143 -0.8806592081204972 0.019334577301723086 8.223058951491226e-05 5.363602104737425e-05 0.0001654488772066409 -9.582449819869844e-05 -0.9715193406865146 -0.04506456266965107
4.016285714285714 -0.8808744404207686 0.024908736688782802 -0.0002140635084811374 -0.00031352070281973933 0.00011626589301396067 -0.00010356385756621526 -0.9646099667540506 -0.04046218924865542
4.0167142857142855 -0.8806600736959626 0.0313279998018869 -0.00022025614501419325 -0.00017743790369843787 -8.997361291342401e-05 0.00010342250297847403 -0.966028723650197 -0.04781755162391195
4.017142857142857 -0.8798197949973321 0.04094609773296658 -9.884311379462974e-05 -0.0007091203843771639 0.00013724282415708658 -2.4481712935629818e-05 -0.9612147090344457 -0.03968189473948408
4.017571428571428 -0.8815134210852261 0.04484737059949331 -0.00026115826004028596 -0.00044871177503419456 -2.5098369469342025e-05 -0.00032332584010805746 -0.9734077116967568 -0.041018259308605025
4.018 -0.8785176410259087 0.05069206130979241 -0.0003425855590069039 6.97251697018097e-05 -0.0001300810215829393 0.00025251017588398105 -0.9689450970176853 -0.04138785009585138
4.018428571428571 -0.8813419776133713 0.05837384754931685 -0.0002726652967072873 -0.0002654878738295902 -9.482865913670657e-05 6.249020638195628e-05 -0.9730659811819748 -0.035054922797599655
4.018857142857143 -0.8751325510798563 0.06932630756019223 -1.2683221955568329e-05 -0.0006138461738181934 9.58308998039758e-05 8.900965269558448e-06 -0.9607282887236214 -0.025922583173950714
4.019285714285714 -0.8755879751539923 0.08005932644201733 -0.0002308148940294758 -0.0009180437355678635 -0.0003216725139180731 0.0003081411811935302 -0.9716688601603656 -0.02591248276820687
4.019714285714286 -0.8787683868605515 0.08493906326979372 -8.829645816836511e-05 -0.00037071684513446734 0.00013612506981093445 -0.000185383178326162 -0.9625901628331239 -0.025777237884893847
4.020142857142857 -0.8785845536129328 0.0923285007330468 -0.0005292937185777698 -0.0002650579966475548 -7.394918652432609e-05 0.00029455877673048955 -0.9684566159802611 -0.02537473190029812
4.0205714285714285 -0.8762504206151043 0.1056223431873193 -0.0005827944288213387 -0.00035405911360633906 -0.0001893134154177233 -0.0003801237026728327 -0.9697236436535244 -0.025657110838991058
4.021 -0.8742684198520104 0.1042788027206474 -0.00044717554475753044 -0.000883252483789807 0.00021046158722547227 0.0002470249844643974 -0.9661298764134478 -0.01970683843524162
4.021428571428571 -0.8716670197280291 0.11501524544255118 -0.0003980067289053932 -0.0009116680662832592 -6.230021781336317e-05 4.3473509651351275e-05 -0.9686007188270398 -0.01894981888480337
4.021857142857143 -0.8735568650394009 0.11867151971286827 -0.0006985149355369701 -0.0003996907114395869 2.855185239004915e-05 9.34187288779041e-05 -0.9676993387154573 -0.016449716823619728
4.022285714285714 -0.866790473112022 0.12308727436616111 -0.000882593807593245 0.0002446396776570304 -0.00013555769841390043 -0.00021247140868023299 -0.9756369961369251 -0.007784186321112712
4.022714285714286 -0.8707793549314118 0.13970245278758628 -0.0004793757260185571 -5.047306971832426e-05 -5.2241078265250214e-05 -0.00014409683760788734 -0.9652695912373958 -0.01317905909101851
4.023142857142857 -0.8681667117967554 0.14436569283123063 -0.0006685381714677873 -0.00029233814049302434 -3.966790878968758e-05 6.998944147548376e-06 -0.9669016120071349 -0.008284237216286103
4.023571428571429 -0.8686951454147003 0.14565213922996897 -0.00014088007177410878 -0.00021051823964347952 -0.00041239652025447984 -0.00030965892976101084 -0.9621011613349085 -0.0040797753484892885
4.024 -0.8634780411586349 0.1571272533457155 -0.0004996947954996129 -0.0002688781083524319 1.7142479771744756e-05 -6.8722401413510975e-06 -0.9712176959568182 -0.007348321329957558
4.0244285714285715 -0.8672323482502903 0.16024207182612626 -0.0002909867015829537 -0.0004378410706546776 -1.894302684178168e-05 0.0001413236688728947 -0.9708211890899774 -0.0014718424161738871
4.024857142857143 -0.8662074117081073 0.1722571312849719 -0.0006561658367348894 -0.00015839622716712923 9.611263676361738e-05 -7.430998388925937e-05 -0.966487428628064 1.1988214162237443e-05
4.025285714285714 -0.8650804640308629 0.18289897448620254 -0.00011173900930456543 -9.57935149639901e-05 1.5759204463009203e-05 -1.0571909452786669e-05 -0.965994735233904 0.004046366768541929
4.025714285714286 -0.8623155485705977 0.18763078907041925 -0.0006231848014518082 -0.00047086575908722884 -6.096231344514785e-06 -6.660404628503757e-05 -0.97381287081688 0.010038918114035175
4.026142857142857 -0.8659361912829316 0.1932879949367183 -0.00024663887775435193 -4.856208893571807e-05 0.0002988478949905872 -0.0001970090430041737 -0.9696899246082914 0.004526692106356893
4.026571428571429 -0.851264072914911 0.20095326458120097 -0.0006035503553928376 -0.00017976744882540024 -0.0003955701186491308 0.0002672179396538694 -0.9739049324911908 0.00945323120237158
4.027 -0.855092297859252 0.20757805775091173 -0.00040743105501386866 -0.0005350428885204221 0.0002804979040146371 5.3509921819808365e-05 -0.9687865499385252 0.005666821909835919
4.027428571428572 -0.8606146465984822 0.2089753589260176 -0.0006130076264943145 -0.00021807025859019215 0.00023796372819953471 -0.0001543259370863753 -0.9651819313601583 0.015594293624142967
4.027857142857143 -0.8548210506265054 0.21744496580105585 -0.0006331682361243291 -0.0003116073145653905 4.024820373881126e-05 -7.950349062945192e-05 -0.9759272040678483 0.012504914908720563
4.0282857142857145 -0.8536230941868891 0.23246548248147123 -0.0007542799992163205 -0.0002378438957443147 0.0002785275046394714 -7.875821482329828e-05 -0.970115767448423 0.02079066254714333
4.028714285714286 -0.8573344190836307 0.22993971953560757 -0.0006506305159821125 -0.00020383737955714681 -9.37997281969893e-05 0.00017356110204902881 -0.970397659634231 0.013209139721711548
4.029142857142857 -0.8502413006078476 0.2439196320865609 -0.0004217938695978424 -0.0003181479848212148 0.0004478559145893024 -0.0001654394359883606 -0.9687532549372024 0.02233720108926136
4.029571428571429 -0.8489173707493062 0.24849841147620055 -0.0003739302585138683 -0.00013910093283438015 -0.0003488836028583458 0.0001880443001206856 -0.9640225258320179 0.0229550169011031
4.03 -0.8443171981381634 0.2536847003685945 -0.00010813686153862685 2.8135633882367264e-05 -8.632338974177034e-05 -0.00018698287244710358 -0.9720771290026192 0.032504467453613996
4.030428571428572 -0.8425204462761569 0.26424083031053675 -0.00041210214677892557 -0.00020921257583428037 -6.35948663904688e-05 -0.00028993486517620633 -0.9695349125626873 0.02878552019745083
4.030857142857143 -0.8427977764483575 0.2678926306426136 -9.878104312374568e-05 -0.00014337926144351545 -0.00016706638383440567 0.00019545445039606993 -0.9705265510835501 0.023391609871123424
4.031285714285715 -0.8378336983549721 0.2773578669709465 -0.000627137899072507 0.0002912318086249659 7.027394532567474e-05 -8.598255305626972e-05 -0.9674157574581643 0.03502030332090193
4.031714285714286 -0.8330280685256461 0.278044117191449 -0.0005090500263292445 6.728575464011563e-05 0.00017166053061484074 -0.00018540220142244376 -0.9643945686256444 0.025262818830212547
4.0321428571428575 -0.8319128398203447 0.2889122000085598 -0.0009628843728472929 3.949762674829138e-05 5.2175430620835405e-05 -0.0001943748196608794 -0.9731226879523103 0.035380746523807675
4.032571428571429 -0.8325796687280309 0.29574098195377424 -0.000480088773713129 -0.0004531664740314966 0.00019636042231230242 -0.00026902405224978016 -0.9665202207896335 0.04403531532064327
4.033 -0.831021337920497 0.3029797974122856 -0.0003569902125153691 2.0016371550655456e-05 0.0002047380203140856 0.00012487379607769707 -0.9666012825505733 0.046751715261294666
4.033428571428572 -0.8329447648235857 0.3108719627266054 -0.0011504026739368577 0.00010533828133606305 7.61002132839424e-05 -0.00011220726034201683 -0.9636779825186591 0.04079776671713989
4.033857142857143 -0.8263658791148043 0.3192045297236839 -0.0009586632603864434 -0.0003551290584969499 0.00014033906810761686 -0.00011322268928233868 -0.9614870911050237 0.04592028200067569
4.034285714285715 -0.8188507921010086 0.3204857122907888 -0.0007420344440804848 -3.759739975272357e-05 -0.0001414243051819071 -7.995729850307205e-05 -0.9669430762901651 0.04448674004156333
4.034714285714286 -0.8124742532354234 0.33498540728138676 -0.0003414835818656147 0.00024048877811693332 -6.370008658678817e-05 -0.00019078709736203498 -0.9655981369020362 0.05194017030283778
4.035142857142857 -0.8142385837210295 0.3384249753119177 -0.00036084147054949123 3.799711505193285e-05 0.00011932098534656286 -0.0001969408922063367 -0.968022678214102 0.051051570047952285
4.035571428571428 -0.8090036906467813 0.3429552078486895 -0.0002637247980913365 3.171279233027711e-05 -7.393269186820372e-06 -2.0588089000147316e-05 -0.9663928620432493 0.05636753504989916
4.036 -0.8048022009842225 0.3547080888522466 -0.00029321122454827264 -0.00011495177296133379 9.351127502941307e-05 -9.746691397501869e-06 -0.9708442839712542 0.05758404721124286
4.036428571428571 -0.8128614406828198 0.3511856223496829 -0.0004595365026940674 0.00047860126935990796 -9.800312562139254e-06 9.079426679757908e-05 -0.9685353660610295 0.05333168154183477
4.0368571428571425 -0.8051099257406812 0.36613146601892826 -0.00045793201938652866 -0.0002794387662973301 -7.028937361206211e-05 -0.00012841699643004252 -0.9706493895309799 0.05526440962670528
4.037285714285714 -0.7981835872420827 0.37249881156814796 -0.00032953025534594764 -9.751377342983522e-05 0.0001638208354023225 9.066510022526887e-05 -0.9630489527672699 0.06015149005179175
4.037714285714285 -0.7960576632034436 0.3721684256196784 -0.0005465530856487938 0.00019344969883478317 0.00018029830153501114 5.8619020426870226e-05 -0.9698328671301983 0.05743505413766652
4.038142857142857 -0.79131080160295 0.39407717856028956 -0.0005226120015113618 -1.1165221117143622e-05 -0.00010001627002370426 -0.0001658808877715819 -0.9636867359811568 0.06299661424870553
4.038571428571428 -0.7922590068942631 0.39163288550243824 -0.0004697170836407384 0.0004367295823983947 7.404956954571931e-05 -0.0002192421740648948 -0.9613607041558756 0.06829084611264569
4.039 -0.7864916389574068 0.39570316272274886 -0.000351940472110151 0.00028295918462641545 8.080199629237817e-05 0.00022756193004446965 -0.9587778953788322 0.06483343296201202
4.039428571428571 -0.7793979692785079 0.41340196950816227 -0.000868793543888807 -0.00011963674858136694 0.00015066255857849872 -2.1452651277043865e-05 -0.9646479631893942 0.06669442085470678
4.039857142857143 -0.7847545913434935 0.41112685127848764 -0.0008570971340417428 0.00035605551777441273 -0.0002225450871831442 -0.00027161656965841335 -0.9693359826127094 0.070612259080806
4.040285714285714 -0.77843511245585 0.4124454910774342 -0.0005685366675432456 0.000161088228432773 -5.042258501522941e-05 -0.000334687542108788 -0.9634087439517423 0.07544760437489945
4.0407142857142855 -0.7793445014311239 0.4242421093210089 -0.0006123078987584437 3.876737525925792e-06 3.403359917781114e-05 0.0003175872069146216 -0.9605568463378367 0.07585778344336422
4.041142857142857 -0.7659233157936979 0.42718379780842725 -0.000428041432349829 -6.613666746860806e-05 7.01893746538111e-05 6.315026765857074e-05 -0.9694515285926939 0.08455946754257716
4.041571428571428 -0.7659871908152209 0.43526785931988615 -0.0003674581004510645 0.00027922621449743017 0.0001757627963406471 4.242453190541015e-05 -0.9652238653697724 0.08511018542199285
4.042 -0.7615681820557229 0.44282192967961426 -0.0007070899633019775 -0.00012158612247797401 0.00023107034622734155 -2.6903428848752655e-05 -0.9632856525863465 0.0892676621665098
4.042428571428571 -0.7564872542096364 0.4479781627334438 -4.8510793479371096e-06 9.048706849615413e-07 -0.00021944691540074464 5.43806014819246e-05 -0.9593958271980313 0.09232428627684777
4.042857142857143 -0.7567932233726704 0.44579961969698584 -0.000386449773413527 0.00024051428893370218 -0.00010406632949102836 0.00017560232616494164 -0.9636233951845731 0.08899924792174674
4.043285714285714 -0.7497086284386728 0.4641259365022708 -0.0005987100757085924 0.0006080278582883286 -0.00019144431129363047 0.00013726076706674524 -0.9633121655534872 0.08527569492426917
4.043714285714286 -0.7432240127178745 0.46671265875409224 -0.00012669094581433383 0.0002739887401985402 6.482625123091256e-05 -0.00021614539424408895 -0.9662702587967116 0.08597679782926336
4.044142857142857 -0.7434589033546952 0.4737676998087 -0.00014734658240261674 8.617443605543862e-05 0.00012675756975889143 -0.00011243020858795089 -0.9634749069686321 0.09689847170506055
