!Created with skrf (http://scikit-rf.org).
# Hz S RI R 50.0 
!freq ReS11 ImS11 ReS21 ImS21 ReS12 ImS12 ReS22 ImS22
4.0 -0.8481259707081253 -0.2512336994679065 0.00016224963934934064 -0.00045086837183013894 0.000190819671365785 -0.00010155148772824564 -0.9634411633399265 -0.13082985089152513
4.0004285714285714 -0.854829255547471 -0.2460419841364945 -0.00012867849078097775 -0.0006473031391404664 0.00018637689743608582 0.00044838945526612514 -0.9703188152341359 -0.12307980178425865
4.000857142857143 -0.8584897448053774 -0.23618970218757554 -0.00020420263572145934 -0.0003024730095739933 2.9086623299160897e-05 0.0003182899202042024 -0.9654343782156374 -0.11675345716048159
4.001285714285714 -0.8529076935736052 -0.23033732482147318 0.00037998868000111157 -0.0006548920383495772 -7.999058293363285e-05 -4.29330516193509e-05 -0.965444715681159 -0.11541340509220849
4.001714285714286 -0.858807949060188 -0.22285744842782224 -0.00011487026181614856 -0.00025374280050039687 -3.908269111547166e-05 -2.921331899653796e-05 -0.9657609173555445 -0.12177598803270218
4.002142857142857 -0.857769830254211 -0.22162736068397693 -7.536842815988977e-05 -0.00027960721279330427 -6.0117702675058995e-05 -2.1179475682341178e-05 -0.9663022435671156 -0.11287739434385559
4.002571428571429 -0.8618160117820105 -0.21149154566038675 0.00035822122838850904 -0.00015662331872939481 -5.607270012461505e-05 0.00010406216034789176 -0.9701905195477795 -0.10653831674601409
4.003 -0.8649007812243151 -0.2007998420633813 0.0005593006813747759 -0.0003854918000650445 5.938200229196246e-05 -7.259118427145513e-05 -0.9666895030002568 -0.10369830460711381
4.003428571428572 -0.869960405311314 -0.19678152520363942 0.00011355100056333555 -0.00048353663358427387 0.0001320478820958074 0.00022259365913042685 -0.9612114797906982 -0.09912285408791813
4.003857142857143 -0.8636677057331742 -0.18759289248265532 0.00030824612411094264 -0.0003254110956500022 0.00014447306310964083 -0.00012292587036989304 -0.9711359157191184 -0.1104028679775855
4.0042857142857144 -0.8747578216317657 -0.18178808678554645 6.310902185566009e-05 -6.771856013108261e-06 -0.0001545273362727074 5.7583414766199245e-05 -0.9660435005261503 -0.09917727781997088
4.004714285714286 -0.8706581178806426 -0.17191368076083166 -0.00011219249074765042 -0.0008626842084510711 4.193712903531377e-05 7.956369919565389e-05 -0.9602104445267972 -0.10700361438641712
4.005142857142857 -0.8724771687398908 -0.16422696191132274 0.00018300409126962438 -0.0001234474300522946 -8.260792001641895e-05 0.00013481486915611484 -0.9685535143404072 -0.09435349312294619
4.005571428571429 -0.874618650151061 -0.1579540912273144 9.878021738864356e-05 -0.0005849690025228966 -3.243082540818906e-05 -9.423934804893963e-05 -0.959547935350547 -0.09441975971466313
4.006 -0.8769559895205669 -0.15391137042167824 -3.5696623785440854e-05 -0.0005794279523157749 4.312784020512099e-06 0.0001190848629743763 -0.9709079280796933 -0.09308303829571855
4.006428571428572 -0.8755469292074838 -0.14931661300668378 -0.000262297049302043 -0.0001625684590242966 0.0001374183065646206 -2.3880268672191223e-05 -0.9680998147976222 -0.0930796656783399
4.006857142857143 -0.880843799355951 -0.1374155717767649 7.335486490318477e-05 -0.0004936151126487361 -9.38572644944207e-05 6.51912996673706e-05 -0.9650966393013313 -0.08634147773735223
4.007285714285715 -0.8826061213233278 -0.13014662831329116 0.00017650744555079494 -0.00012287922178911239 0.00013431045639276465 9.81925467872824e-05 -0.970265481297468 -0.07885962498953604
4.007714285714286 -0.8792572271248321 -0.12681917128194417 -0.00024059471996234843 5.824783800304029e-05 4.94579197816302e-05 0.00018451046035405133 -0.9623225795091591 -0.08089129198685445
4.0081428571428575 -0.8837466979903074 -0.1241280842444263 -0.00027530069999538904 -0.0003837646249385261 0.00018883387930970644 -0.00010768024821783425 -0.9685418494595583 -0.08798942751706426
4.008571428571429 -0.8853139268212018 -0.10928796870568337 0.0001909992924405746 -0.0005293246735757938 0.00014220555793901211 -0.00021415291329743988 -0.9641537410697184 -0.07897902678323751
4.009 -0.8848773344520999 -0.10263186099168352 -0.000306032471626983 -0.0004588658915206336 0.00016547179305799762 -0.00020763481493573944 -0.9740861004190824 -0.0847322408408202
4.009428571428572 -0.8830527345348681 -0.09956883978242788 -0.00016255697125694649 -0.00030028011861535814 2.4584813540265428e-05 -0.00011774775486514611 -0.976964627000652 -0.07482945719794416
4.009857142857143 -0.8855761298172083 -0.087716507691345 4.87145914535396e-05 -0.00041460696836069115 -2.959635967002288e-05 -0.0001733761887122113 -0.9683873603681874 -0.06874111488268324
4.010285714285715 -0.888389220351175 -0.07996380967862755 -0.00014151773068020367 -0.0005525830801510756 1.2501205393066051e-05 4.25350662116275e-05 -0.9629470816548298 -0.07309161534434364
4.010714285714286 -0.8878865818593867 -0.07415009575476669 0.0002954341452888221 -0.0008998787059008363 0.00017191370835804363 -8.879978082451737e-06 -0.9692161038196112 -0.07159457302124206
4.011142857142858 -0.8827174170841225 -0.0717351296467665 -7.550056327250643e-05 -0.00047133237687134596 3.086146073442913e-05 0.00010995838816026644 -0.97060208634021 -0.06443686186443433
4.011571428571429 -0.883679986431395 -0.056703037641987065 -8.101770052557852e-05 -0.00031963678760007087 -0.00020762932128388594 0.0002115918142652124 -0.9717659149273824 -0.06720460077454307
4.012 -0.8893906272634826 -0.05414340612030934 -0.0002784671680127695 -0.000755625742732659 0.00014711646510910808 0.00016530337754423838 -0.975422176661552 -0.06273036015861043
4.012428571428571 -0.8863535116958394 -0.04588916947997874 -3.928638704134571e-05 -0.00023900389919571932 0.0003590662233787649 -0.00011202615140044866 -0.9616266965952324 -0.05664761922575097
4.0128571428571425 -0.8932032633676897 -0.0353251661539775 0.00021877582050183427 -0.000498830720897156 6.329802467662502e-05 0.00016622696332203472 -0.9654441876181661 -0.06333666117364499
4.013285714285714 -0.8828205942762233 -0.03064631242987216 7.006619585817616e-06 -0.00046617669821005125 6.885214992147378e-06 -0.00015765995443258309 -0.9638278977014415 -0.05767417632562876
4.013714285714285 -0.8859010503347324 -0.02390005597152321 0.0003718782878084134 -0.00039807705202544617 1.1747657363648797e-05 0.0005809024083517983 -0.9771895417325751 -0.051778720069805925
4.014142857142857 -0.8881332662439485 -0.013882464092895962 5.901229082535877e-06 -0.00044204844030660813 4.0551829311513564e-05 8.062175833369656e-05 -0.9711171143697288 -0.045626804120664555
4.014571428571428 -0.8854065572909552 -0.013321968871854132 1.4691466049634716e-05 -0.00027182940268033294 0.00022623622316420383 -0.00018950521360277847 -0.9697399385183981 -0.05296376881396542
4.015 -0.8957825521127502 0.0014942576318742516 -0.0005992889652863329 -0.0008788613234630734 -6.366350231349577e-05 -0.00014120532088939618 -0.9649359289093266 -0.05218492598501357
4.015428571428571 -0.8895326193244858 0.011223781019687226 -0.0001279856915629481 -0.0002752982153498797 -0.00013970415653058555 -0.00023592099627758049 -0.9722242070443856 -0.048413710898021364
4.015857142857143 -0.8888140332689832 0.015112428455159284 -0.00013012229346426047 -3.8592802078065694e-05 -3.746709523987952e-05 -7.76636064751926e-05 -0.9704217626028971 -0.044798936547616124
4.016285714285714 -0.8882852634349844 0.02348511325844587 -0.000570347180551841 -0.00021552260591578136 -5.75692023844716e-05 -0.00015993471881089362 -0.9645611348555443 -0.04124210675709783
4.0167142857142855 -0.8880096810291765 0.02954530270731692 -0.0003607015371167529 -0.000471253071520206 8.827665328837555e-05 -9.353446053276466e-05 -0.9646840014302531 -0.04964102765452404
4.017142857142857 -0.884319956218442 0.0394636293525604 -0.00012580669176186232 -0.0005111388863689745 9.501446971110939e-05 -0.00010020701404644249 -0.9618864034080561 -0.039390510699361565
4.017571428571428 -0.8900123137491812 0.04290128835871116 6.242270979307393e-05 -0.00014794931751846514 -0.0001919651634935889 1.2263380755816436e-05 -0.973193308878597 -0.04111912142382067
4.018 -0.8856962460932913 0.04849685753624741 0.00028142944249133587 -0.00033034520969271416 6.951506779440057e-05 0.0001229148823144517 -0.9698708859139017 -0.039367410059820064
4.018428571428571 -0.8898534067007778 0.05957212676691463 -0.00026648286245867806 -0.0003095751541024213 -0.0002691150752181022 -0.00014636732461344304 -0.9709526585093857 -0.03360946675679236
4.018857142857143 -0.8814161449115713 0.06666277579349413 -0.00013326022784584357 -0.00045199244357611504 1.2726190390777742e-05 -3.3471678438835986e-05 -0.9619262112565972 -0.027022560935311395
4.019285714285714 -0.8816481542080732 0.07740049710397232 -7.766394467294571e-06 5.0976538112542746e-05 -6.0398248888305155e-05 -0.00012034815883239315 -0.9701329350010733 -0.026899896061391745
4.019714285714286 -0.8868452264691292 0.08501010059278698 -0.00019123843565653238 -0.0004143578674738656 -0.0002920699863147142 3.786921217577601e-05 -0.9653852904103495 -0.027465923648544353
4.020142857142857 -0.8852925508706584 0.09043531092990385 -0.00020822222945357776 -0.00048362518276294167 0.00011732574897635741 -0.00024740440481388294 -0.9688488961465102 -0.025386893298298803
4.0205714285714285 -0.8831276085931845 0.10315367638381426 -0.0003318569480414287 -0.0002615232041289863 0.00019140151479948175 -1.3309402195993894e-05 -0.9685467680953269 -0.025537072103183345
4.021 -0.8797038160014915 0.10151297066422682 -0.0002802254295429659 -3.203159900669107e-05 -6.818317753292149e-05 7.377757268806336e-06 -0.9647551304160077 -0.0203817269373797
4.021428571428571 -0.878453551145376 0.11490201158476337 1.4074092574577784e-05 0.0001169081142865201 -0.00030061367233979444 -6.10884583259551e-05 -0.9699382250081855 -0.019085656231519896
4.021857142857143 -0.8831255892925036 0.11765177507428334 -0.00030579053781045574 -0.0006071486786838346 -0.00010258738455667645 -0.00012917008404931765 -0.9661006155137793 -0.015770826517986447
4.022285714285714 -0.8744176069308902 0.12276010990731293 -0.00012205007747420146 -0.0005060932451237045 -0.0003079453180452939 -4.0485055653239934e-05 -0.9751738566652688 -0.00985932922095693
4.022714285714286 -0.8785972648449142 0.1393591692192748 -0.00047773727911599995 -5.0972744685511124e-05 -7.772828606905332e-06 -2.6056348736935372e-05 -0.9645244263754438 -0.013549674256506881
4.023142857142857 -0.8745512417418594 0.14319323266016792 -0.00024101814909941176 -0.00039494878976498285 -0.00018511245362552833 0.00026610853320883015 -0.9668622430010086 -0.008114423413716534
4.023571428571429 -0.8770257808437971 0.14475545629189515 -0.0003649829987648682 -0.00013130020639615374 0.0004807645517364384 0.0002949890891196816 -0.9628276640247264 -0.004466831877439594
4.024 -0.8707655916803497 0.15682698212918333 -0.0001962960072326988 -0.0005360991980425456 -3.135942150112145e-05 -0.0001824982807884503 -0.9704611726535398 -0.006533414112032357
4.0244285714285715 -0.87331131422643 0.16036400391897435 -0.0004194532046765033 -0.0008227209226540439 0.00022076608113544434 -6.75429369808857e-05 -0.9696139215097727 -0.0025370901166829603
4.024857142857143 -0.8729042033259712 0.17220714918235502 -0.00015841724168336229 -0.0003515890337267706 4.587983770428802e-05 0.0002564096970483984 -0.9658481801609992 -0.00010759022383796561
4.025285714285714 -0.8734151252115392 0.18121499987573703 -0.0002714187661113152 -0.00022125672330331183 -4.0691865608020273e-05 1.4699958718361519e-05 -0.9672782609288767 0.005212169333190859
4.025714285714286 -0.8718272327450233 0.18680452507766382 2.9070021907871064e-05 -0.0004179822949018983 -7.379885278299269e-05 0.00032955850109793645 -0.9734395291103596 0.008916837432135262
4.026142857142857 -0.8736464472134482 0.19094147481044346 -0.00018164723484720636 -0.00042858573696436555 -7.298685116650308e-05 0.00015639916557970134 -0.9696538808508175 0.0033564565513108393
4.026571428571429 -0.859812244526863 0.20121341825095132 -0.0003527856378871975 -0.0001220486766066734 -7.415913502997499e-06 -4.664883765087254e-05 -0.9730327458940711 0.008105836310709408
4.027 -0.864181636543984 0.20569895291860132 -0.0007199317914949669 -0.00021626542560928858 -0.0003354262281199919 -4.388153235093118e-05 -0.9687912712150665 0.005419745011958092
4.027428571428572 -0.8673754506203234 0.21013937556576556 -8.085199553013099e-05 -0.00041074271938318943 0.0003274692472587065 0.0001572345632344888 -0.9648074426536729 0.01696541582311321
4.027857142857143 -0.8613915492862576 0.21635027462491963 -0.0004442489956431913 -0.0004320040222153579 0.0001613763949890398 -0.00010413649208526087 -0.9738423691121441 0.012409676190908417
4.0282857142857145 -0.8593108086926668 0.23028343795725167 -0.0003857329923948774 -0.00014146721270068976 -0.00013412576249734095 0.00015318254736574477 -0.9718475635792265 0.02320726928032574
4.028714285714286 -0.8631045050335087 0.2287585492600473 7.287668920581582e-05 -0.00024860047523119654 -0.00022044279187068881 -0.0002406409339845383 -0.9690746989908434 0.01348490021934792
4.029142857142857 -0.8582877654585693 0.24385913298444317 -0.0001266644178775509 -0.00021726345524658496 -2.7801747291444285e-05 0.0002218510806115461 -0.9668472268351471 0.024076649364671156
4.029571428571429 -0.8570796363517428 0.24554518248177473 -0.00025808911169531514 -0.00020378368825243697 7.586209501279533e-05 0.0002619891796792668 -0.9645457879577816 0.021324208243358993
4.03 -0.8501464470118679 0.2536386737697319 -0.00021977581237104198 -0.0003513579868202548 -4.043885776377299e-05 0.00012295736152674992 -0.9737259322430448 0.03471555758807175
4.030428571428572 -0.8502284072247731 0.2637489842657343 -0.0008996163302304092 -0.00040093106853920295 -0.0004589265703564854 7.744991638102626e-05 -0.9685121129267648 0.029144567172825757
4.030857142857143 -0.8516646625811478 0.26664375503410637 -0.0003328159221582971 -0.000515239861160135 6.317705294943918e-05 -0.00028949784629364844 -0.9713310935496571 0.025239868968515846
4.031285714285715 -0.843463150539023 0.2750592694865784 -0.0005495490563833788 0.00014569319578578249 0.00028478430550989836 0.00014936073577535155 -0.9677986953389532 0.03516870277722385
4.031714285714286 -0.8409788807728672 0.27921606506426133 -5.4289726728405286e-05 -0.00032361449167198856 0.0003989381240095616 -9.409892341049303e-06 -0.9647253616428911 0.02246780537974404
4.0321428571428575 -0.8372218910261443 0.28832161744228374 -0.00015672233079065884 -0.0003143262431193839 -0.00010007750779614903 -1.6892736316017866e-05 -0.9719331797683362 0.03535841210096875
4.032571428571429 -0.8383931907941718 0.2954365449988428 -0.000526838008209109 -0.0002173676359723011 -2.7825312760087386e-05 0.00017287128607792066 -0.9672022770841656 0.04368971998942631
4.033 -0.8385965809563881 0.30137641554410505 -0.0001674218276431687 -2.1409135781261903e-05 0.0002800971966081331 0.0001420846636279698 -0.9647284945929251 0.04434474601536696
4.033428571428572 -0.8407976528298237 0.31070694579877955 -0.00018559754326443704 -0.00042650332419556585 -7.737140561568273e-05 -5.838150244830443e-06 -0.9627001321174425 0.04147557939453798
4.033857142857143 -0.8326227426691764 0.31734522773137724 -0.0005140345512207959 -0.00016996536040216225 9.441010833648955e-05 -0.00024307071200871833 -0.9649941704018477 0.044509406365814956
4.034285714285715 -0.8259555137953513 0.3211955683988792 -0.0004243057319726505 -0.00044105017398363437 -3.998201229980153e-05 4.109388446330137e-05 -0.9654419552341982 0.042872146682824554
4.034714285714286 -0.8195600823764159 0.33471517952766394 -0.0004160292242932642 -3.991863584359465e-06 0.00021423096173268626 -0.00024279546034725716 -0.9663224115076142 0.05138731652510987
4.035142857142857 -0.8221246474367867 0.33680476602648146 -0.00019247967970980237 0.0001261480024670475 -5.5883835995931535e-06 0.00011267109804600619 -0.9680785263775264 0.05186306836173003
4.035571428571428 -0.8150872465919458 0.3437464107965275 -0.0003364697756859062 0.00013251309509539956 -0.00010547559529761684 -0.0004276966560836134 -0.9681879120244836 0.05669525164282039
4.036 -0.8120127605845014 0.3536977586024417 -0.00014890331807467265 -0.00013726063556542724 0.00020744281827084557 -5.028447253850066e-05 -0.9697537991885934 0.05842489988509257
4.036428571428571 -0.8211388967904394 0.35344140297047993 -0.000576268467092824 0.00010278977066713266 -0.00014662673554524455 -0.00022617452162128641 -0.9686106864666945 0.05446743304454109
4.0368571428571425 -0.8125767930549256 0.36476213755858233 -0.0006617489907044347 -0.00018016774983784382 -0.00022745752507443266 0.00018804755248977848 -0.9697620052976688 0.05470364081196682
4.037285714285714 -0.8041383452884298 0.3729531556156252 -0.00033578721584134316 -2.2934499665001877e-05 -7.214636633676401e-05 1.7029140209809433e-05 -0.9643489352980237 0.05848237685193373
4.037714285714285 -0.8037649108316963 0.37379444413912044 -0.0006740664916280608 -0.00017192317388401576 -7.125131283856625e-05 8.00705349351359e-05 -0.9714253346934272 0.056504559797945254
4.038142857142857 -0.7986791683650113 0.39134665396777324 -0.00020667357954780278 -0.00014010619899022185 -0.00020350803866228662 -0.0002212034139440245 -0.9646832456432626 0.06281243973933859
4.038571428571428 -0.7991549067099943 0.39057010496215006 -0.00016787108112604557 -0.00032944788503118144 -0.0002138786899589853 -0.0004515989294600491 -0.9600964931928628 0.06634785694340083
4.039 -0.794483269915852 0.39579297647033906 -0.0003832039298855747 -0.0006467290918022764 -3.444286539857537e-05 -6.741261936272266e-05 -0.9592309052306925 0.06607270481233155
4.039428571428571 -0.7879832771477088 0.4126243543209853 -0.0006054821760865752 -0.00018423507651163257 -0.0003642450747096164 -0.0003506618416908238 -0.9638909730761986 0.06993341309450866
4.039857142857143 -0.792084529934108 0.412753698817199 -0.00014141657172175528 -0.00012428335982640605 -0.0002547169380145041 -3.279080219650715e-05 -0.9696709106276884 0.06919127071101534
4.040285714285714 -0.7877965604219193 0.4110279081324548 -0.00042724748379749725 0.0003753293412847927 9.393604150060551e-05 5.3451362172571725e-05 -0.9642377927634199 0.07626768839141002
4.0407142857142855 -0.7869229915214345 0.424854980152035 -0.00044106905504762915 -0.0001609104581906142 -6.426680464634284e-05 -0.00026354643727436177 -0.9566674161592403 0.07744186007614579
4.041142857142857 -0.7728973741656078 0.430701102436382 -0.0006023620877114772 -0.000466031611754961 -0.00026305462356893366 9.681676860859333e-05 -0.9686912705276923 0.08518221459135275
4.041571428571428 -0.7724442326807074 0.437176349892236 -0.0002340823728690787 0.00043176077414053515 -0.00020568691874158968 0.00017646450323994292 -0.9679141901344659 0.0845543421874279
4.042 -0.7691640862840428 0.4476114928708659 -0.00042162736503585413 -6.848523478294438e-05 0.00012183977940000392 0.000309275193664454 -0.9616867842613132 0.09050253780257941
4.042428571428571 -0.7624347232783608 0.4508856765709795 -0.0006126570300389243 -9.329541927962002e-06 0.00018000506930262335 0.00016939866949295808 -0.9596114264240844 0.09102452559141475
4.042857142857143 -0.7644096839354135 0.4469328869909918 -0.000155444149366398 -0.00012892495952157744 6.886310553114043e-05 -0.00021174238790555585 -0.9660369642376537 0.08912252769318454
4.043285714285714 -0.7580575624349917 0.4635495929085585 -0.00047152790747973097 0.00021213348084920123 2.4513396382374424e-05 -8.632193041984389e-05 -0.9636824649629608 0.08581095353126003
4.043714285714286 -0.7506078736715186 0.4665491048531495 -0.00016054901230554733 3.0252179616172522e-05 -2.2851027019818232e-05 -0.00011602840059358705 -0.9671932313503425 0.08386478475379684
4.044142857142857 -0.751479885673087 0.4742645078963971 -0.0007474390484505034 7.183522600550607e-06 -4.2508920807718804e-05 -6.608192296773824e-05 -0.9622882420299408 0.0974691065163394
