!Created with skrf (http://scikit-rf.org).
# Hz S RI R 50.0 
!freq ReS11 ImS11 ReS21 ImS21 ReS12 ImS12 ReS22 ImS22
4.0 -0.8421165750882779 -0.24786669383312285 0.00010751941663039701 -0.0006621657182899946 -2.8184480044919722e-05 0.00024601621046358487 -0.9636922276791092 -0.12953202898097713
4.0004285714285714 -0.8492898123473885 -0.2414957332621433 8.983036895891824e-05 -0.0003799942088071226 -0.0002013136837497946 -7.780780512704522e-05 -0.9722830244441302 -0.12244715168082654
4.000857142857143 -0.8550081884863152 -0.23074297568778906 0.0001887520191225811 5.9338483307670245e-05 8.853827468659113e-05 9.774934272426593e-05 -0.9665750673529082 -0.11604533252439203
4.001285714285714 -0.8471040099399667 -0.22673202420669078 -0.00037570934581764715 -0.0006470768276264597 -0.000255875055192149 5.535117042600076e-05 -0.9640816028364538 -0.11730100621102181
4.001714285714286 -0.8539558325602251 -0.22004895211564893 1.5673779903817669e-06 -0.0005548417101802588 2.0478713481333875e-05 0.00014612034217354334 -0.9660602153662319 -0.12054420718290622
4.002142857142857 -0.8531043644345291 -0.21903835989566195 0.00012233338483023912 -5.391725090313683e-05 -9.22122175631386e-05 -4.2837413480922024e-05 -0.9670541626533288 -0.11170994969839018
4.002571428571429 -0.8551668050223605 -0.20819873386692617 4.357911485694557e-05 -0.0003752040528241519 -1.0323278046496223e-05 -4.412822902006484e-05 -0.9699532681160521 -0.10555986215691816
4.003 -0.8607120619219718 -0.19731911912738012 -0.00019274118299366332 -0.0007181248673078836 1.7284158674527554e-05 4.6064501968070305e-05 -0.9696648279324361 -0.10511747552090332
4.003428571428572 -0.8636860590091227 -0.19475881495851968 -7.183009204821617e-05 -0.0005306951484905735 -5.4346587164977193e-05 0.0001012348067166628 -0.9613460958608575 -0.09686713115677725
4.003857142857143 -0.8584139606603952 -0.1851645104723029 0.0005830636564990543 -0.00045342635098069247 0.0001461179146969151 -5.235162265801566e-05 -0.9694321515347188 -0.1104960767350453
4.0042857142857144 -0.869365927037861 -0.17794051352764018 -0.00026647974496415603 -0.0003499514564998436 3.631919407113306e-05 3.300434537387997e-05 -0.9656498502392246 -0.09941701222276987
4.004714285714286 -0.8644754791015431 -0.16915083012697604 0.00011572160409163545 -0.0004940299466689953 1.8719579113657624e-05 0.00011115786029892775 -0.9603596558301554 -0.10657073040827929
4.005142857142857 -0.8666702409550905 -0.1616309271388669 -8.803299095116496e-05 -0.00025306855701654683 -0.00011151802828692711 0.0002581501631465717 -0.9699724846063211 -0.09588616404482977
4.005571428571429 -0.8670346322812286 -0.1543007395902337 -1.4753978474696138e-05 -0.0007692142347613003 -0.00018961361026316917 0.00015400655568082057 -0.9588159747986487 -0.09447622644744577
4.006 -0.8708630921920499 -0.15223943758516495 -0.0001404279404396002 -0.0005044048510252881 1.0545251314148708e-05 0.00026268975558525954 -0.9714151317123917 -0.09317178603825065
4.006428571428572 -0.8700028775864238 -0.1467968665146835 -0.0002275708677568751 -0.0004705914511599644 -0.00014882981098166548 0.00018546338729175053 -0.9682380357724162 -0.09328106662912154
4.006857142857143 -0.873927990472746 -0.13458728344284077 0.0002157278242707293 -8.240130962918492e-05 -0.00014957878469463572 3.5524563893201495e-05 -0.9645807092399235 -0.0855662549714924
4.007285714285715 -0.877581543544443 -0.1261943506203751 -0.00012688527469614458 -0.0007833366582066098 0.00027913000536326077 -6.483589836071352e-05 -0.968534820138655 -0.08121890175814331
4.007714285714286 -0.8758478498622484 -0.12211573959489591 -0.0004119468105232255 -0.00013515101245210287 0.00012904546755647416 -8.314057457719021e-05 -0.9642517228091926 -0.08264703727701565
4.0081428571428575 -0.8743713601498603 -0.11889097041697219 -5.8523530926087445e-05 -0.0006233762138329785 -0.00023602579211175244 -0.00021762623096665423 -0.9674635230696668 -0.08870662756867981
4.008571428571429 -0.8774038242752088 -0.10534747702753046 -1.1652856506184363e-05 -0.0004777192231511506 0.00032735961490650646 -0.00028528178632969517 -0.9646349439607366 -0.07744106254653813
4.009 -0.8802865911566989 -0.10064824031459625 -0.00034739557949326296 -0.0002724572395126198 -0.00016556976839460208 -0.00017846772498825514 -0.9744847957283401 -0.0842504748152385
4.009428571428572 -0.8766286132167325 -0.09684204894616867 8.49345820977378e-05 -0.0002677961006316122 -0.0001442157479705544 4.67434126067889e-05 -0.9769913997708369 -0.07399279669209916
4.009857142857143 -0.8776039264636696 -0.08544001488094762 -0.0001976419468810834 -0.0005522060041612582 -1.5765223865211862e-05 0.00018000003911574372 -0.968895825797785 -0.0684600735374413
4.010285714285715 -0.8814317899260217 -0.0782958189180029 -0.00014281317560950642 -0.0007923218688650215 -2.6384232738051705e-06 -0.00012916265538275191 -0.964474304876225 -0.07230666333019166
4.010714285714286 -0.8806715048890315 -0.07198770305287776 -2.822429339673647e-05 -0.00031024514500895846 -0.00024076535890630666 0.00023548725763471534 -0.9682204739841235 -0.07224373941670406
4.011142857142858 -0.8782584733177715 -0.06757049174691845 -0.0002978952722218561 -0.0004487619269733289 -1.589414395869679e-05 0.0001186721350079599 -0.9693106874462879 -0.06489969219981986
4.011571428571429 -0.8782464554659537 -0.05494317932570275 -6.95613726433754e-05 -0.0003680723901545633 -0.0001181882871752599 -3.57412461705615e-05 -0.9687768857700232 -0.06612566113674372
4.012 -0.8825441175603894 -0.053080670905205386 -0.0004825011574551504 -0.0004329824884059941 2.5605893778058772e-05 0.0003036557495290539 -0.9764203469081817 -0.06388581340744393
4.012428571428571 -0.8797284892381153 -0.04290332952261196 -0.0003623113346886088 -0.00019390401608559475 -2.199608576500282e-05 -0.00021026274319882972 -0.9629024336333218 -0.05675152904840065
4.0128571428571425 -0.8869017928402161 -0.034919631161943306 -0.000381992805961294 -0.00031414678062748205 -0.00012315471666685652 -0.00024471076902714137 -0.9642408074324557 -0.061897300296671065
4.013285714285714 -0.8758215210221448 -0.027118710244801184 1.3295171810963845e-05 -0.00043110471444634776 1.708791235135819e-05 0.0002807257327120811 -0.9635197426303269 -0.0580787666950577
4.013714285714285 -0.8809367195313275 -0.0197239889755275 -0.00047240854637038845 -0.0004105128718379552 -0.00018385649333938064 0.0002124300844486102 -0.9773447389055757 -0.05205110512925401
4.014142857142857 -0.8794070076761706 -0.011896760518289721 1.276175306040447e-05 -0.00034733561159933915 5.5241419516249866e-05 1.7544026413788813e-05 -0.971353165398054 -0.04673775793884731
4.014571428571428 -0.8791747594167757 -0.009931779431800883 -3.1736760394868784e-05 -0.00035946284063027796 -1.4872491243130945e-05 -0.00010103671952643184 -0.969929000630927 -0.05109105968405298
4.015 -0.8887732256511202 0.0023373697303267073 -4.536194993958908e-05 -0.0008768315038829046 -2.4748634584215797e-05 -0.000684004093069282 -0.9655639837905232 -0.04965850246411031
4.015428571428571 -0.8843310874032301 0.011759015352781937 -9.161105683764695e-05 -0.0004190016632547778 0.00019367640051092078 3.2740943977904675e-05 -0.9713972071329264 -0.04909877192450656
4.015857142857143 -0.8835142116003094 0.01931369727334832 -0.0005176936651082258 -0.0001318423219196569 -0.00017658732415978817 -7.601804173150028e-05 -0.9707449406526973 -0.04613022271561158
4.016285714285714 -0.8809119354556677 0.02482849455937267 -0.00017235728302596347 -0.0004768473269955497 3.0009791506595136e-05 -4.8031177878222834e-05 -0.9671012099243967 -0.04225318657786246
4.0167142857142855 -0.8812101883413808 0.031072455702900872 -0.00046697982916802966 -0.00015750121930378926 0.00020386893757804852 -4.522360405721419e-05 -0.9652008370333944 -0.04776918077293213
4.017142857142857 -0.8790171796206969 0.04071821631954762 -0.000398387604684323 -0.00033748949956923874 6.9302089875755e-05 5.088747974247599e-05 -0.9620080329431652 -0.03988445760200675
4.017571428571428 -0.8834675569178153 0.04593273615159635 -0.0006362794775764185 -0.00029930633035485436 -8.291236466059479e-05 -0.00027031714649193236 -0.9735869329690542 -0.042378442191555725
4.018 -0.8807588637168293 0.05011997691867277 -0.0003585765668122373 -0.00042334323870772943 8.054903520905147e-05 -0.000210214484532159 -0.970315462618876 -0.040485118530648165
4.018428571428571 -0.8845971799328928 0.059041529469036326 -0.0002781536389598046 -0.00042052164588791936 5.937573608990828e-05 -6.941856094477288e-05 -0.9715779357990949 -0.0327164033295094
4.018857142857143 -0.8757539110569703 0.06859126679678798 0.00037471159783855374 -0.0003448026831576683 8.646574870477916e-05 8.302146794900508e-06 -0.9619767999499699 -0.02636622128641575
4.019285714285714 -0.877095647603521 0.07927338948100723 -0.00020034958616211025 -0.0009088149176522526 -0.00021343333774746648 -0.00012480565484995524 -0.9712574779990294 -0.027633927576676653
4.019714285714286 -0.8802864816087801 0.08699305403019628 -0.00033819932075518366 -0.00034858501592115485 -3.992280160182972e-05 -6.369810964505913e-05 -0.9663750152775106 -0.029047938570477133
4.020142857142857 -0.8794753929472336 0.09060289796516421 -0.0002163372460721073 -8.541908313521344e-05 9.475161874687627e-05 -0.0003311609143845949 -0.9699298126730507 -0.025048817287453003
4.0205714285714285 -0.8776455423035459 0.1034842605572745 -0.00039461682665357 -3.1718082063670445e-05 -0.00010656636558280704 -6.428594811873971e-05 -0.9681430948148227 -0.025307104521891163
4.021 -0.8746025532078313 0.10321314364963093 -0.000444753599305597 -0.0002226152643589632 -3.7639599380338815e-05 6.705633579739819e-05 -0.9672702292745274 -0.020077894626010933
4.021428571428571 -0.8727483064212906 0.11596345287566334 -0.0002520259164458568 -0.00046201432342167964 0.00016611970088773508 -0.0001445034545306844 -0.9677053970742148 -0.01828697046794179
4.021857142857143 -0.8756087755605333 0.12036063944062768 -0.00014754811353099814 -0.0008610204322776216 0.0003303838795877757 0.00018202311996310246 -0.967435062472575 -0.015073263052424835
4.022285714285714 -0.8669980258743973 0.12349968764235583 -0.0008094426057314488 -0.00023586135958869627 -0.00016410846755719163 -0.00015655920468063796 -0.9761047144049639 -0.008052984987522568
4.022714285714286 -0.8735557047655241 0.14036874297182214 -0.0005273530153932982 -0.00015816930017183687 -8.30997051706169e-05 -0.00019128534324302902 -0.9664666913793722 -0.013425895984190644
4.023142857142857 -0.8678927582993649 0.14255739147687926 -0.0005225445159905578 -0.00018658528865158675 -4.939866286747773e-05 -4.457629320786725e-06 -0.9689127333687793 -0.007638259446098508
4.023571428571429 -0.8700818154249346 0.14579424245509476 -0.0001334249155256423 2.4032998415337252e-05 -0.00010187824380510435 0.00013102494077363002 -0.9620791608474993 -0.002963840561721849
4.024 -0.8642576435483185 0.15558081203998048 -0.00025912237348643284 -0.00025747215508681114 -3.7006881944648915e-05 0.0002898703260297936 -0.970594815020569 -0.006357020861956691
4.0244285714285715 -0.86654333045602 0.16185348275223035 -0.00013555105997241053 -0.00027109902786323723 -6.902251783382576e-05 4.0117577853815954e-05 -0.9717193619724692 -0.003656115962014862
4.024857142857143 -0.8673401769320659 0.1730224376005079 4.493519261064552e-05 -0.00020167480616810706 -0.000214825993034585 -0.0003510001668873777 -0.9670103598393233 0.0001609882569528142
4.025285714285714 -0.8680933833991586 0.18128949670240002 -0.0002873989315006717 -0.0007068880569785808 8.326928798086132e-05 0.00017176516760071384 -0.9662702832057182 0.004029443137885237
4.025714285714286 -0.8639328063980918 0.18736641764316786 -0.0002629035893657304 -0.0006379522779598622 3.371441053741846e-05 0.0001684578876559904 -0.9742575833900264 0.009825133173899936
4.026142857142857 -0.8669224956724185 0.19244336453954053 -0.0007653866624780698 -0.0005661730261962148 0.0001979287256816999 -0.00013004660753886121 -0.9710262687379253 0.0028989412259202148
4.026571428571429 -0.8539263433048401 0.2023337451325224 -0.0003902555919619885 -0.00010965403430747113 6.74100533867516e-05 0.00020753723720045143 -0.9747958315801367 0.00955850814902428
4.027 -0.8577016420664751 0.20920407741814173 -0.0003258550669058897 -0.00029378579843406254 -0.00014858374615090128 -0.00020757291024626218 -0.9712701839266648 0.0058945448552949545
4.027428571428572 -0.8610139855186274 0.21030292755702748 -0.00020608556297030013 -0.00028974377730523414 -0.0001390467381412985 -8.210491883264864e-05 -0.9651989032428311 0.01385610339342277
4.027857142857143 -0.8539030209741588 0.21701089252863137 -0.0007517843562332303 -6.289822612760097e-05 1.6637691996498867e-05 -0.00011247881774992095 -0.9744255797116576 0.010752468223858403
4.0282857142857145 -0.8535216949977947 0.23240128552047332 -0.00042494042933312527 -9.578428315874269e-05 0.0002824564321348211 -0.00021178511913516796 -0.9704582850944643 0.023535919934502277
4.028714285714286 -0.8569731201761394 0.22951607380313588 -0.0008066027200856885 -0.00045712505678546556 -9.571344988543213e-05 -0.0003157485307871145 -0.9699870592747194 0.014794196367595996
4.029142857142857 -0.8505936560694507 0.24477824769551237 -0.0005166007786228691 -0.00032621132138743427 -0.00010914483852373161 -0.0002252781117039814 -0.967680985044345 0.023730847962982433
4.029571428571429 -0.8500016853929163 0.24830622351771928 -0.0004339569300921439 -0.0005280565521921448 0.00020573972482606793 -0.0002282791327300215 -0.964466148238255 0.021059604716350138
4.03 -0.8442229490133681 0.2548531680894245 -0.0004407646577099697 0.0002654878259207946 0.00013238565078006523 0.00021983127189158862 -0.9705517062583983 0.0322554114643636
4.030428571428572 -0.8442743218966825 0.26550697176719545 -0.0003034776774736673 -0.00017594131557928635 -1.268136712757378e-05 0.00016378505579007547 -0.9697617221244004 0.029357499381989578
4.030857142857143 -0.8448449778809795 0.2678163859921862 -0.0004241932755295674 -4.7579519268981587e-05 0.0005187040416831648 -0.00015884439473498973 -0.9727119428901089 0.022432412357304463
4.031285714285715 -0.8361444821187203 0.27616650674227433 -0.00019474780652036896 3.526549716980756e-05 2.2581566773377874e-05 -0.00026495828754890513 -0.9676656353721277 0.03275922683954922
4.031714285714286 -0.8334042410964883 0.2787624632960735 -0.0005213116946469874 -0.00038110279186984885 -0.0002382623213229575 -3.087800706292957e-05 -0.9649401485261342 0.02429464919191522
4.0321428571428575 -0.8304672456033629 0.289307091919022 -0.00031237674104480815 0.00026092438688169654 5.9544015773808344e-05 1.7164992690783426e-05 -0.9729441248311278 0.03562051675341752
4.032571428571429 -0.8308891241495535 0.29607566363994436 -0.00028683899820329664 -1.0271756324297088e-05 -0.00020701765382207164 -6.37454246738496e-05 -0.96489150903474 0.0449297261280446
4.033 -0.8310754796872372 0.30230465654470656 -0.000618248097670211 -0.00013952056365704673 0.000136591462768995 3.660473618405219e-05 -0.9656333270875447 0.044358629410466324
4.033428571428572 -0.8347678638202788 0.31137451211085515 -8.054793823948049e-05 -2.5326566016618684e-05 3.2705031303194547e-05 6.786327131192732e-05 -0.9643908626065743 0.040042311371488795
4.033857142857143 -0.8270016547355034 0.31964946501918307 -0.00036094727815020624 0.00012153089926699148 2.5261888350041942e-05 -0.00013519509626788343 -0.964461838522859 0.04271905168103584
4.034285714285715 -0.8206220980130386 0.3218926186447013 -0.00017435949493695575 -0.00020407445464537755 9.600662693992063e-05 0.00010541207046169708 -0.9661476741026908 0.0439366463474231
4.034714285714286 -0.8132419619867385 0.33374889277979325 -0.0007059935819846194 -0.00041700896818828314 6.07720686509259e-05 0.00010986321053295594 -0.966023799664278 0.05194414313107654
4.035142857142857 -0.8142859278027806 0.33777330532404143 -0.0002791148085730249 -8.769362836768108e-05 0.00010524055434074742 -0.0001918337497687337 -0.9680415619025984 0.052661403773976746
4.035571428571428 -0.8086116502011524 0.3457278737778969 -0.00033636388949640595 -0.00021957941100765168 7.933396341029853e-05 -5.7706873611263435e-05 -0.9681826537795917 0.056676175422297415
4.036 -0.8059761640345598 0.35640906911529496 -0.00035966513169723716 -0.00011021461678613051 7.21285332841984e-05 4.690472692334708e-05 -0.9690125131999751 0.0555367843732399
4.036428571428571 -0.8118639349671575 0.3533119645368051 -0.0005934621376905301 -9.819526609809113e-05 0.00013040970095873854 0.00033651538962301155 -0.9674198422665776 0.052480126162045296
4.0368571428571425 -0.8047991395448231 0.36622857360532135 -0.0005255111124566777 -0.00017071654522364828 0.00011410440140851448 -0.0001423703541846272 -0.9696331237649818 0.053421094750569144
4.037285714285714 -0.7981586424837651 0.37211585012572146 -0.00028431156305748246 -0.00037379537344464804 -3.723442690248806e-05 0.0001387833112147003 -0.964055255151898 0.05808374935628246
4.037714285714285 -0.7965841769699598 0.37329520386511156 -0.0006937614051065955 -0.00017324263037822091 -1.9395683391998867e-06 -2.230744363843119e-05 -0.9696877534418556 0.05472371191278235
4.038142857142857 -0.7926859712507973 0.39405086970672687 -6.540963182656837e-05 -0.00011409943461834597 -3.2094123125427715e-05 -0.00043706035773831875 -0.9638697455990948 0.060451716434218115
4.038571428571428 -0.7933411651947654 0.3934215714406125 -0.00019760102963885864 6.228266241340479e-05 0.00023264921595377326 -0.00015025296429118604 -0.9601902398709852 0.0678198057744441
4.039 -0.7901809290846104 0.39552935483352375 -0.0005460683895000731 -4.6273701292193705e-05 -0.00018203017726001853 -0.00026914087625874635 -0.9599738917001046 0.06461725083420833
4.039428571428571 -0.7809628002201238 0.4130780927991151 -0.0005316009063008948 -5.463901780126248e-05 3.429613687371365e-05 -1.6713741146694607e-06 -0.9652256952399743 0.06875428621250125
4.039857142857143 -0.7855186317976298 0.41134106050106906 -0.0005794342748197361 0.00020429285796599097 -3.915284175267607e-05 0.00030844627209952914 -0.9699229028723996 0.07129234371154111
4.040285714285714 -0.7811496524221329 0.41053263638359067 -0.00047050781430695666 -0.0001285134703332229 0.00013353520928985945 0.0003843375548610241 -0.9647040279281749 0.07528332592593512
4.0407142857142855 -0.7794082978006484 0.42495117046026865 -5.749332607305284e-05 0.00011328896483105049 -8.87792445800758e-05 0.00013123937896730543 -0.9583118293342588 0.07712372173050362
4.041142857142857 -0.7661521325963002 0.42874043428410363 -0.00014354024356386235 -1.850224324567522e-05 -0.00035957188923542503 -5.968299479854716e-05 -0.9686507528746647 0.08612975173374869
4.041571428571428 -0.7658412372062684 0.43499930878913884 -0.0004086019474843702 -0.00027747403388305917 -0.00013948962536155499 -0.0001530349413372135 -0.9656723127506214 0.0830878744650789
4.042 -0.7610343262864295 0.446345723289318 -0.0006262631857896851 0.0004845958493939479 -1.9331168718093853e-05 5.7468833006872396e-05 -0.9628465981154097 0.09080045962506095
4.042428571428571 -0.7571544245022235 0.44991078615310537 -0.0006822771482607297 0.00023656688587347179 0.00017790557430508348 7.934188234375776e-05 -0.9602633797291888 0.09196301934708496
4.042857142857143 -0.7576762825443876 0.4449959035715269 -0.000579844468109116 0.00010806418119962608 -0.00017600819713830862 0.0003840122267756301 -0.9641975079899444 0.08803440993863348
4.043285714285714 -0.7494953989502061 0.4624835385599392 -0.0005713794330037693 0.00027074197140225623 -2.2662937486693247e-05 9.109259269977953e-05 -0.9640516647303671 0.08637305176672232
4.043714285714286 -0.7441477469946242 0.464277368622219 -0.0005261015608480724 0.00020651712510246712 0.00019015123366443812 -2.9961763399614163e-05 -0.968483721189381 0.08165860053415938
4.044142857142857 -0.7432748509990809 0.4730139793508007 -0.0006050621213887691 -0.00016094854512578084 0.00020444398710193576 3.067813803271829e-05 -0.9599803593465706 0.09759420138097519
