!Created with skrf (http://scikit-rf.org).
# Hz S RI R 50.0 
!freq ReS11 ImS11 ReS21 ImS21 ReS12 ImS12 ReS22 ImS22
4.0 -0.8480526707607435 -0.25175950609952574 0.0001431927592125923 -0.0005704414641969308 0.00018272823788399503 -0.00016549627675619164 -0.9633764325650714 -0.12955034224393377
4.0004285714285714 -0.856056173872504 -0.24625826646879914 0.0001258872938799962 -0.00032700795775743443 0.00011638722268881815 2.722410654052896e-06 -0.9687369685969835 -0.1253826960856891
4.000857142857143 -0.8604575514101335 -0.23545085373064364 0.0005088326187210478 -0.000586233305756452 0.0001983760499636326 7.888211739241333e-05 -0.9664115363197481 -0.11551985645474298
4.001285714285714 -0.8534072715985163 -0.2300087294862259 0.0001335577000782393 -0.000590328273016432 -0.00021790276822755808 0.0003125517608692706 -0.9649273533037606 -0.11747691648470708
4.001714285714286 -0.8597235267611402 -0.2219326115467221 0.00017235728546608392 -0.000314827751265104 -0.00013853396800478945 -9.694116059220077e-07 -0.9660628234730398 -0.12092643170316222
4.002142857142857 -0.8596454355297503 -0.22300962135687663 0.00011746470660299711 -0.0006167812295856533 -1.8235082023683575e-05 -0.00021536374955615162 -0.9647791017899983 -0.11109123111801959
4.002571428571429 -0.8626242766571861 -0.21143672160865146 -0.00011251846579356657 -0.00043162674737033343 0.0001978823058924407 0.00011286363428370765 -0.9704711367511025 -0.10498003137489836
4.003 -0.8663282783564461 -0.20033510132136828 -0.0001841312743497288 -0.0005759738865667386 -0.0001656044993978277 -0.0001641129622324903 -0.9687653445656416 -0.10302931418577377
4.003428571428572 -0.8696795312630794 -0.1961350164405943 2.9362258405885747e-05 -0.00029079986146538194 -4.053355180205509e-05 -8.18322737370575e-05 -0.9616142033694538 -0.09881398856635407
4.003857142857143 -0.863555164446939 -0.18964594712478522 0.00012383259184003457 -0.0003173461295891272 -5.84436778910232e-06 0.0003209856139818827 -0.9715059693729436 -0.11002679791243306
4.0042857142857144 -0.874637052517894 -0.18149045408379952 -1.1137489542866983e-05 -0.00043211715380518916 -1.931802788810718e-05 -3.255250133165654e-05 -0.9651653417885712 -0.09927942342319004
4.004714285714286 -0.8700406937807262 -0.1721468173390211 6.958337475920642e-05 -0.000500731156870767 -0.00011109791135130684 -8.767556709730399e-05 -0.9595095099592066 -0.10867414538486866
4.005142857142857 -0.8720497134311963 -0.16285887759260062 -0.0002213044557480743 -0.0002127520568722458 4.339806488547545e-05 6.7683997749235875e-06 -0.9691554684910395 -0.09656944047489004
4.005571428571429 -0.8739893081841942 -0.15725328063803914 0.00025834395315864946 -0.0007759941009497267 0.00014810858248100498 -0.00026268557415041446 -0.9598462702803099 -0.09406543299425582
4.006 -0.8759829100807108 -0.15422874607156808 5.499655200810444e-05 -0.00044798590120698683 -0.00027479869236668686 8.388793892047015e-06 -0.9705314137822078 -0.09398931938625002
4.006428571428572 -0.8772594497565095 -0.14992164431796765 9.365685583395352e-05 -0.00046430357024098285 -0.00031950928891370453 0.0001552334873019517 -0.9687656654080077 -0.09162964422094984
4.006857142857143 -0.8795042873531754 -0.13781378716450537 1.31448170444045e-05 -0.0005893563841691281 0.0002387105326025298 9.027183399106888e-05 -0.9665118153989591 -0.08525763188447807
4.007285714285715 -0.8834937532422492 -0.1304016148824629 3.677781678939947e-05 -0.00047009405400261136 0.0003949722374340339 0.000133625033998166 -0.9691172129030907 -0.08062609213928837
4.007714285714286 -0.8812356878172867 -0.12585001360611311 -0.00019133353785463382 -0.0005445228048018763 -4.80217819589205e-05 -0.00032273052785774164 -0.964177890302487 -0.08096528834430973
4.0081428571428575 -0.8822730767994792 -0.12156540432062769 0.0003216479914572523 -0.00021597162830894165 0.0002558009682154886 7.959953557736868e-05 -0.9700747975835285 -0.0880258132651166
4.008571428571429 -0.8842193491737572 -0.10948555365876554 2.824706167295728e-05 -0.0006506860697933709 -0.0001016117132371381 -0.0003239894105631445 -0.9639396642109744 -0.07881695584095424
4.009 -0.8850486965402367 -0.1029554907746355 -0.00017750746080943516 -0.0002470587885247934 -2.9605681281638084e-05 5.087576728482471e-05 -0.9747931314270679 -0.08371538399892772
4.009428571428572 -0.8820894850252115 -0.10038393941555686 5.254888063494623e-08 1.0600467800056206e-05 1.08692233767902e-05 5.6474771451765155e-05 -0.9769813356670055 -0.07550820629049049
4.009857142857143 -0.886379061600238 -0.08746050299679949 8.476639955608908e-05 -0.0007113159629923542 -0.00010104676892658932 -9.268974685286367e-05 -0.9667245190452611 -0.06935777702709729
4.010285714285715 -0.8891051768936928 -0.08113619847172321 -0.0001966626791072017 -0.0006556109809917369 -0.00015903029486688078 -0.00011647645028195758 -0.9652285209941062 -0.07486095248025057
4.010714285714286 -0.8880640176501405 -0.0765407467811639 -0.0005402614971183163 -0.00034762679576933386 -0.00024062988791090996 -0.0002964159985110512 -0.969152535999238 -0.0710340674100744
4.011142857142858 -0.8840805477893316 -0.0707409824106782 -0.00023129692937752272 -0.0004180315351644395 0.0002506503677659849 3.0420568101681417e-05 -0.9693813587478255 -0.0657624131244703
4.011571428571429 -0.8862858637142963 -0.05631325117604685 -0.00013550611840366816 -0.0007908159509677314 -8.781673511007946e-05 -1.2071270227244862e-05 -0.969933878151091 -0.06672502018204887
4.012 -0.8901555649681667 -0.05328078421512457 -0.0002098726768030006 -0.0005050749622815753 8.77575342117312e-05 5.5133404765111255e-05 -0.9750353313153065 -0.06296671769181326
4.012428571428571 -0.887800650506511 -0.04401547149467787 -3.044676680393583e-05 -0.0003831039251651571 -6.513819195770342e-06 0.00027245579738948783 -0.9633000653367465 -0.05705896724855392
4.0128571428571425 -0.8939972169666123 -0.036338307985933724 -0.0002493982197069482 -0.00035437038248627324 -0.0001420543400164692 0.00015142097363984045 -0.9651008818145056 -0.06410726892582617
4.013285714285714 -0.8821260165164359 -0.03176234791922082 0.0001645408987107787 0.00013477815752648884 -1.098970649544262e-05 -0.0001680318047599744 -0.963415341136871 -0.05734477193108952
4.013714285714285 -0.887316055141497 -0.02238735100065506 1.4381859809927083e-05 -0.0008452944454043845 -0.00015450191532626506 -0.00033347839285242676 -0.9760213961666208 -0.052096249076300075
4.014142857142857 -0.8880387835431021 -0.01453129717557962 -0.00017395323401786484 -0.00045848977338103973 -1.231403840638985e-06 0.00021887549115542112 -0.9719457511960544 -0.04536518305358103
4.014571428571428 -0.8858086872236189 -0.012248055627799456 4.8258268992894e-05 -0.0006417441677170788 -2.247715396979654e-05 2.113854547926529e-05 -0.9707379238292263 -0.051833648585445855
4.015 -0.8945043072560968 0.0009052494090412115 -0.0003184659970258562 -0.0003836096447181432 0.0003295296685152688 -5.7796973408315e-06 -0.9644228285712726 -0.05049292507992451
4.015428571428571 -0.8896709162937277 0.010319958014085046 0.00013728039582516923 -0.00015174964081973973 0.0003400448536939834 -0.00015708627939229472 -0.9717155711590528 -0.046910262073099125
4.015857142857143 -0.8887377144498191 0.01671487272624815 -0.0004926896635283394 -2.5742679456006973e-05 0.0003879931735679669 3.564168034504904e-05 -0.9719268780786318 -0.045405594908298874
4.016285714285714 -0.8887283388989339 0.022158305174170972 1.4258900216879534e-05 -0.00032629967716256815 -0.00032411829264899193 -0.0002854557577586483 -0.9659974029077819 -0.04020443658565744
4.0167142857142855 -0.8890829130636132 0.03016928718545682 -0.000308345026059808 -0.0003883904062364924 0.00013002748571979317 -2.3662790823046488e-05 -0.9637951814344357 -0.0516787184075619
4.017142857142857 -0.884492466780548 0.03848749760380301 -0.00023120401179098197 -0.0006435057350440213 0.0002575864602907796 0.0001452614746558098 -0.9628891865456938 -0.04005085042133009
4.017571428571428 -0.8911654827684314 0.04274017674058614 -0.00023446811921131925 -0.00018800231423774183 0.0004836489846927403 -0.0001624318216023114 -0.9711759382399654 -0.041815988090061956
4.018 -0.8856857561675492 0.050443864944283864 -0.00036935012082943853 -0.0003555376491955606 0.00019617469735527855 -0.0002761064807352328 -0.9688999437728729 -0.03974502915124668
4.018428571428571 -0.8887200697469422 0.05838193625613705 -0.00040509591139718625 -3.3187174503937585e-05 3.833756656172683e-05 -0.0002011790971429294 -0.9713575121744917 -0.03433767022174192
4.018857142857143 -0.8820870212292352 0.06848482965328427 -0.000136671325505808 -0.0003670121587299599 0.00016693596901584123 0.0001181638612382008 -0.9620216606639154 -0.028509497842691505
4.019285714285714 -0.8824225300743156 0.07829283829015049 -0.0003954466839915548 -5.6655654384336824e-05 -0.00045312163263923046 0.00010968110195808253 -0.9707190495093563 -0.026656094639514138
4.019714285714286 -0.8869156782337905 0.08454907004467371 -1.3134715004943927e-05 -0.00018101614746686006 -0.0003362752196405656 0.0001655819683005168 -0.9642163919304755 -0.028439478561833213
4.020142857142857 -0.8850127298599687 0.08747109274744061 -0.00021728837480213643 -4.75480379940584e-05 -0.0002057102001463843 -0.0002568631853873509 -0.9684855534756192 -0.024690437355416314
4.0205714285714285 -0.8842553106312692 0.10235844033455514 -0.00020004742421230468 -0.00041092779171220687 -1.9680257112719412e-05 -0.00036156925811720774 -0.9680212352266676 -0.027261272746008213
4.021 -0.8813197438335936 0.1023532747519379 -0.00045446822090254335 -0.0005355601447039099 -7.682984107533058e-05 -0.00013346034612506257 -0.9660446351903402 -0.019881435786603414
4.021428571428571 -0.8785304776433672 0.11376352172948928 -0.0006038814104730478 -0.0001213124209673558 0.0003883074730617327 -5.130379838675362e-05 -0.9677428721248498 -0.01712996501772637
4.021857142857143 -0.8812632195345563 0.11703510361412572 0.00015148679629798593 -0.00046038920822245524 -2.761028777702637e-05 -4.5594134302065885e-05 -0.9660123646804559 -0.0166836443797834
4.022285714285714 -0.8739873007367663 0.12246774015326323 -7.012477268831486e-05 -0.0005568615841429594 8.911196115046923e-05 -2.8126441607212717e-05 -0.9754518358982578 -0.008558553436837186
4.022714285714286 -0.8788390704922014 0.1366058678761025 -0.0004932762198449574 -0.00010504929096527851 0.0002752556719409112 0.00011142841175713332 -0.9655067939893526 -0.013248448442219306
4.023142857142857 -0.8755797798474036 0.14351759734223615 -0.0007252056539449114 -0.0004093565241113746 -0.00010104403380265096 -0.00020905826814239116 -0.9670479678686754 -0.007458727150689154
4.023571428571429 -0.878195043196376 0.14584262016047042 -0.000291721890517204 -0.00041129223237606127 0.0001410461120110993 -0.0003256713705328306 -0.9632375222571844 -0.004794570957911558
4.024 -0.8715312748662356 0.15511044019165987 -0.00041303034223626444 -0.00037059638644710327 2.874193265360093e-05 0.0004348574477688961 -0.9694938854289447 -0.006858030376302027
4.0244285714285715 -0.8743881268041783 0.16097518795560828 -0.00029082949407553097 -0.0005478212317721774 0.00037005613810944853 8.914826850387196e-05 -0.970002708062593 -0.0024659635687725536
4.024857142857143 -0.8739944849627496 0.17258593064412686 -0.00041903468742255246 7.798618608116062e-05 0.0002810126517794688 3.1545239338232085e-05 -0.9665350310029935 -0.000955550254225415
4.025285714285714 -0.8730214354239605 0.18019187132665657 9.700622007782941e-05 -0.0006754593273994483 7.351507339309132e-05 0.00024379022384417125 -0.9671497220100524 0.0020847828756660213
4.025714285714286 -0.8714270200168907 0.18568104642788572 -0.0005433916398217656 -0.00033208183944127655 -0.00022578165547820797 0.00033232369947527803 -0.9761749950540556 0.008342880623386026
4.026142857142857 -0.8737180580759649 0.1905716045629155 -0.00014409900179236461 -0.0004984407998497893 -0.00020591540960559113 0.0003237092775095713 -0.967015651674642 0.0038664841052702603
4.026571428571429 -0.8601645055313266 0.2016523878472575 -0.00030473477501871275 -0.00022148363977932733 -0.00011688494463072008 -0.00011459425894916469 -0.9735754102878545 0.008423340344728502
4.027 -0.863056108747788 0.20640347842107912 -0.0007086397536425002 -0.00028934227848490007 0.00017873743714729034 -5.8852164682474416e-05 -0.967839828216016 0.004911037280371345
4.027428571428572 -0.8659022548480538 0.20929981183306448 -0.00020331821760353352 -0.00031313258211306547 -9.991798228864116e-06 -6.1017158055768735e-06 -0.9673785737086885 0.017038391304980506
4.027857142857143 -0.8617922580049381 0.216439337410183 0.0002919029191133048 -0.0003098061531754053 2.9153786905722888e-05 0.00013245586579187834 -0.9733293491814169 0.01212730328586878
4.0282857142857145 -0.8612348746905454 0.23158665044146146 -0.0002228780024659092 -0.00023854021685955237 0.00019009422966504482 -4.7490597495635834e-05 -0.9722086900949442 0.022739172356078148
4.028714285714286 -0.8656608414837366 0.22941909244370465 -0.00021738439570842929 -0.00047489565684154456 -8.131969742126394e-05 0.00014899641296740618 -0.971580897940758 0.012467225593848753
4.029142857142857 -0.8574713890401705 0.24387812341256218 -0.00032519001765649556 0.00011686849852821164 -0.00014589072040034168 0.0002371290223987535 -0.9676874449578748 0.02416908045654804
4.029571428571429 -0.8566889959367905 0.24731021996543387 -0.00018131722980736098 8.32745747286458e-05 0.00018324153083721775 0.00020499845540606444 -0.9625333812716323 0.02418496951439333
4.03 -0.8513479474946611 0.25346216574688435 -0.0003382443123988525 -0.0003531197246566245 -0.00018426792742435663 -0.0001538577560564685 -0.9732573186403859 0.031234939015051394
4.030428571428572 -0.849115731559079 0.26475921730421886 -0.0004054806188891268 -0.00020851754269243333 8.638119654599936e-05 -9.334595615764601e-05 -0.968565917689178 0.02889479760910505
4.030857142857143 -0.8527956057464336 0.267420563477891 -0.00010118371217018514 -0.00021074216528142953 0.00014520928993020808 -6.686450232186732e-05 -0.9726100214454594 0.023585568487575346
4.031285714285715 -0.844766422226745 0.27521592373952347 0.00020132947383848376 -0.00038060320240309014 0.00015452208657200714 -0.00033302751273895796 -0.9671034960183421 0.03348471171520905
4.031714285714286 -0.8404273631907806 0.2776230138761558 -0.000603183881036368 -0.000629974071983851 0.0001095562506863883 -2.7278488942315674e-06 -0.9637067270402642 0.02383127020873972
4.0321428571428575 -0.8368045791378061 0.28881891918537234 -0.00041432809432607743 -0.00025261842052612686 -8.407322365397089e-05 2.9709454497613782e-05 -0.9738367193995952 0.03618052428150342
4.032571428571429 -0.8380067931330302 0.2965690254688722 -0.0004662728295077196 -8.893791856373723e-05 0.00030058812894167186 -0.0001902973269960656 -0.9663028590639252 0.04372646978796922
4.033 -0.8372950249875909 0.3017070393849024 -7.519584469650168e-05 -9.3275549944327e-05 -0.00011740719323845647 -0.0002377665572352426 -0.9656220413416249 0.04497622622235509
4.033428571428572 -0.8418101736478821 0.311546043048768 -0.00028155300754400625 -0.00040610261908195143 0.00012771183339409183 -0.00013725323276842313 -0.9630679427138958 0.03849788861284037
4.033857142857143 -0.8341018663937997 0.3184616575394721 -0.0007619369611444172 -7.97332085253718e-05 -0.0002090329550516789 -2.3113225129989328e-05 -0.964937536975954 0.04439658794307782
4.034285714285715 -0.8279645178497527 0.3217571365335136 -0.00026177300572263263 -0.00033904870395366576 -0.00017042366512224927 0.00013666214241683404 -0.9660078302864796 0.04335980589617837
4.034714285714286 -0.8193293142958413 0.3339501134785014 -0.0004092267306495618 -0.0003417023487213844 0.000507210008214973 9.110073693376869e-05 -0.9673074938813916 0.05348284275454509
4.035142857142857 -0.82169605569572 0.3356816062763977 9.497132121771068e-05 -0.00013343552044453306 -0.0002988242478219391 -6.264780878370923e-06 -0.9685593272213169 0.053541993752630704
4.035571428571428 -0.812620143009803 0.3449549855685253 -0.0006393132437126376 -0.00017653861501741193 -6.693780805094564e-05 0.00010773553979823928 -0.9658961891369625 0.0559040218976651
4.036 -0.8128621346969308 0.3548847055989979 3.652566022343062e-05 -4.678188963827807e-05 -0.0002239479218745002 9.358070808084844e-05 -0.9683603444367107 0.05680829619727306
4.036428571428571 -0.8205287203464752 0.35286473735314117 -0.0003837364350748227 8.708936212106467e-05 -3.146936070197091e-05 -0.00016834721143347786 -0.9658016001783596 0.052729261831591094
4.0368571428571425 -0.8138604971475738 0.3653290019904977 0.00017431093971154453 3.054848868889004e-05 -0.00011640407238492579 0.00012990731955643794 -0.9703869435930771 0.05359421166598908
4.037285714285714 -0.8055298563901808 0.37297938386916163 -0.00019794275032775958 -0.00022422852201718928 0.00018537632476286244 0.00011003738333821926 -0.9650888624770834 0.05844996218111605
4.037714285714285 -0.8029313577377761 0.3732786051416564 -0.0004851711574745693 -0.0003205106762300495 0.00039805088650599724 2.3678266037040856e-05 -0.9710170024918638 0.05735516870091357
4.038142857142857 -0.7990230978098055 0.3938479716734919 -0.0006241553776672354 0.00026963442837856004 0.00027995753210595023 0.00017368479170525554 -0.963418643334127 0.06157228141836535
4.038571428571428 -0.801224582170945 0.3914657932797915 -0.00045976177908157697 -0.00028181548270981937 -0.0001257839636469147 0.00022097271575465216 -0.96160939327879 0.06837164712286274
4.039 -0.7940047467237984 0.3951826354639788 -0.0003493320336696188 0.00020173742720980365 0.00023686221623612488 0.0001683177660490289 -0.9594860094691438 0.06532531569939927
4.039428571428571 -0.789388249235394 0.4139799780909734 -0.0003894768429536497 -9.592154240716426e-05 0.0002150462476504364 0.0002502073952704524 -0.9633503830803647 0.06932042921045369
4.039857142857143 -0.7921427176671312 0.4117755701949206 -0.0003328081677297295 -2.0797515959272663e-05 7.743187894578022e-05 0.0001816363645327082 -0.9702424206156598 0.07048684566939653
4.040285714285714 -0.7865715074332147 0.41161939967301514 -0.0005663380585008877 0.00020053693394727715 8.268947479334186e-05 -9.517852484676872e-05 -0.9632350489974147 0.07699993698957854
4.0407142857142855 -0.7876185256711818 0.4252994347115808 -0.00032694876495938026 7.42289548397219e-05 -8.697858896583615e-05 -1.623362970471624e-05 -0.9586509237491224 0.07600866410802251
4.041142857142857 -0.772755836353018 0.42934017942592084 -0.00041983565792739287 -0.0002863983206060681 -0.00018179188758021784 -0.00014041681640953127 -0.9672120428383063 0.08534550142259652
4.041571428571428 -0.7712043222140825 0.43777067220804855 1.3405706378444388e-05 -0.00022599919963675068 0.00030288276890772404 6.159053045261397e-05 -0.9645134037044651 0.0831415394641343
4.042 -0.7698647926993767 0.44666143785249385 -0.000582454070139924 -6.666012057651993e-05 -0.00018326981416972283 -1.2090726464501867e-05 -0.9643257818008318 0.08867834946269905
4.042428571428571 -0.7652771569069631 0.4501957365280701 -0.0005643797797161681 0.0002841226212163043 -8.655191378762771e-05 9.374836152305642e-05 -0.9612694713163252 0.09187046621391677
4.042857142857143 -0.7633134741774018 0.4475425246866067 4.2918364021131975e-05 -6.243207454288874e-06 4.6977297918744884e-05 -5.8530569863325206e-05 -0.9652142049318321 0.08911418060638178
4.043285714285714 -0.7581550989627189 0.46508122741369473 -0.00043947526512518276 0.0002639730518912884 0.00021044957525571123 -4.093300971400607e-05 -0.9646435491281334 0.08465955501677108
4.043714285714286 -0.7512360892562444 0.4677857894491221 -0.00023953259146105213 -0.0003445265878601999 0.0001112784305610379 -0.0001958615987323101 -0.9668358194281297 0.08419111375536771
4.044142857142857 -0.7513052762075441 0.47617779959615714 -0.00023097741795964174 0.000580495407590118 2.698589909032006e-06 0.0001406028210904654 -0.9636094929100637 0.09785887521331144
