!Created with skrf (http://scikit-rf.org).
# Hz S RI R 50.0 
!freq ReS11 ImS11 ReS21 ImS21 ReS12 ImS12 ReS22 ImS22
4.0 -0.8467405784199453 -0.2512001912122049 0.0003696942865196233 -0.00012297909058026044 2.163976209952957e-06 -5.167829847962518e-05 -0.963348059859194 -0.13010930582552965
4.0004285714285714 -0.851718555114555 -0.2469741000648419 8.775037647059017e-05 -0.00046018744545726377 0.0001877825991136847 -2.1625765156563178e-05 -0.9709076670518069 -0.12340856471309895
4.000857142857143 -0.8560496706043829 -0.23605627225410933 0.00012920840849679096 -0.0003737052079033564 0.00024140293164781688 -3.4455271291805096e-05 -0.967339040944272 -0.11593072494491673
4.001285714285714 -0.8493249672766048 -0.23169010892506012 0.00035743365824210356 -0.0005182238514743916 -0.00022066657798400062 -1.795784514713327e-05 -0.9643062866725346 -0.11635842293174047
4.001714285714286 -0.8567951012591306 -0.22510723127722723 0.00024518945717762447 -5.629555097518107e-05 -0.00021938382192905417 -0.00011150279377284741 -0.9659510494507277 -0.11956673239783233
4.002142857142857 -0.8546100622600239 -0.2228549617395475 -9.88865978525946e-05 -0.0007634536553671479 0.00032466765958398964 -1.8436228888387062e-05 -0.9643500998259202 -0.1104641311712366
4.002571428571429 -0.8587037387925259 -0.21344487773093543 8.966544718534953e-05 -0.00016339177656823602 -0.0001065229132615662 0.00012979822948904572 -0.9697471817506671 -0.10484882462564803
4.003 -0.8630983793058999 -0.2016571063915435 -0.0001437006500340039 -0.0008235702715128076 -0.00027150777924337386 -0.00013434034193813242 -0.9684534355000918 -0.10388498582016399
4.003428571428572 -0.8635875892882375 -0.1990260549513356 0.0001886761560787079 -0.0004716807148411035 -0.00012839452491993872 -4.183857347259308e-05 -0.9622602123039855 -0.0985312251125539
4.003857142857143 -0.8616920657416786 -0.18824283717799364 0.00021731985330909607 -0.0001238082417748863 -0.000365745348368532 0.0001216556542991824 -0.9705111225965317 -0.1083673903770666
4.0042857142857144 -0.8731756971609609 -0.182282820246481 1.2022277130024e-05 -0.00044528373296141675 -0.0001543590395707779 -8.493090908227363e-05 -0.9654411034522536 -0.09995699350107994
4.004714285714286 -0.8676929537757277 -0.17245251598407368 -6.871114559505248e-05 -0.000305606384660166 -0.0001035706519888989 0.0002451849340622705 -0.959175075695063 -0.10802879939888618
4.005142857142857 -0.8681155298040915 -0.16391149441506644 0.00023300780853529186 -0.0003817933650156085 4.4722621600253044e-05 0.00013214305918768246 -0.9668226219571233 -0.09423900432177874
4.005571428571429 -0.8703152271230312 -0.15874896599677865 3.4237455958828187e-05 -0.00027164381390624575 0.00013606428269440305 9.626229231697551e-05 -0.9604485460737845 -0.09509486046362908
4.006 -0.8741971442608385 -0.15526372128689372 -9.204110729123317e-05 -0.00028003209546512793 3.8094643094436574e-05 0.00020163886547177866 -0.9705813664951791 -0.09295739255527326
4.006428571428572 -0.8729232526902166 -0.14933542903915073 -0.0002331614114177585 -0.00024630851097145226 0.00019187715945575876 -0.0001686430460805373 -0.9678599941322732 -0.09095609018901342
4.006857142857143 -0.8775401261092007 -0.13836358541711188 0.0001052553536819134 -0.0005831753945038549 -0.0001663846183913243 -3.665432346692226e-05 -0.9639318197858986 -0.08675938766470782
4.007285714285715 -0.8803522648635795 -0.13029636940204278 0.00015618871683142704 -0.0005053265847872624 0.00016172637578642311 1.0472990283299489e-05 -0.9698025338377759 -0.07901663999982785
4.007714285714286 -0.8761378987849396 -0.1268960564006273 0.00012944586291747248 -0.0003482024645429288 -0.00011298648769681714 -0.00022645557260778546 -0.9618972929832316 -0.08314204424276332
4.0081428571428575 -0.8777428631768224 -0.12319201964372686 -0.00010222370382782693 -0.0004667096909584864 0.00019325360510650546 2.3415522427183838e-05 -0.9670912180046237 -0.08870532717071174
4.008571428571429 -0.8804455845001419 -0.11056362375406405 -0.0003999545373799063 -0.00033757832346778733 -8.501856169132308e-05 -4.956191281835862e-06 -0.9638397747738808 -0.07809385520154609
4.009 -0.8841789418373464 -0.10344429105085337 -0.0001761207835044475 -0.0005314651498340881 -0.00012830467230396872 0.0001789971743858846 -0.9741007414251251 -0.08452813784684989
4.009428571428572 -0.8800860894329274 -0.10083438202381152 -0.00017612515682468406 -0.0005498103047071364 0.000104020513597155 6.314013044911415e-05 -0.9794461936155732 -0.07490849144123883
4.009857142857143 -0.8832072344950436 -0.08885066952366158 5.6656455924540344e-05 -0.00012666727899823523 3.3477016765437466e-05 -0.0001601812106422773 -0.9665665006964663 -0.06975363463210643
4.010285714285715 -0.8851205492095091 -0.083588612265627 0.00019203651001043767 2.8670926571478396e-05 -0.00015079561656297178 -6.9161226282118845e-06 -0.9657165410447505 -0.07311015464841047
4.010714285714286 -0.8852143418305863 -0.07613796161056723 -0.00026345761689061843 -0.00012965019993207397 1.9649727428185556e-05 -4.433625435579258e-05 -0.9694914453735989 -0.07104883040378729
4.011142857142858 -0.8809462860250405 -0.07172595606887366 0.00024143141675081456 0.0002579352934925974 -0.00028656730470018663 4.848616080432097e-05 -0.9688740418813268 -0.06571060257943537
4.011571428571429 -0.8817029856447776 -0.058792505408712094 -0.00020953235317058594 -0.0003439604715990618 1.163206491903485e-05 0.00017293614915107685 -0.9702761822481673 -0.06616688786058197
4.012 -0.8851168252899341 -0.05452052520435654 0.00017264817512986215 0.00010520759315884292 -3.526782921429512e-05 -0.00011589574842662821 -0.9750484713919292 -0.06330426727761874
4.012428571428571 -0.8834251351398791 -0.04636348384345178 -0.00017281132548673913 -0.0004659563550700238 0.00020630598679405952 0.00010326680000396574 -0.9619788956700029 -0.05682360592978565
4.0128571428571425 -0.8904020899839002 -0.037418823550214315 -0.00027598640858745796 -0.000743929803080365 0.00010976388111338963 -0.00015648793206440197 -0.9653776480048083 -0.06201966838418112
4.013285714285714 -0.881234724417634 -0.03310426348794035 -8.875301089036052e-05 0.00015587983780898854 0.00015489920052887785 -2.401491623664809e-05 -0.9620731910928961 -0.05829964449024965
4.013714285714285 -0.8837416219877378 -0.022394287767031923 -9.486716161006685e-05 -0.000476402346874828 -7.68726817423058e-05 -0.00016081723731891477 -0.9762298150832102 -0.051397295779646204
4.014142857142857 -0.8834528881357971 -0.01566814306429015 -0.00024479621959661485 -0.00037196834590635334 -1.1605534229530906e-05 4.805180141266055e-05 -0.9710395493923409 -0.0447273542319973
4.014571428571428 -0.8812448025511519 -0.013162524383139917 -0.00022961982385641457 -0.00020089496447001204 0.00016963608970515983 -0.00028164668174207597 -0.9706337293578866 -0.05027881342004833
4.015 -0.8922579572362961 -0.000650582440158032 -0.00010664408752870206 -0.0001637421405976947 0.00014188417736720873 0.00030506027807229757 -0.964635334543451 -0.050348869665203175
4.015428571428571 -0.8866318786087268 0.00994165602432439 -0.00025749430299881114 -0.00014305516809993534 -5.066523849132527e-06 -0.00016494776134423744 -0.9699301561690717 -0.049338616135206445
4.015857142857143 -0.8851084203144017 0.015171811057988871 -0.00012975279380013534 -0.00029774271484452877 -0.0001410497030641192 -0.00039872594806049556 -0.9703733058470905 -0.04527638544591866
4.016285714285714 -0.8847660753597334 0.021357730070946577 -0.00040717704241928265 -0.00012764598169389579 0.0006331524592402664 -0.0001535161806291318 -0.9646917710412106 -0.042366605109558565
4.0167142857142855 -0.8847898655040025 0.027610815233372613 4.086250884833848e-05 -0.0002820932124406027 -3.114285008346833e-07 0.00027456781753275127 -0.9666067710449789 -0.047807823385723015
4.017142857142857 -0.8812905244037461 0.03808970081445981 -0.00023906834910243565 -0.0003447975410131598 0.0002109012526524074 0.00018302913661210018 -0.9611111234793479 -0.038237719997230704
4.017571428571428 -0.8871637730153705 0.04040618289823534 -0.00032467867923313616 -0.0003548243047454863 -2.3240447128298424e-05 -0.00015959965923097592 -0.9709939369646915 -0.04019243862137138
4.018 -0.8820683115800686 0.049058700540406286 -0.00017447892253614266 2.5510590241115164e-05 0.00035660396075557773 6.829669871359097e-05 -0.9713752572661687 -0.040075477525945355
4.018428571428571 -0.8861349877139097 0.05539968275757856 5.07630195913974e-06 -0.0005030961194264739 6.516719124570004e-05 -0.0002543670600556282 -0.9717003686875294 -0.031640600961303375
4.018857142857143 -0.880119750330449 0.06759396261359692 4.985160266893109e-05 -0.0003851831430419218 6.382759928789979e-05 0.00010097124097632739 -0.9611382498097282 -0.025732260105397087
4.019285714285714 -0.8788539431872984 0.0769690545398329 -0.00026709174651432644 2.9948833002255822e-05 -0.00012177008805949116 0.00024312499055005599 -0.9718276948192339 -0.02656145162874228
4.019714285714286 -0.8841367372606534 0.08325615260586726 -0.00026608518682834527 -0.00013614174393974 4.945761720670376e-05 4.300568271688201e-05 -0.9646265732730741 -0.02593875142201184
4.020142857142857 -0.88197616526288 0.08729083618654844 -0.0002621638203033486 0.0003482400693811434 -6.9395700909721255e-06 -1.7340121538370083e-05 -0.9696675991006494 -0.02236703156146072
4.0205714285714285 -0.8820162796016864 0.10188308608210404 -8.664355326676705e-05 8.921177959870944e-05 -0.00014573974260570998 -0.00022318328319699183 -0.9679692384786676 -0.02592057813686015
4.021 -0.8793408011503555 0.0990493117065185 9.560771155319855e-05 -0.0002490198416353785 -3.364634416188661e-05 -5.773322765281765e-05 -0.9670470779893944 -0.01811779255498869
4.021428571428571 -0.8767909021259167 0.11097196155121027 -1.4011360211711484e-05 0.00010222173138863879 -0.00011937035766296541 0.00030051059324197484 -0.9700459156276002 -0.01870904141624129
4.021857142857143 -0.8794950928414756 0.11548471843985146 -0.00014456588306284288 -0.0001549006982380508 -0.00015675251996228289 -0.00024419473425982025 -0.9684936567648552 -0.01508224777358798
4.022285714285714 -0.8712904779619917 0.1207416193531201 -0.00015154162658449316 -0.0004873926204668616 -5.503228810665892e-05 0.00016852461909862068 -0.9755848959772321 -0.00955119888245593
4.022714285714286 -0.8766132489506446 0.13576098691323465 -0.0002999820820334122 -0.0005849501195327589 -0.00020575354811640305 -2.381543897938594e-06 -0.9648433004705205 -0.01358287427781238
4.023142857142857 -0.8742841460736928 0.14190994636987528 -1.7843099071144333e-05 -0.00027664998887090954 7.852462672217887e-05 -0.00010156903367788595 -0.9667920080975922 -0.0072026498391287
4.023571428571429 -0.873427803246476 0.1429212937725398 -0.00010679023442892668 -0.0003434410709010736 7.20442159736491e-05 -0.00020766903098050636 -0.9617417118003585 -0.0016811768007325596
4.024 -0.8682070970852667 0.15631551464183197 -4.1051557675094035e-05 -7.449275888580377e-05 0.0003680589510123839 -0.00010255528209169535 -0.9696642278365446 -0.006048133719657006
4.0244285714285715 -0.8722222664611501 0.15773191917598106 -0.000144426212423764 -0.00017600865576482386 -3.786888033061885e-05 -0.00020839930953829388 -0.9722194289178442 -0.0018898785703656742
4.024857142857143 -0.873157729099043 0.17073413938684562 -0.0004407730159550871 -0.0004469229372376905 0.0002486372294592451 -0.00012736602537349146 -0.9676953177742782 -0.0005509942687769407
4.025285714285714 -0.8712361159322608 0.1780229998768055 0.00026245217972560277 -0.00012769633621388971 -0.00013039619232806842 0.00020045744333689445 -0.9664827829601577 0.004941201110315844
4.025714285714286 -0.8667069563352258 0.18361967135556687 -0.0001785237222109455 -0.0001781235874750943 -4.440797133563809e-05 2.943247754485244e-05 -0.975955496011791 0.009107230741559981
4.026142857142857 -0.8700193514752856 0.18975375632336963 2.032307006967195e-05 -0.0005115648271315551 0.00031541266904571195 4.076889666182204e-05 -0.9680621397953604 0.003885699086906138
4.026571428571429 -0.8573654375022994 0.198472990127329 0.00010149059339177825 -0.0004096805211059676 -0.0003099222587445299 -0.0002840405999448647 -0.9737539017971776 0.010890762489969341
4.027 -0.8608374095786573 0.204835641272213 8.490637788855822e-05 -0.00044400836365599244 -5.20627132372965e-05 0.0003016633702178056 -0.9716023750390869 0.005358163164674909
4.027428571428572 -0.8648355829502548 0.20656484733285782 -0.00020532426388883784 5.0355921210710765e-06 9.08157923606145e-05 -8.359773509869575e-05 -0.9649226344814696 0.016970454417274537
4.027857142857143 -0.8567277181563584 0.21267593537915958 0.00017181025335641633 -0.0003230441171457155 0.00020893121331969818 6.355031713064313e-05 -0.9747587371210515 0.0131355640239974
4.0282857142857145 -0.8575096621966244 0.2315269885734941 9.125090632689132e-06 -0.00048013246620594286 -0.00021680219145929868 0.00020210385455546784 -0.9713396790688044 0.022087583881835657
4.028714285714286 -0.8615555724127506 0.22732926250413726 -9.389380350976994e-05 -0.00011971514511651353 0.00022400273438320347 0.0001515807390490391 -0.9693376521370813 0.013451618005014114
4.029142857142857 -0.857176189724438 0.24097749407325406 -0.000644124337363446 -0.00047764311632708087 0.0001604267221681013 0.00044131665019278007 -0.9676395713236416 0.024816006758610964
4.029571428571429 -0.8536475194660453 0.24543530004618647 -0.00032281126470854984 -0.00019201886922193048 0.00019444891060534293 0.00022016524538189978 -0.9630166326749358 0.02361574910499481
4.03 -0.8487490336136724 0.2506981561751179 -0.0001538854591400933 0.0001561225496488556 0.000142055704294913 -8.336794623040287e-06 -0.9727690588272458 0.03418096084621974
4.030428571428572 -0.8473332270041085 0.26176399317160576 -0.0004997665621976728 -0.0006696848910763855 0.00011888112974731805 0.00015770756393915157 -0.968031941813736 0.027203226392071903
4.030857142857143 -0.8494139940713926 0.26455164476358456 -0.00047757292299796446 -0.00014933790342046177 1.3364539586862418e-05 0.0001378059901285466 -0.9726575364769143 0.0220267521338284
4.031285714285715 -0.8408956040351906 0.2749105567567039 -0.00010303766745043148 -0.00024288140973285165 -3.701457723143056e-05 -8.469687089727521e-05 -0.969305530588376 0.03571667494362277
4.031714285714286 -0.8374637286780353 0.27703381528035287 -0.00012890330853414483 5.88934121194428e-06 -0.00010952197443248595 0.0001495776951426991 -0.9623801516372592 0.02485313191208249
4.0321428571428575 -0.8350230853564474 0.28680401527950267 -0.0002590223688985784 2.4660279157868765e-05 0.0001881142649951281 6.221379170365296e-05 -0.9724770266942957 0.0347550206048341
4.032571428571429 -0.8357647533225594 0.2935576303966784 -0.00017134555384535943 1.5136658796597047e-05 7.091402927892474e-05 0.0002857657466513442 -0.9672366429309651 0.04602121105642226
4.033 -0.8357800072216107 0.30066297503569994 -0.0001750233412014047 -0.0003977443941918241 -0.00033673409326591674 -0.00015676183612427696 -0.9660746700101813 0.044290268251548984
4.033428571428572 -0.8388543376180951 0.30909637293470166 -0.0003385748489009154 -0.00020571829162959566 -0.00026968120935104835 0.00013228130623300392 -0.9639427950884568 0.04024547564151166
4.033857142857143 -0.8322727507873404 0.3164888544885435 -0.00032268944306139885 -8.688712676334786e-05 0.000235529129442268 -5.90880988173721e-05 -0.9610755804437213 0.04344565696429095
4.034285714285715 -0.8238219442429268 0.3200923166546584 -0.000643823616941933 -7.166720714326851e-05 5.9219066451426945e-05 -3.6478245497427575e-05 -0.9661694673078552 0.043725435414064866
4.034714285714286 -0.8171167274795911 0.33217597142836214 -4.026291024468246e-05 0.00016141855461825362 0.00012091425152234036 -9.34641822746072e-05 -0.9655111699914362 0.05110670431835347
4.035142857142857 -0.8202252588157747 0.33432634161529273 -0.0003324705695392478 4.412228837443931e-05 0.00015773843688761158 -3.308948674182707e-05 -0.9680885651795887 0.05125079113667708
4.035571428571428 -0.8129075966137755 0.34245618447497467 -0.00027801167476130086 6.712760740257176e-05 -0.00010432834325165225 -7.905606208009864e-05 -0.9679642700762124 0.05629571472104685
4.036 -0.809643800952016 0.35348185536392346 -0.0004589727085918912 5.8136192385807845e-06 -0.00015120476862646575 -0.0001731815311279753 -0.9719928752370182 0.05652150409405575
4.036428571428571 -0.8166398510851239 0.35096522000965374 -0.0002084540728363396 -3.861831136929309e-05 5.5700289211426934e-05 -0.00022665409844771964 -0.967587010860001 0.054115486940340955
4.0368571428571425 -0.8105052862901848 0.3642122594601966 -0.0001856775965466483 -0.0003221750361040345 6.429416771796506e-05 0.0002540042105416938 -0.9705783273586718 0.054653653231817374
4.037285714285714 -0.8016804955877337 0.3704038290628975 -0.0007394612450328798 -0.0003409885363358642 0.00034486482198142467 0.0002495219087722798 -0.9641631481706248 0.0598480551832794
4.037714285714285 -0.8001348269397993 0.3720070063521763 -0.0007490216353800022 0.00046292150800359924 3.34528236285659e-05 2.4434869467852242e-05 -0.9686772131857786 0.05670661066146344
4.038142857142857 -0.7966378363359319 0.39017471111920066 -0.0004725527136321409 0.00017079270485913375 -0.0001466558108856573 3.068930658333165e-05 -0.9629435229795478 0.06282705079580676
4.038571428571428 -0.7991471629489727 0.3896713999793904 -0.0003284310085102081 1.6370015261508712e-05 3.0549454518070074e-05 -0.00043724746641751104 -0.9590383565251588 0.06625498340167799
4.039 -0.7934909335561339 0.3940432056889202 -0.0004357028209956712 8.807311396832643e-05 -0.00015756723431475453 -0.00011349432521465263 -0.9590666543889385 0.06541721565935217
4.039428571428571 -0.7864686798256515 0.410860609740715 -8.239864595792817e-05 -6.941431314888186e-05 -0.0001627112328497301 0.0005821522040579931 -0.9621060081632669 0.0710499585786334
4.039857142857143 -0.7899889376985347 0.40902163873146996 -0.0008088676346136364 -0.00025227742002825786 6.535331144786008e-05 7.352725001982544e-05 -0.9709766686534794 0.07023243116566096
4.040285714285714 -0.7849700522373212 0.40990601110319574 -0.0003694417123469246 -3.344124048671246e-05 -0.00013632071654018577 -0.00022968663204771988 -0.963176841099026 0.07654839449652068
4.0407142857142855 -0.7845975668846129 0.42287221870429004 -0.0003288701731576332 -4.2507548499841715e-05 -0.0002318873549206305 -0.00017134798569861008 -0.9604979396435502 0.07521304481131462
4.041142857142857 -0.7704366627322792 0.42701177466949963 -0.0004701666283921072 0.00013552339562059165 0.00030564121210776147 -1.1324558919765883e-05 -0.969382649464885 0.08612442020020968
4.041571428571428 -0.7709041129499442 0.4331149597543421 -0.00045703757264202693 0.00010573797470370945 7.3342529411254e-05 -9.526378075135254e-05 -0.9645785382605524 0.08345021132491845
4.042 -0.7675750139268773 0.4428793091375292 -0.000276524194909441 1.2073586202429562e-05 -0.0001275911107141003 -0.0003109444722241711 -0.9642125635047091 0.09008790587390858
4.042428571428571 -0.7610350794668141 0.4475782851279258 -0.0007580504660645913 0.00025487851857961246 -5.491695503831526e-05 6.649158969395462e-05 -0.9598121376032808 0.09278044487378402
4.042857142857143 -0.7623039780563494 0.44470368626803186 -0.0005295105911698284 -0.00017211170423759927 -0.0001619427994524397 -6.5479876075267514e-06 -0.9650836637039254 0.08684181752349712
4.043285714285714 -0.7556510118932238 0.461830628632753 -0.0010313149111079274 -0.00019903513576521626 1.475321097125408e-05 -2.186952647831306e-06 -0.9645184535159952 0.08675485965927997
4.043714285714286 -0.7495325245983727 0.4631266709336731 -0.0001260938407048005 0.00015955855129102628 0.00012859531651759649 -0.0001658476925952119 -0.9666468006060114 0.08301038139679978
4.044142857142857 -0.7490459458700043 0.47255797993775317 -0.0006599709327200911 0.00016238877670125525 -2.48558583529329e-05 0.00010968686313724568 -0.9621699237848093 0.09691874893524033
