!Created with skrf (http://scikit-rf.org).
# Hz S RI R 50.0 
!freq ReS11 ImS11 ReS21 ImS21 ReS12 ImS12 ReS22 ImS22
4.0 -0.8271345242198852 -0.25326588703305397 -0.00011451806800616816 -0.0004858135717084541 -6.074503208760035e-05 -0.00013529627869857114 -0.963334680323359 -0.1290232952090682
4.0004285714285714 -0.8357547771492273 -0.24824533616939515 -0.0003742284639896518 -0.0005929221767419204 -0.0003118614898649746 -9.331905642032091e-05 -0.9700304737657492 -0.12358592472985891
4.000857142857143 -0.8392589616099776 -0.23860466918112683 0.00020181736113014396 -0.000472169594511333 0.00013616734062964718 -0.000261210254989549 -0.9674888637294102 -0.1153583258060479
4.001285714285714 -0.832802961736077 -0.23289977270763865 -0.000287388204655072 -0.0007155278339683235 -0.00021249220494411587 0.00010522669374930647 -0.9649306897006262 -0.11780348832681865
4.001714285714286 -0.8406477988655546 -0.22423380986186428 -0.00017954750188190085 -0.0006570929697106971 0.00012095317940174009 -4.0379100035324765e-05 -0.9676202883604216 -0.12143502146930549
4.002142857142857 -0.8398279829042988 -0.22531419116038728 -0.0006505864136743212 -0.00045002884583823907 0.0001260112037254857 -7.158938190814719e-05 -0.9670447858220533 -0.10918293997211717
4.002571428571429 -0.8427637893525921 -0.21437516804542264 -0.0003661068923332906 -0.0012340594124312999 5.93498370131273e-05 -0.0001667522651455189 -0.9702065116168745 -0.10688354503418875
4.003 -0.8459192687345476 -0.20306219882625776 -0.00017732799953274785 -0.000719514848977612 -8.23620122686626e-05 0.00015557036181252723 -0.9691905547876449 -0.10532524201048814
4.003428571428572 -0.8477256640480143 -0.200527942225761 -0.00012130303264303755 -0.0005017870941208324 -0.0001281749091518226 -0.0002350106733441714 -0.9615415015824453 -0.09577306734058567
4.003857142857143 -0.844963971469994 -0.19087445319505622 0.00012911243768301786 -0.00026034632371788567 8.42752829648914e-06 -0.00022783643463609464 -0.9709839398457583 -0.1097933235790498
4.0042857142857144 -0.8544521714019873 -0.1841102722562502 -6.143030963894637e-05 -0.00044410886456448014 -8.955305517160755e-05 0.00026625017112324437 -0.9655596420786831 -0.09961332078639995
4.004714285714286 -0.8513089253965992 -0.17506676044859637 -0.0005789989848720329 -0.00037834935438261575 9.38899521097698e-05 -6.983756216301859e-07 -0.9597674775186806 -0.10825622707094427
4.005142857142857 -0.8519607606670281 -0.16674657660920839 -0.00034498481472021274 -0.0005689176696141002 -0.00023741154853558724 -0.00024732014406726234 -0.9686118118976336 -0.09537571168792663
4.005571428571429 -0.8521915202809898 -0.16120385682033805 -0.00022366203560873554 -0.00048221930086417644 -0.00030346151310715034 0.00031910020007789664 -0.9607214086374011 -0.095467770092045
4.006 -0.8553721323395403 -0.15883689130019032 -0.0006068351405995608 -0.0008095203398653831 0.0001286250223260799 4.427633611292957e-05 -0.9715634765249371 -0.09312310171909821
4.006428571428572 -0.8561232478248475 -0.1526489610033701 -0.0004359707745793069 -0.00042109239422509536 0.00021346938585461154 0.0002080346509112599 -0.9700677302000434 -0.09315582203298878
4.006857142857143 -0.86134521083441 -0.1407603783009934 -0.0006244933947114797 -0.0008248652893488016 -0.00016783278828640515 7.025268639004444e-05 -0.9639446361455548 -0.08725819273094702
4.007285714285715 -0.8632180435723096 -0.13511255320209847 -0.00031170274140360216 -0.0006064090290878318 -0.0001711313967312527 -6.899166093538825e-05 -0.9667365334675527 -0.0806268659942854
4.007714285714286 -0.8618303914487584 -0.13117312846909338 -0.0004150052462601134 -0.0008955288042165354 0.0003130744978707564 -0.00019286171040086355 -0.9618036294234427 -0.08189448397683018
4.0081428571428575 -0.8619761749219389 -0.12640678830337204 -0.0008104956736941004 -0.0005605465375616444 -1.6317409430123675e-05 -0.0001936890796337301 -0.9678252043651715 -0.08802832506301113
4.008571428571429 -0.864848077840409 -0.1136621909321173 -0.000752924416092078 -0.00047683121111873674 -0.00012050710181480816 -0.00013643630476093934 -0.9643087345184862 -0.079228342333418
4.009 -0.866794149804636 -0.10699196193880572 -0.0002566163198752201 -0.0001531124054416561 0.00016050090446587613 -0.0002525440141292757 -0.9748787906941684 -0.08566911777255241
4.009428571428572 -0.8636759135839523 -0.10594852734968184 -4.435175077295095e-05 -0.0007027051547302857 -0.0001552676694688962 -0.00015383270553215187 -0.9757211380662437 -0.07600832375627756
4.009857142857143 -0.8652104861087198 -0.09233957412957831 -0.0003752872692699655 -0.00043657681851929313 1.9508209295254918e-05 7.322810256879617e-06 -0.9675195259899584 -0.07003107061330452
4.010285714285715 -0.870024191737913 -0.08667864834270954 -0.0008249368637665619 -0.00035045453566188485 0.00021005022358255428 7.924858405599619e-05 -0.9653462887419615 -0.07381997713184807
4.010714285714286 -0.8663809627168195 -0.07968626318160532 -0.0005408013987226094 -0.0002642198291252279 0.0002841411819385733 0.00010617257907475635 -0.9692371048325176 -0.0717209771943935
4.011142857142858 -0.8645417440990032 -0.07647830425072195 -9.683321483499909e-05 -0.00035212397760523686 -0.00011701779778926235 -0.00020248039523478362 -0.9697270537442381 -0.06713161756907991
4.011571428571429 -0.864895603183563 -0.06240840458443244 -0.0003421548653072562 -0.0005566785973189997 0.00018202514500683393 0.0003343871659353697 -0.9708525530386651 -0.06810617948846927
4.012 -0.8699954760776013 -0.060085429849296275 -0.000863763139994963 -0.00045472532938939207 -0.0001468214456152845 -0.0003251287825575659 -0.9751823322593285 -0.06122414535782078
4.012428571428571 -0.8679163094613054 -0.049348363787980895 -0.0004132158671222841 -0.00017450075609261548 0.00045614407103892964 -8.464677467320166e-05 -0.9603863519882387 -0.05678747441300387
4.0128571428571425 -0.8748306015169226 -0.04092216796063095 -0.0004689470486096629 -0.0005073819576419619 3.019079065348933e-05 0.0001434851962282566 -0.96289627427397 -0.06423080360532163
4.013285714285714 -0.8650568014151723 -0.03660079895972055 -0.00036387481414498573 -0.0005239395277700987 -0.00014422099329965837 -0.00018286678098852752 -0.964560268503233 -0.05726904090393979
4.013714285714285 -0.8672936605352137 -0.027547959372694372 -0.00046907608038728685 -0.00017902644022670886 0.0003785327843383726 0.0003901583703369906 -0.975649897563252 -0.051269618073224985
4.014142857142857 -0.8679145118589733 -0.02059226357996 -0.0005696249066743767 -1.123650141191506e-05 7.803304267613375e-05 -2.402738178950905e-05 -0.9713840298853569 -0.04584432735008503
4.014571428571428 -0.8668211456858489 -0.01682869678112627 -0.000464102715887007 -0.00020003268443153564 0.00014236486866272435 -4.9610282062501225e-05 -0.9685494771624892 -0.05282453168599956
4.015 -0.8765026672449645 -0.0056209960480813025 -0.000551550412747444 -0.00029907745836728165 -6.548558820249345e-05 -0.0002149783110030785 -0.9650122744983847 -0.051690417911286285
4.015428571428571 -0.8710747753446956 0.0035796935257053396 -0.00048187740870215943 -0.00029795126711807394 0.00017754233273502374 0.00016309468847180227 -0.9716895137288118 -0.04897386051328432
4.015857142857143 -0.8703689480532336 0.01088820715548681 -0.00017315161669895625 -0.00043607386003127003 -0.00021031121168443528 7.453597722799318e-05 -0.9705747830144392 -0.047058872082945326
4.016285714285714 -0.8696302224319188 0.015708396581505794 -0.0004691323534479481 -0.00033343254355807815 0.00020444387141076872 0.00025789626907195246 -0.9659207711033306 -0.040223993615945565
4.0167142857142855 -0.8695155469616233 0.022728866501190305 -0.0005315547876969375 -0.0003140590860244117 5.6983165480265e-05 -1.9667984119776905e-05 -0.9642512623905936 -0.04853865731665576
4.017142857142857 -0.8682813311196004 0.030512429380104386 -0.0008141912671047835 -0.00033289189759987754 4.494441175108504e-05 -0.00016965167869507032 -0.9615891217001024 -0.03873859955760476
4.017571428571428 -0.8715557151321117 0.036351719078096985 -0.0007220992259869661 -0.0008921564233204404 -0.00022585991429148605 0.00019713361039639554 -0.9723566876131109 -0.042061505820223485
4.018 -0.866477745715945 0.040924378212099564 -0.00043361304247199766 -0.00041874407653039576 1.621924224969422e-05 0.00011314654527982724 -0.9687488978223987 -0.04142325706551487
4.018428571428571 -0.8712284521505356 0.051048050775000214 -0.0006169474102181877 -0.00012292943429792198 0.00010417195769383145 -6.502696337679975e-05 -0.9707946358845009 -0.03485457977064891
4.018857142857143 -0.8633293662284448 0.060399539838236475 -0.0005624177461527134 -0.00043502853856873546 -3.166167239107665e-05 0.0002692049200569529 -0.9626917893494847 -0.027100228927233978
4.019285714285714 -0.8634792331570794 0.06921367272934473 -0.00031880450641327796 -0.0003786207199229775 -0.00021968684199882643 -0.0002581881885588426 -0.9729238324237166 -0.026024925870227384
4.019714285714286 -0.8697387139763005 0.07680792382724007 -0.0007394301457156021 -0.0005104229692501847 5.8563260997972985e-05 9.001416928376491e-05 -0.9661484360721716 -0.02806349522411848
4.020142857142857 -0.868401512346954 0.08143201551189143 -0.000785080345473263 -0.0003008211854847437 0.0006224050685797926 -0.0002810617185697968 -0.9681536864483273 -0.02392089489988506
4.0205714285714285 -0.8670490574068419 0.09598863040020059 -0.000551102615141106 -0.00018636846511290735 8.117215387386881e-05 -0.00010841333972767917 -0.9669160810796827 -0.02553628693536984
4.021 -0.8619302413900252 0.09373782958616814 -0.00030605996510378526 -0.0003383882934219 -0.00011298148195840455 -0.00021151093118655214 -0.96599395966374 -0.020175331802848976
4.021428571428571 -0.8609973869892413 0.10455444015338283 -0.0007837543798027631 0.00036616272455646166 0.0001123239154177184 0.0004581756249927505 -0.9695397230964495 -0.019365871104589493
4.021857142857143 -0.8647767861746519 0.10920143783359101 -0.0006496134326575706 0.00010587154618677696 -0.00022259275862248354 9.311263879218987e-05 -0.9681887817099755 -0.01720427623600438
4.022285714285714 -0.8564752219532175 0.11243776029925588 -0.0007764120826926278 -0.0003694892515808659 0.0002594163685707134 0.00036646519636470185 -0.9756929139153622 -0.008637404820039513
4.022714285714286 -0.8628552980011565 0.1291567057647244 -0.0005971183415859856 -0.00024219340194350892 0.0004298193151092157 -1.60959352984703e-05 -0.9636520356812711 -0.01639045317380607
4.023142857142857 -0.8566488854708175 0.13250460047083917 -0.0012578823057372024 -0.00022123162640841622 -0.0001898256488857602 0.0005041035467688696 -0.9683805412625132 -0.008579872743890106
4.023571428571429 -0.8601803802779826 0.13452960375727052 -0.0007285081889001535 -0.00013128452668944026 0.0001030808890044581 -8.8198578734519e-05 -0.9621881201809567 -0.004904348711965973
4.024 -0.8548801594920504 0.14665561372630653 -0.0008678907711053645 0.00023898362337007454 -3.1126182521575084e-05 -6.352868060292911e-06 -0.971149822173448 -0.005716592826065829
4.0244285714285715 -0.8572827687545495 0.14987539158276802 -0.0008182706902924511 1.1621168215560043e-05 0.00015821605625271844 -4.921474305792609e-07 -0.9705332341830399 -0.00353309958173936
4.024857142857143 -0.8580890365519913 0.16113582012502686 -0.0005960653139708862 -4.710675979581788e-05 -3.170190935989339e-05 -0.0002849228393682955 -0.9679837861023607 -0.0005351297677668305
4.025285714285714 -0.8555785532833594 0.16932311132607866 -0.0005111517472750382 -0.00038972482060130846 -0.00015838966314013405 0.0002563253133361743 -0.966566188961293 0.0009578125996668963
4.025714285714286 -0.8507854259502365 0.17597687075145788 -0.0008456696779920792 -4.814713315664903e-05 -0.0001464583076216557 -8.944675758926617e-05 -0.975103435534864 0.010608625002543323
4.026142857142857 -0.8559912284300915 0.18191756660048572 -0.000318403325925467 -0.00023669175074688648 -7.361384027976771e-06 0.0002424679910683092 -0.9683493301772964 0.001473060982409603
4.026571428571429 -0.8427272478835219 0.191331450029759 -0.0009259942559710446 0.0002764374058475426 3.385824348334865e-05 -0.0003627147509138214 -0.9763172778792446 0.008991501594610266
4.027 -0.8455176643082452 0.19614854571790852 -0.0009778805803403868 -8.76398292108752e-05 1.2279200835762016e-05 -7.683768191229808e-05 -0.9706237483311981 0.005047161599017721
4.027428571428572 -0.8493016244692846 0.19936297220567326 -0.00047132434745318446 0.0001645058084052142 0.00025397864391675946 0.0005171808454194145 -0.9663022701670531 0.016567330629660548
4.027857142857143 -0.8432883360724318 0.20598719773544927 -0.0008793344799220051 0.0004910107852856747 -0.00014427753661611732 0.00021183236720933752 -0.9740871774957639 0.011194159302746315
4.0282857142857145 -0.8439815625685511 0.22270133866591943 -0.0007197855713503418 0.00014591609374914075 -0.000117986632831275 0.00010278125997483963 -0.9723578736269947 0.022318255820774194
4.028714285714286 -0.8462319743938 0.21966973019699412 -0.0006045023818029238 0.000406432894654994 -0.00015651592816802974 0.00016329510326183248 -0.9699654437910088 0.014409783166035138
4.029142857142857 -0.8414007861260094 0.23344863755054415 -0.0004098313840516303 4.900704639510414e-06 0.0001813786001432014 -4.1084963211195044e-05 -0.9692630474308678 0.02266690157302362
4.029571428571429 -0.8413138672871866 0.23454481849104386 -0.0004955006629997246 5.982596851742216e-05 0.00013336340245578374 -0.0001252950868810038 -0.9654110794759494 0.020846679687328944
4.03 -0.8349542396930628 0.24297392382071106 -0.0006116086857719904 4.3663978072592506e-05 8.576513412386633e-05 0.00022300688073454908 -0.9727811072802695 0.03260657173285611
4.030428571428572 -0.8333613425046691 0.25467223419170176 -0.0007768656714987036 0.00012680229729477592 -8.986824418712774e-05 -4.151859936997735e-05 -0.9683436178758558 0.030240742598999764
4.030857142857143 -0.8362211437818456 0.25514647865443213 -0.0005053792540330595 0.00033644427889289617 -8.24596723441002e-05 -0.00013040088328759937 -0.9721811735732515 0.021535555043492534
4.031285714285715 -0.8274933165942012 0.2643167156548684 -0.0007740454383588446 -5.080343055162938e-05 0.0003580617435730648 -0.00012174039463926174 -0.9671684829900837 0.03425737302960034
4.031714285714286 -0.8238862389947367 0.26722541507452113 -0.0007427064480202084 0.00019627807361914532 -0.00018806869194429803 5.704702671553308e-06 -0.96496386792101 0.023908900784808153
4.0321428571428575 -0.8215670280308681 0.27648845177742515 -0.0005388586513796347 -0.0002815079792426937 -0.00031911442863622055 -1.8195555454141176e-05 -0.9725697951719777 0.03584543579791956
4.032571428571429 -0.8235661635597001 0.28446970007154126 -0.0006514502481898903 0.00042693191989124485 9.003777408736903e-06 0.00021700514272963653 -0.9653430358583399 0.043029430757800635
4.033 -0.8215036569885358 0.28857345084782293 -0.0005366922747585264 0.0003319643683561414 -3.5916209046253154e-05 4.868566882560212e-05 -0.9642833247057014 0.04403060646317169
4.033428571428572 -0.8245242353794291 0.2995121643106121 -0.00033470747244680293 -0.00017044520540477823 -0.00023412990014848442 4.690124594926127e-05 -0.964565576125827 0.03827096725519027
4.033857142857143 -0.8186992386636509 0.30629709518450365 -0.00044325381518272537 0.00033230954810749096 3.334183465114417e-05 4.636699044832283e-05 -0.9630074625408562 0.04504679351000804
4.034285714285715 -0.8110551325712597 0.3101197462813739 -0.00116264390078969 0.00029304836363584975 0.00013480395047573882 -0.00012789718239171073 -0.9683241302435337 0.04235157769009276
4.034714285714286 -0.8031878483967718 0.3229139471628009 -0.0008866732193781244 0.00048381824248021143 0.0003432215635109719 -4.4110505892673763e-05 -0.9654554644099049 0.05251344393875902
4.035142857142857 -0.8070323160596105 0.3254446981329247 -0.0009314023167547094 0.0002779112865986567 0.0001310389021621642 9.860541590915978e-05 -0.9664288392018627 0.0517758949153452
4.035571428571428 -0.8011568939966778 0.33304875390988636 -0.0007217194687066618 0.00023754089334245598 0.0002900418387901043 3.914140180447566e-05 -0.9664518998216183 0.056855898083798644
4.036 -0.7974531938093711 0.3424094137871627 -0.0007209183954020622 0.00030713674708553564 0.00024022614677681177 -0.0003297976299157813 -0.9701727115353369 0.05573596342373199
4.036428571428571 -0.8049173239855555 0.3421043633445502 -0.000746483851757255 0.00032614728763291477 2.1707216507720796e-05 -3.7778100940053126e-05 -0.9668147165026255 0.05117990925741219
4.0368571428571425 -0.7974687995382067 0.35250347341843596 -0.0008067218703440398 0.0004006247017864116 0.0002953457588126391 -0.00013101625962241162 -0.9699607030293016 0.05358803081311524
4.037285714285714 -0.7905215720131562 0.36014513874858545 -0.0007433321493330231 0.0005091503957801594 5.8655471969304344e-05 0.00014539527041017137 -0.9622399938132463 0.05751500718171089
4.037714285714285 -0.7877506761094882 0.35973977895794534 -0.001010451961490453 0.000650898644195529 -0.0001337396608290473 -0.00011864096720764654 -0.9705657229678848 0.055460509814051456
4.038142857142857 -0.7841985760968304 0.38103191333571845 -0.0003544169166783345 0.0001292123418783741 6.025258269017813e-06 -0.00010560156491897615 -0.96408736076042 0.06029068916639796
4.038571428571428 -0.7839398711665471 0.3783634964039078 -0.0006579204618867666 0.00010247876073006198 -4.2548748403037696e-05 -0.0002762663382774165 -0.9600860824667529 0.06498279027714712
4.039 -0.7798139142964996 0.382146781558264 -0.0004835300960695666 0.0001920222313780391 3.799462065066843e-05 0.0002670847810216005 -0.9590270883231345 0.06471503321554468
4.039428571428571 -0.7719912392019845 0.39902385464697077 -0.0005994218760256824 0.00010046912784868745 -0.00014291680149576094 -0.00011933690228985616 -0.9636782840943812 0.07151029947474902
4.039857142857143 -0.776121587124547 0.3979354691051446 -0.0006744210637822126 0.0005141171268073814 0.0001248238519499339 0.0003099062736000218 -0.9702449044805876 0.06932455698975054
4.040285714285714 -0.7708701018262368 0.3971752306139461 -0.00036784744523444575 0.0008122438903473446 -0.0001436706711983898 0.000171928929970556 -0.9627366086135493 0.07584514244302247
4.0407142857142855 -0.7707725467453604 0.4112285751806093 -0.00045823130828557466 0.0004064091874032799 -0.00038923344751285295 4.842381730995329e-05 -0.9587763327674353 0.07781253428459292
4.041142857142857 -0.7591907401734889 0.4159068523680236 -0.0002944049826434478 0.00044179396225819164 3.967515845818391e-05 -2.3235401310332232e-05 -0.972367710819686 0.08609278509612726
4.041571428571428 -0.7582698674953781 0.4231362463284663 -0.000728426745344955 0.0002658639512675633 1.7321580351063998e-05 -0.00012950468656677667 -0.9658655722733676 0.08528203624943757
4.042 -0.755452541050161 0.4325886065544654 -0.00018912734533449996 0.00033582977554060786 3.972282396342114e-05 9.845245912276063e-05 -0.9620727501358941 0.08974518484335961
4.042428571428571 -0.7494411282094733 0.4357111583377637 -0.0006442135731140946 0.0005696356506706194 -0.00023364954313123774 -3.8166293087103395e-05 -0.9595952977444896 0.0927331449504902
4.042857142857143 -0.7495549588257611 0.43312368483466174 -0.00023987932400466722 0.0004327788219920348 1.6633069074827247e-05 -0.0001732586335139819 -0.9636361805898128 0.08709921959164313
4.043285714285714 -0.7441953897854487 0.44893384148465665 -0.0008766015545655853 0.00026551165678278 -0.0003141377876670218 -7.838362181934029e-05 -0.9636559298787084 0.08719207569102688
4.043714285714286 -0.736194331785827 0.4515353652970674 -7.861957144563509e-05 0.00032974476025207 0.00027884808945433283 -0.00010837996635086138 -0.9665002255589421 0.08395791343609764
4.044142857142857 -0.7367506413475486 0.4594147735190235 -0.0005666478057506841 0.0005371869075278722 2.6231782465992837e-05 -0.00022962767131942872 -0.9635628509642898 0.09506868439416255
