!Created with skrf (http://scikit-rf.org).
# Hz S RI R 50.0 
!freq ReS11 ImS11 ReS21 ImS21 ReS12 ImS12 ReS22 ImS22
4.0 -0.8411030982630027 -0.248833185375775 0.0002043859766699027 -0.0006420952834509222 0.00017798225293145088 -3.594139735706174e-05 -0.9626927178844233 -0.12978907050537017
4.0004285714285714 -0.848493475712673 -0.24360923109402513 7.141166389094303e-05 -0.00047409920132382145 -0.00020152975499609729 -0.00015426144289372974 -0.9690460543089262 -0.12247781785015542
4.000857142857143 -0.8516721023611793 -0.23360715444424346 -0.0002024535341866297 -0.00020399493952541787 -8.266497835295427e-06 -0.0002919569175693093 -0.9654031418428918 -0.1163969925790559
4.001285714285714 -0.8457436850499362 -0.22638662381174204 5.2257173862621956e-05 -0.00032708292643915686 -2.147890288430989e-05 0.0001308326770883272 -0.9646286589209656 -0.11623578429298441
4.001714285714286 -0.8536447909017449 -0.21981791127779124 0.0001472638829642534 -0.00041125179599243864 -5.512438524417911e-05 8.92856649663161e-05 -0.9663842788800683 -0.12039627208307739
4.002142857142857 -0.8525003662519776 -0.21936337649660353 -0.0002927056534569049 -4.8052760184090365e-05 -0.0003312558340126801 -0.00030211880279605016 -0.9651246148446824 -0.11112847523016059
4.002571428571429 -0.8548813395386473 -0.20845023691780426 0.0004249042084339164 -0.0004610616725104948 -0.0002207610469103004 7.478565185211831e-05 -0.9696825418198404 -0.1060231928670762
4.003 -0.8601197991207143 -0.1975322482524284 -0.00012576757754038207 -0.0006036180168580667 -0.0002456723273191575 -0.00012722419129236118 -0.9683650109050016 -0.10416305138583462
4.003428571428572 -0.8614412225953423 -0.19507892283007405 6.315140387215891e-05 -0.00048022446807771457 0.00023225764242392036 0.0001111135356143178 -0.9629163565823744 -0.09854877625118418
4.003857142857143 -0.8566717274615195 -0.18694370594066864 -9.017937539567744e-05 -0.00028444229908699853 0.00010883608006651718 -5.665724010015438e-05 -0.969077850489777 -0.10987545389075627
4.0042857142857144 -0.8683027242370491 -0.1794633330144701 -0.0002459417661842979 -0.0004589132894181344 0.00012646081920007155 3.9878153246448436e-05 -0.9655396285838245 -0.09950678827471698
4.004714285714286 -0.8631304014606264 -0.17013599363355436 -3.65042050112478e-05 -0.00032872477918852806 0.00010374953799877986 6.483032781698231e-06 -0.9584401017896402 -0.10710258532303703
4.005142857142857 -0.8653264749709182 -0.1609485329236907 -9.138857436247354e-05 -0.0003954785026847398 -4.548784736832504e-05 -0.0001710026270334858 -0.9689116309730967 -0.09417972147783477
4.005571428571429 -0.8662398956128303 -0.15697356936604995 2.8886635257705185e-05 -0.0009290794677995008 0.0002697688482425998 0.0001859338245907833 -0.9598479958178294 -0.09409722591980675
4.006 -0.8692334052680885 -0.15210621727252113 -0.00010693988595044213 -0.0005127362738978809 0.0003629613274927793 -3.802176122087739e-05 -0.9701592529735148 -0.09361209883365836
4.006428571428572 -0.8690939851615117 -0.1481400028343349 -0.00014510383723140987 -0.0007375841761143367 -0.00011439052594481134 0.00020843764290549822 -0.9664811041331335 -0.09226431690116016
4.006857142857143 -0.8738541794103484 -0.13611006779402765 0.00012962667552025994 -0.0005045066207854297 1.9496643949342967e-05 -0.0001546604078306663 -0.9654495246788299 -0.08660371331622872
4.007285714285715 -0.8774189527079257 -0.12919588712261645 2.3317321184772792e-05 -0.0005444458529009438 2.7504881845049016e-05 -0.0003253321129280423 -0.969064143012862 -0.07891756444054
4.007714285714286 -0.8743078081316372 -0.12398847865983169 -0.0003159296815993726 -0.0006457515020950494 0.0001663910635479229 0.00016957927185145364 -0.9617641049384373 -0.081879072716835
4.0081428571428575 -0.8745968236508839 -0.11945168454290543 -0.00014824746913481412 -0.0005703292258496886 9.088484184117155e-05 -0.0003479991070201901 -0.9685206181621037 -0.08626637479745362
4.008571428571429 -0.8769325676382568 -0.10688449632196374 0.0001106860372589219 -0.0005433664100214742 0.00013622462809137926 -4.023540303505477e-05 -0.9632402311946539 -0.07649830234598289
4.009 -0.8783369269557589 -0.1014837965943409 -0.00011885182247434935 -0.0006598691048514861 0.00011039057196178935 -0.0001752688308417041 -0.9739201258276777 -0.08465801518108826
4.009428571428572 -0.8768390888198349 -0.09845909251726326 -6.49809317045565e-05 -0.00039966630846481984 -6.383976714563364e-05 0.00014609208415423486 -0.9763620973171995 -0.07592700066549098
4.009857142857143 -0.8793219002106211 -0.08629220777158914 0.00012929490704029927 -0.000422311086753077 7.802700367956325e-05 9.432606396761929e-05 -0.9684642340780808 -0.06904863375022906
4.010285714285715 -0.8802652548528573 -0.07860218372687915 -0.00017865177652864908 -0.00047066689966401344 -4.100595354890249e-05 -6.607128324622929e-05 -0.9650096257702158 -0.07341392277423282
4.010714285714286 -0.8799970333911177 -0.07430934326917653 -0.0004521204125762921 -1.3108322350504319e-05 -0.00032252042089047945 -0.0001242719390072398 -0.969201125361907 -0.07195572554797054
4.011142857142858 -0.8756501327789421 -0.07055577731533273 0.00038320320520990276 -0.00013973099033894526 7.894924223668373e-05 5.2948827809671114e-06 -0.9691473637165045 -0.06552162617142808
4.011571428571429 -0.8798139382791537 -0.056522299062134726 6.0314170073037974e-05 -0.0005642984738189494 -0.00020648208488998018 -0.00024039943405197752 -0.970861949606616 -0.06606326659879641
4.012 -0.8811234991368411 -0.05311611021801323 -0.0007960000265750724 -0.00017186977484925852 -6.239977673731934e-05 3.8364422227671724e-05 -0.9719771215130019 -0.061641243099442036
4.012428571428571 -0.8796272708743659 -0.04341733288612242 -6.332802523390795e-05 -0.0006693691414613004 -8.551113834757104e-06 0.00014587035413818935 -0.9638921587757362 -0.05543633237736805
4.0128571428571425 -0.8860454685965214 -0.03501233372543317 -0.0001383112249750281 -0.00030319394484260725 -0.00017994362550194344 -5.724825638572105e-05 -0.9650490254915455 -0.06067890607920367
4.013285714285714 -0.875418868697512 -0.030840268254109415 -0.0004211051441382079 -0.0006328153121658248 0.0001299792765251383 -0.00033146634084079405 -0.963267830215866 -0.058131179323943245
4.013714285714285 -0.8795214419043971 -0.02110297343641043 -9.66526987509548e-05 -0.000504447719781259 0.00020029539950679198 0.00022710994713895746 -0.9737913715824772 -0.05001505961182246
4.014142857142857 -0.8789570427319908 -0.013766608459841645 3.393624964773883e-05 -0.0006557664883551193 0.00021826729904052546 0.0002249841942897834 -0.969806978722538 -0.04478890746119772
4.014571428571428 -0.8797270592135501 -0.012216830731434432 -0.0002519359801261568 -0.0004914541215495877 0.00011459984226951953 -0.00012936687374046665 -0.9694060412879626 -0.051013357670725394
4.015 -0.8880926121902618 0.0014180125024781827 -0.0001903688299691653 -0.0005759932229466271 6.589326388757531e-05 -0.00039937257489579644 -0.9644272761249739 -0.051250497164249176
4.015428571428571 -0.8846517247880145 0.010997387403986963 -0.0003145135247612171 -0.0004887374441134491 5.771081661166284e-05 0.0003020607843154409 -0.9718733062868892 -0.04748146029600327
4.015857142857143 -0.8803899636538799 0.017994860315555666 -0.00041321368797384196 -0.00036409026908704433 2.5425550812892274e-05 -0.00023601046245653207 -0.971135283825813 -0.04696897326575916
4.016285714285714 -0.8836642934992496 0.024490322147631336 2.5360908108403014e-05 -0.0002701405204887856 6.288496352034163e-05 0.00038916976279483866 -0.9662816805509128 -0.0407311458003874
4.0167142857142855 -0.8815729429925063 0.02947588307636585 -0.0005970634882900296 -0.00046401189724682855 7.957043309692089e-05 2.268387690077635e-05 -0.9650016482025464 -0.04807416730798574
4.017142857142857 -0.8792580400732107 0.03910383746962905 -0.0005804231536200737 -0.0002966006927322854 7.670682863692869e-06 -7.375728769705878e-05 -0.9622205835945169 -0.03837942386758569
4.017571428571428 -0.8818780183945065 0.041520120442689094 -0.0004306631121893158 -0.00037488447296176136 -0.00021381046180257268 -0.000246755229546921 -0.9737032848935081 -0.04066551151202491
4.018 -0.8788620462440959 0.049285686043043474 -0.000400608283090112 -0.00011204499130045798 1.315037995051013e-05 -0.00025459185526366856 -0.9711666573766257 -0.039100887828322904
4.018428571428571 -0.8844602088949371 0.059817263754190025 -7.60200675920808e-05 6.46909344052231e-05 0.00018712967675778693 -0.00016604029491589954 -0.9727689044734438 -0.03558545302439219
4.018857142857143 -0.8752554290696289 0.06798113800710985 -0.0005931186205573778 -0.00023956101481406464 0.00021534305738789752 -0.00022370845781274857 -0.9602026436599053 -0.026765181262087667
4.019285714285714 -0.8752174714061415 0.07805647463874035 -7.658700863165206e-05 -0.0006383912798856141 0.0002819574343618012 5.8450879046160086e-05 -0.97272932624105 -0.026480289867620566
4.019714285714286 -0.8784455580063937 0.08609262228742735 -0.0006842249679007754 -0.0002773675245139269 8.579633573884205e-05 1.2998979840260554e-05 -0.9643500411794313 -0.02754299432772357
4.020142857142857 -0.8795927291334231 0.08747023216377556 -0.0005267723629748068 -0.00031118499592941917 0.00028234839293918805 0.0001245533584849568 -0.9685347263949168 -0.025001690697950125
4.0205714285714285 -0.8771072579777067 0.10363760771765315 -0.00015077901093698442 4.5852587512870684e-05 1.3269031567035977e-05 8.622734531315613e-05 -0.9685620849003468 -0.02624268792754452
4.021 -0.8745745433426212 0.10286625838849218 -0.0004334869281403738 -0.00013886703941168682 -2.856547980272479e-05 0.00019334348502377845 -0.9659892020185211 -0.016788857369561986
4.021428571428571 -0.872333936008374 0.11381669317206339 -0.0005147251152952944 -0.00022811916868063992 0.00022989209091213179 4.540407180724452e-05 -0.9696681065281088 -0.01705802375985073
4.021857142857143 -0.8763388465421147 0.11776496853368427 -0.00017435559065327093 -0.00025296746286517186 -0.00017311158711793005 -0.00014198538469767458 -0.9661661292673491 -0.014724062098781533
4.022285714285714 -0.8661348094894018 0.12230348885381467 -0.0004272584911070938 -0.0004253199849807326 8.658535951811776e-05 0.00010526588269525821 -0.9763015922252972 -0.008192825679049403
4.022714285714286 -0.8718180191830637 0.13731777225243463 -0.00018794017991519536 -0.0002726331565710745 -0.00020553286747496642 8.617255937318486e-05 -0.9635362965684988 -0.01091505320644067
4.023142857142857 -0.869544802179989 0.14117309756599825 -0.00012968630291346415 -0.00038890689793571846 9.288326795534437e-05 0.00043210123814525786 -0.9685533083273542 -0.006692180056235951
4.023571428571429 -0.8714460028598238 0.1440973997714519 -0.0004959335557807409 -0.0001518751184716121 -0.0001585251227073351 0.00037672295987789555 -0.9614076330106537 -0.004735460751005369
4.024 -0.8647572457325386 0.15533503957492312 -0.0005061516272569248 -3.66298332163818e-05 -1.7885855351785307e-05 1.385260575776912e-05 -0.9707057194404599 -0.006224778630356391
4.0244285714285715 -0.8661843190500711 0.16028338939262246 -0.00033778456280238227 -0.00010897451827688203 -8.37398187226837e-05 9.250175667036744e-05 -0.9707215332067086 -0.0008294548239135534
4.024857142857143 -0.8666422821832812 0.17112663345307338 -0.0004176078819666683 -0.0002358869689122289 4.499090653871642e-05 0.0002207330020972877 -0.965865601667262 -0.001702472708978669
4.025285714285714 -0.8669539218102966 0.18025973729287706 -0.00022717462335339783 -7.984607954948414e-05 0.0003197570110519366 0.00011694292473724211 -0.967545211316383 0.004136135393814524
4.025714285714286 -0.8629684386015698 0.18571665707587026 -0.00024707250759283184 -0.0004267314509997635 -3.203052978265287e-05 -0.00018003271171067157 -0.9747316214164518 0.011242891151877727
4.026142857142857 -0.8672653563428097 0.19059094067752605 -0.0008935164623672568 -0.00012226702205312768 2.4178532783310814e-05 7.940030982526383e-05 -0.9691105925724423 0.005024732686737686
4.026571428571429 -0.8548742089264146 0.200284767336336 -0.00037389925995077187 -9.843543173835319e-05 0.00018639556512025922 -0.00012216513877297324 -0.9750492479372767 0.007843729110298275
4.027 -0.856746108003146 0.20622615196626412 -0.0004136334463187427 -0.000505364540113971 2.0040592789678863e-05 0.00030782461765362594 -0.9704036413701591 0.006385923283542118
4.027428571428572 -0.8592127412912759 0.20836006299918786 -0.00032735100302601713 0.0004991765148357049 0.00012839203727596884 0.00015581874914565185 -0.9668619880715582 0.014474061755008054
4.027857142857143 -0.8557230614673986 0.21538226987876105 -0.0008255540122606997 -0.0002751992690913476 -1.1508443660843138e-05 -3.0081301927793257e-06 -0.974364368656567 0.012222027093623081
4.0282857142857145 -0.8537555219640597 0.23274166654765177 -0.0009445079094571636 5.232931314445719e-05 0.0001722097383118441 3.03170512208686e-07 -0.9723375975450949 0.021927230641532246
4.028714285714286 -0.8588020387352 0.2289827083283156 -0.0006336622812595722 -0.0001114271587151009 0.0002620986438606607 -0.00022472094654885024 -0.9687883001519614 0.014224265677709038
4.029142857142857 -0.8508398567670099 0.2423175196213525 -0.0002978829237980565 0.00016249666354654677 7.456811798211401e-05 0.00019068646579148603 -0.9695494726760705 0.023481316664287988
4.029571428571429 -0.8489877068005892 0.24593539021903596 -0.0007478652864298935 -0.00018746225278001095 0.00013178801403836715 0.00020666023682804717 -0.9631774293716897 0.021271358132612442
4.03 -0.8437828210951918 0.2514623567569328 -0.0007837204329022473 -0.00037858868086962025 0.00017698250696476453 -4.242982396640596e-05 -0.9725675981497007 0.03418493076284635
4.030428571428572 -0.8434745494266 0.2636047616665748 -0.00047632736159572143 -0.00020084014444657987 2.062704620308628e-05 -2.30243677199637e-05 -0.9676870966610506 0.03166440706891107
4.030857142857143 -0.8449438912225802 0.26685970599356845 -0.00036464741641417794 -0.00029341163382579354 -2.3381643998045113e-05 7.633997498885984e-06 -0.9706709362645882 0.02439206877657108
4.031285714285715 -0.8381624693289519 0.27452134423892677 -3.7287508661722894e-05 -0.0001372910862903865 0.0005093984967126945 -0.00044706843671771495 -0.9665298803916971 0.035816932378190336
4.031714285714286 -0.8344008334424026 0.27702536474300044 -0.0003521379357165098 0.0001149712392231299 4.9281118303136206e-05 -0.0003571592494188819 -0.9650113918787734 0.025433777738939935
4.0321428571428575 -0.8300720247838492 0.28717137110537816 -0.000808380802732819 -4.6330165751358445e-05 -7.11804772582465e-05 -0.000150395769245369 -0.9724612949934904 0.037375811946413956
4.032571428571429 -0.8318872387343059 0.29538912792712657 -0.0005957331748994157 3.6959506446832526e-05 0.0001732711022448338 0.00012884340641978274 -0.9649471044586952 0.04573165335780434
4.033 -0.831026420613979 0.30070535320340064 -0.0006254371785984031 -1.889135046630368e-05 0.0002981113939614879 8.870745750829403e-05 -0.9658852960400067 0.04395385077322761
4.033428571428572 -0.833948471631353 0.30964171330494655 -0.0007091654300919368 -1.9094024237117864e-05 0.0003125186372806367 0.00023641044816873392 -0.9627701152498804 0.03958799447871448
4.033857142857143 -0.827386602158155 0.3174182591754914 -0.00037717291887546975 0.0001601113966963268 3.731334988739063e-05 -5.1256262045063706e-05 -0.9619900349271234 0.04557848911786771
4.034285714285715 -0.8193307938718438 0.3205690883932764 -0.0005896116095233246 -7.088160909840366e-05 -4.930612106749031e-05 0.0002504791007990016 -0.9658931042250424 0.04284957964494888
4.034714285714286 -0.811612821123276 0.33385371570698236 -0.0005826846069960248 -0.00016673435979080151 4.802533055008056e-05 8.392569886694539e-05 -0.9658878608194167 0.05314689447459842
4.035142857142857 -0.8149302085803045 0.3372885472986904 -0.0007131395632788973 -0.00018625820732094344 -0.00010433040634531212 -6.228738256311554e-06 -0.9691154697034471 0.050909521295770484
4.035571428571428 -0.8091138250558679 0.3439436093324853 -0.0006002498592952803 -0.0001485651675546059 -0.0002303345988254523 2.817520762188976e-05 -0.9694139723018439 0.056729028779763935
4.036 -0.806252909462611 0.35408556634252175 -0.0006323792433714511 5.8349760634929106e-05 -5.5625890461857133e-05 -8.98046612734617e-06 -0.9688204791072885 0.057594599147512665
4.036428571428571 -0.8153440062475066 0.35222877624073445 -0.0009069280058618983 8.635088140818792e-05 0.00018601424235803327 -0.00023061918078200267 -0.9668723196184237 0.05173716094261006
4.0368571428571425 -0.8066476915393135 0.36445556992366746 -0.0004170317079696577 -0.00034919303149468655 -8.801348019870706e-05 0.0002833432803114583 -0.9697653564097506 0.052484695842377325
4.037285714285714 -0.798659709697024 0.37160196538787205 -0.0008947996160173479 0.00011601506369585174 0.00024962706993127766 -0.00016670702739761268 -0.962781987652443 0.057862545311523274
4.037714285714285 -0.7980833735940367 0.3729758673289294 -0.0007688250878607534 -0.00016729433589140943 -0.00023752921753365932 0.00010482423605380324 -0.9713257675417897 0.05798305182500022
4.038142857142857 -0.7928164666706136 0.39058805792812645 -0.0005885475786199674 7.690072625857197e-05 0.00010691132243626717 0.00017866984302044027 -0.9623756095104732 0.06032831106335811
4.038571428571428 -0.793289858984513 0.38998932732829433 -0.0009591595167134789 0.00034068180908526635 0.00016350749550780316 0.00022067945037060387 -0.9607387070259832 0.0656898612474301
4.039 -0.7886805994476112 0.3945121997796868 -0.0009346999753035428 -0.00028563770074402866 2.076415785146648e-05 0.00012772104740593074 -0.9608443595740264 0.066505956042436
4.039428571428571 -0.7815373071823359 0.4125309544001487 -0.00010803425129078907 3.4289956175612324e-05 0.00030258574718572986 8.61353002447443e-05 -0.9629575960735093 0.07041169019917891
4.039857142857143 -0.7840558875579554 0.4101650034348004 -0.0006432840456723317 1.719311698743285e-05 4.036725778011903e-05 8.283035847614712e-07 -0.9692935973995342 0.07000422348756682
4.040285714285714 -0.7810129723889391 0.4099591371106907 -0.0003117342174231812 -1.131125949307615e-05 -0.0002257597801855358 -0.0002789789638152787 -0.9614919992311167 0.07483140605818511
4.0407142857142855 -0.7808046328167809 0.4233970266162052 -0.0009563542731370209 0.00029092250680140373 4.431910824319642e-05 -5.4244477761750705e-05 -0.9597034772207753 0.07599390517749213
4.041142857142857 -0.7675037699290885 0.4269360426109706 -0.0009306552480773667 0.0006012230204482691 6.525065694067357e-05 6.79047306553748e-05 -0.9688864639025463 0.08532310626566478
4.041571428571428 -0.7676946703497652 0.43474678507835635 -0.0007637929684365074 0.0003939671466058431 -7.52949775842693e-05 -0.00018978399723445003 -0.9661782063855596 0.08457530798577459
4.042 -0.7619827776586849 0.4445369732976588 -0.0005849763091348106 -0.0003300319301376643 0.00030843700119936656 -5.2901264089529244e-05 -0.9619034705543767 0.08935971699987581
4.042428571428571 -0.7564735050206972 0.4481381208923523 -9.638792094292757e-05 5.2847732051683646e-05 -0.0002288550936197088 0.00041613269038421724 -0.9608172293201678 0.09324913072211594
4.042857142857143 -0.7566097766753034 0.443930473982645 -0.0004802503846331074 2.7711670877811047e-05 0.0002924686718558161 -7.694338207802719e-05 -0.9655776929808901 0.08855223775751282
4.043285714285714 -0.7516011485825161 0.4628784679689756 -0.00025762072939835515 -0.00016576785690510743 0.00018547172004688072 9.012979298409231e-05 -0.9641505217968758 0.0860536242093014
4.043714285714286 -0.7437483139217492 0.46382602905164055 -0.00042750191637807927 0.00014064932714118758 -4.182133943029462e-06 -7.188636224945174e-05 -0.9679125187662013 0.08438473174792424
4.044142857142857 -0.744546964205085 0.47294165615818523 -0.0003356611483765892 0.000251913764393935 -0.0003360711845680535 0.0002487627059005354 -0.9627900484370617 0.0981989548260596
