!Created with skrf (http://scikit-rf.org).
# Hz S RI R 50.0 
!freq ReS11 ImS11 ReS21 ImS21 ReS12 ImS12 ReS22 ImS22
4.0 -0.8365166789788281 -0.25573628272058657 -0.00018045116807213543 -0.00018850607053770256 -1.0152573261201308e-05 -1.1275763863595645e-05 -0.9622093669347678 -0.13172554521688168
4.0004285714285714 -0.8431434790147372 -0.24937901415166872 -0.00020057127202852425 -0.0006108976832560296 6.709262608688435e-05 8.666681820403427e-05 -0.970285567524932 -0.12328341756308613
4.000857142857143 -0.8488562167274156 -0.2397149410832535 0.0003817270371360366 -6.877169109419401e-05 -0.00010247274222398756 -0.00043818442703570225 -0.9672799606922736 -0.11759531228047514
4.001285714285714 -0.8417259820851193 -0.2342315280220623 -0.00031070131504806915 -0.000238957474065398 -2.08615666435441e-05 -1.5867917198847863e-05 -0.9641476267541556 -0.1175905289104363
4.001714285714286 -0.8481046453656699 -0.22812827415323103 3.871217076200491e-05 -9.301270441928616e-05 -2.2039830184799755e-08 1.8253163664603967e-05 -0.9675783201253123 -0.12246037636536544
4.002142857142857 -0.846606514778715 -0.22664742227326 -1.5141155054700122e-05 -0.00045781698018377236 9.116342028237323e-05 8.610314703145854e-05 -0.9643197719131756 -0.1122585063487162
4.002571428571429 -0.850045320230164 -0.2158811531263169 -6.431400498902958e-05 -0.00026772801722474264 8.683342864367306e-05 5.5883600623307864e-05 -0.969354457205255 -0.10524232340249058
4.003 -0.8551575091969674 -0.20644656714012655 -0.0001014948729604975 -0.00030198092806025964 -4.721397711779289e-05 0.0003301461264082445 -0.9686356404845344 -0.10321417030787845
4.003428571428572 -0.8579468086529036 -0.20253814591910949 0.00020485268324911876 -0.0002056701608687358 -9.718066018077901e-05 7.687648982706171e-05 -0.9626858408208293 -0.09933276665953489
4.003857142857143 -0.8523599240185623 -0.19304762201363238 -0.0004211995715899932 -0.0004308952086433798 0.00014812643795174854 0.00020238402991717985 -0.9713168203423238 -0.11061370044414529
4.0042857142857144 -0.8637767893049806 -0.18631681150298937 -0.0002567271203772188 -0.0004098632140939204 -1.6797359666901464e-05 -0.00012059340187275983 -0.9663275379670401 -0.09831067763181865
4.004714285714286 -0.858265087658399 -0.17649700307514818 -0.00016277570099889133 -0.0001851047707616282 0.00011235423093663998 -4.8184150029641676e-05 -0.958691574677965 -0.10938418006710918
4.005142857142857 -0.8608818965462554 -0.16930294780736585 -0.0003520694122255879 -0.000639799493270592 -0.0001085471709974834 -6.919228834615455e-05 -0.968051500885308 -0.09680134286456425
4.005571428571429 -0.8629812135513648 -0.1637556356435979 -8.756167230812277e-05 -0.0001849104352096572 7.436019759530664e-05 -8.28782544870908e-05 -0.9602527832556145 -0.09546186903114406
4.006 -0.8667292685429895 -0.15867002948879122 -0.0002242082742497768 -2.8068521963429353e-05 2.4821658402366473e-05 8.078242442440994e-05 -0.9721338523137045 -0.09246752298435963
4.006428571428572 -0.8657813068805231 -0.15360054014603242 -0.0003603436839374628 -0.000388452366444805 0.0002684088159385272 -0.00022375351331863712 -0.9684861017120036 -0.09316764250115551
4.006857142857143 -0.8701581624101717 -0.14228837778028672 0.00030291731544533445 -0.00013599572430720615 0.0002307572131224916 2.2191569639309953e-05 -0.9656181034176282 -0.08644301788832962
4.007285714285715 -0.8716028728828492 -0.13654419862745845 -3.779082438743555e-05 -0.0007110916438626865 3.577432747537676e-05 0.00022189524822637736 -0.9683525362163552 -0.0806800921054393
4.007714285714286 -0.8695125681337476 -0.13128230786465742 -0.0004203919714408359 -0.0006663296064870532 -0.00012567709613019173 -9.47596837960985e-05 -0.9622096416400064 -0.08539937148730252
4.0081428571428575 -0.8699459101760209 -0.12694456936426074 -0.00012709893399918016 -0.00023815606293104143 -1.589335698278578e-05 4.5003381980768226e-05 -0.9667498403551824 -0.0888077028132325
4.008571428571429 -0.8723697856002672 -0.11381005751169242 -0.0001551021820947412 4.4520257126968914e-05 0.0001787991421601665 0.0003710229418243404 -0.963521588114781 -0.07889501711643697
4.009 -0.8748283039829716 -0.10952784804930372 -0.00023296778405149842 -0.00034897393105141314 8.330453206077498e-05 0.00013373355876994706 -0.9742955908740857 -0.08481359434822956
4.009428571428572 -0.8718339975102489 -0.1048323005716105 -0.00022358935742925723 -0.0005595024606687147 -6.300759484482019e-05 0.0003654686599694814 -0.9762446477215722 -0.07609806593999337
4.009857142857143 -0.8757248888912836 -0.09370248792732339 -0.0001257395166383077 -6.564524942695892e-05 -3.8829458612860684e-05 -0.0002450485168265131 -0.9678345109979904 -0.07110431167724847
4.010285714285715 -0.8762919136230221 -0.08789903779589282 -0.00038959517121179194 -0.00019724884779202652 5.6462400280743267e-05 -3.406776808218952e-05 -0.96448324239255 -0.07391839759380205
4.010714285714286 -0.8771559958853168 -0.0816175880747598 -0.00018553407588468783 -0.00011480643817913715 -6.785984209115688e-05 -0.0004220787851346052 -0.9698217722386672 -0.07195372190130501
4.011142857142858 -0.8718098885362199 -0.07740780765688772 -0.00045604863049017105 -0.00040052743178964454 0.00021070592463190205 6.798632395985453e-05 -0.9702573154057121 -0.06574546913894913
4.011571428571429 -0.8728106506578526 -0.062146211621784325 -0.00014725456805515455 -4.390168958339651e-05 2.459774751510848e-05 0.00018573568251821927 -0.9707448179763679 -0.0659570505389899
4.012 -0.8790559651776313 -0.0603922518346118 -0.00032142707210163504 7.590337090235697e-05 -0.0001349818881663937 -7.593020612741136e-05 -0.9755103379730699 -0.06262649048616001
4.012428571428571 -0.8759126877619661 -0.05091226218883177 -0.00046402518935528906 -0.0002740548702414726 0.00032448260994366823 -4.1656979974279814e-05 -0.9618574794559993 -0.05713757434356874
4.0128571428571425 -0.8822698268791019 -0.04257300845698465 -0.0003969403344017999 -0.00027759164452970656 -4.302150557395297e-05 6.011140351190849e-05 -0.96500939856967 -0.06355472405111101
4.013285714285714 -0.873464339883804 -0.03782241821779933 -0.00026320055984947624 0.00016429129686521145 -5.8437492444032305e-05 -8.420901929218118e-05 -0.9639161328733085 -0.0580950766169255
4.013714285714285 -0.8761999770259223 -0.02885346410014086 -2.5450954317940205e-05 -0.00023624241798653002 0.00019589162740224687 7.840902901833639e-05 -0.9749378829083223 -0.05152713452231466
4.014142857142857 -0.8763766664009622 -0.021120772060651594 -0.000496155891203871 -0.00037698715658880487 5.990006597386253e-05 0.00024943346439957773 -0.9689016704993779 -0.048187821564498315
4.014571428571428 -0.8733665606384305 -0.019080355295130507 -8.781284985908616e-05 -0.00013275416942528035 -7.923672464588679e-05 0.00032954182384734807 -0.9713683928460859 -0.05436467860519022
4.015 -0.8839203721975379 -0.005884751217181815 -0.0002650629003319162 -0.00016813976129925179 0.00011763996226948855 -8.530443136448876e-05 -0.9643156310003621 -0.053677922093935994
4.015428571428571 -0.8799188607481573 0.005106185923993047 -9.03034379621999e-06 -0.0002304994312311244 0.00015542819782997776 -0.00012353557200431406 -0.9726383939083817 -0.05056580168015543
4.015857142857143 -0.8775146066910643 0.010614124132692606 -0.00020103825258811853 -0.00012106247513409702 0.0003103591302976922 7.068972428086937e-05 -0.9708767993371019 -0.04654344224554145
4.016285714285714 -0.8779635806705525 0.016000157781104023 -0.0007020723835562118 0.00010267508647767977 -2.539643393615109e-05 0.00018357770730803152 -0.9666543403354869 -0.041519465829513935
4.0167142857142855 -0.8804148699966781 0.02335832560864981 -0.0005492284401650221 -0.0001586509323652499 -4.7588186232570075e-05 5.999902072939668e-05 -0.9644140133581398 -0.05011237200695256
4.017142857142857 -0.874962938193137 0.030600463589144124 -0.00036351769017234825 -0.0003051858548913038 0.0002670885407814362 -4.1066523428635216e-05 -0.9629983185960431 -0.04057609825155632
4.017571428571428 -0.8800414658834361 0.03571294424896004 -0.00014044061132014837 -0.0002965204885478096 -8.229561161876717e-05 0.00010732830857364994 -0.9729016015770446 -0.04317317291780461
4.018 -0.8755595566181732 0.0423073741728465 -0.00036154859964955413 -8.208098124772569e-05 -3.150887387784842e-05 2.2556553674884304e-05 -0.9710199801474634 -0.04002962584763054
4.018428571428571 -0.8794872048224365 0.04875391014222823 -0.0006810625368067688 -0.0006021140294540615 0.00013263716710066578 -0.0002083009465640708 -0.9709597157637719 -0.03550350017724308
4.018857142857143 -0.8710291639207394 0.060602626770376894 0.00027768953748094567 -0.00032946118321580464 -6.761341451619693e-05 2.2084758928355978e-05 -0.9616528241452553 -0.027167530282850436
4.019285714285714 -0.8714451462886817 0.07120911224605729 -0.0006386439612624166 -0.0003295980598124286 -3.9066009694111665e-05 -0.00016252027237387281 -0.9717239912178048 -0.028730947979052377
4.019714285714286 -0.8765539766309369 0.0776053605604928 -0.0006199297132881616 3.5388668519365856e-05 7.756929682836147e-05 -8.371193223781537e-05 -0.9641031055385266 -0.029139886301131623
4.020142857142857 -0.8745076259643578 0.08136184048992952 -0.00020256294494177453 -0.00024957304310303785 -0.0005358506667394303 -0.00010955497109711909 -0.9686325609421386 -0.024991319613324375
4.0205714285714285 -0.875848050894868 0.09425693038705536 -0.0007205866756963579 -3.7214006896326175e-05 -0.0002071081379551917 5.513249754632651e-06 -0.9684277933876618 -0.027413847715518025
4.021 -0.8705795301971808 0.09559465720681154 -0.0004595158488398421 -0.0001362189767738439 0.0001254219582127256 0.00019643323372320172 -0.9661200790944974 -0.019316482726642784
4.021428571428571 -0.8705487098189557 0.10501561123663439 -0.0003046609448749668 0.00024866061129783846 -0.00014629752295627484 5.070889279597946e-05 -0.9693147648931272 -0.019473872531271568
4.021857142857143 -0.8721292237880831 0.11023762574039388 -0.0005164021339756525 -0.0007908310993865915 4.77693870433162e-05 0.00018985919851500233 -0.9687086760517667 -0.01506854573882354
4.022285714285714 -0.8639906581135656 0.11324284488413401 -0.00014017646455648635 3.281581182241513e-05 7.477761184772306e-05 -8.51979259274568e-05 -0.9773012685507092 -0.009635231342198833
4.022714285714286 -0.8701877727991518 0.12882415782012682 -0.00020646760633978003 -0.000145271077337886 0.00016921288074490652 -9.358040722853388e-05 -0.9661540711785218 -0.013504912395185746
4.023142857142857 -0.8659343688331387 0.13398603603971712 -0.00019377067299955678 1.1962108650718156e-05 8.951907325980242e-06 6.181687923391405e-05 -0.9696843118014155 -0.008876203033704868
4.023571428571429 -0.8667743487844127 0.1349452098392732 -0.00038660916683106014 0.0001521912347004485 0.0001454588595970252 -6.773149764030759e-05 -0.9642246483689841 -0.004306642950573082
4.024 -0.8618219842655872 0.14786826856010757 -0.00048266396892663173 -9.468807167056263e-05 -0.00012179811978473918 0.00017416295816447824 -0.9704511226487349 -0.009222845580702391
4.0244285714285715 -0.864813005194011 0.1510654529135287 -0.00027673010574162253 -0.0004829472444590148 0.00016526444959845507 -0.00031484301263593227 -0.9706910919789803 -0.0019838856270903023
4.024857142857143 -0.8648380377195426 0.16194336385854843 -0.0004787192341929676 -9.908965379174328e-06 -0.00023773830319394573 -0.0002827895360775725 -0.9686490748474609 -0.0007436599190466367
4.025285714285714 -0.8637539761933252 0.17164392801823586 -0.00040629040369192767 -0.0004603651582824826 -3.9968236655331956e-05 0.00012216463596390986 -0.9662447905889784 0.002366572085199167
4.025714285714286 -0.8614067633421084 0.17838771266774986 -0.00045568975944162103 0.00012997866041041008 -0.00021307825887700472 0.00011970829386406003 -0.9755672181203896 0.007586084025329867
4.026142857142857 -0.8653788747124793 0.18384157855208608 -0.0005895820287805974 0.00023648167997281943 6.74078019439949e-05 7.417123598004486e-05 -0.9688232263677881 0.0028630859443005436
4.026571428571429 -0.8496937018600065 0.19172696939414197 -0.0005463769954960011 7.69069174253671e-05 -0.00021853846388458363 -0.00025127511022419665 -0.9721808439390608 0.006788506548322762
4.027 -0.8526001631313004 0.197010504793319 -0.0001656952079795415 0.00031039884424864005 -9.565388626661133e-05 -0.00032454198164087126 -0.9687081040622074 0.005844065456107346
4.027428571428572 -0.8582409913300176 0.19984427979134245 -0.000581597057767377 -0.0002482845002991115 0.0001403099035567069 0.00026479458748820343 -0.9661330090316376 0.01515010899633058
4.027857142857143 -0.8532559287992733 0.20771225680774352 -0.0006088809463306094 -1.8688286505888778e-05 -0.00012688731703363503 -0.00019823936856298927 -0.9739180742956771 0.009480694744466637
4.0282857142857145 -0.8506378622935722 0.22495177133804245 -0.0003838848670679069 6.505977954457622e-05 -0.00022573405450454414 0.000109259024450583 -0.9715108654878968 0.0199276356631509
4.028714285714286 -0.8551061230824807 0.22001895529815374 -0.00047562916251350074 -0.0004287886287551999 -0.00017151334480752922 0.00010953973400635988 -0.9698477456840325 0.01179598718932627
4.029142857142857 -0.8492302301430479 0.23611660836563525 -0.0003372122366407203 0.00013084052931202868 0.00016070069069626852 1.201461247479343e-05 -0.9691311883684081 0.023736778632610058
4.029571428571429 -0.8477455054288394 0.23685397135333652 -0.0007386844509904131 -0.0006256259368364281 0.0001885622120875776 -6.933651060251214e-05 -0.9630948083900416 0.020869662059173576
4.03 -0.8415298697340409 0.24387199023519632 -0.00034292185514487195 -8.5422782231775e-06 0.0003144029266557408 -0.00010255206532081243 -0.9728497876598252 0.03314281175644036
4.030428571428572 -0.8418419447349762 0.2553049094876232 -0.0008550481725228916 0.0002918711239744425 -0.00019440669704913678 -5.990434325300175e-06 -0.9695236905850274 0.02753049941822121
4.030857142857143 -0.8448820385890593 0.2594975173414381 7.333111622575308e-05 -0.0002838656047344916 -9.492829459843273e-06 -8.796637274232208e-05 -0.9710721099959094 0.02179414440349464
4.031285714285715 -0.8357624561086093 0.2666802976417554 -0.00022523276366190884 0.0002708614137394526 7.195052311136785e-05 0.00022099511935508046 -0.9690622543837644 0.03397195365621441
4.031714285714286 -0.8326473865550873 0.26926471093914817 -0.00014838021351899883 2.759581678527209e-05 -0.00020638361506711996 5.358530911778433e-05 -0.9648280165672917 0.024372183923387993
4.0321428571428575 -0.8300793309965045 0.2788210979326145 -6.681207151483145e-05 8.013142373594078e-05 -3.5656219018281564e-05 0.00011644367301561125 -0.9731562409191855 0.03459912321118539
4.032571428571429 -0.8309150409510858 0.2860108491724355 -0.0004428904437423074 0.00022411559107800118 4.550703985539185e-05 5.9711695862223114e-05 -0.9665207629226368 0.04221896053151504
4.033 -0.8295982908195354 0.29339461984793597 -0.0002582273670966564 0.0002338171815867726 -6.0305253563207235e-05 -8.164587939336039e-05 -0.9670271185571101 0.04287285401913066
4.033428571428572 -0.8342331362786516 0.302509089913194 -0.0009112318551430434 0.0004934322615020737 0.0001366076606955202 0.00017270091673587994 -0.9639153853123947 0.03986702683364195
4.033857142857143 -0.8265022179527837 0.31017643546200224 -0.0005709544625579796 -0.00019843422295470333 -0.00010471755829006576 -1.4903065466515553e-05 -0.96138720925162 0.04337593816022767
4.034285714285715 -0.8192232918368975 0.31253779640808604 -0.00013106710827086144 0.00033428392372718307 0.00028534351127470136 -0.0002556676319073319 -0.9663220562601257 0.041663847069510866
4.034714285714286 -0.8117268334308907 0.3255140990505355 -0.0005110701912354709 -2.1377185987982275e-06 0.0001118959795619778 -0.0002456758023239352 -0.9677297267322866 0.05197377133570243
4.035142857142857 -0.813631373505993 0.3285907459671447 -0.0005250264406013571 0.00022908907818063214 -8.021700611080588e-05 0.00012766850421118143 -0.9691454737920026 0.0508842760292003
4.035571428571428 -0.8062722555545772 0.3357878587320864 -0.0003299752155228204 0.0004498798585481842 0.00012924818848843083 0.00010101581134746332 -0.9674502452600865 0.05605842474559313
4.036 -0.8055032267956126 0.3465614506037903 -0.0005307826505972841 0.00029596077822851305 -9.091251969572713e-05 -0.00017626203576551623 -0.9689327939006526 0.056259925676152345
4.036428571428571 -0.8135431367528563 0.3431164866538465 -0.0005239660804957647 0.0001865834218163948 -0.00039818720314167144 -0.0002753770560661654 -0.9682403253079371 0.05072202862391973
4.0368571428571425 -0.8060060782460242 0.3561038402039363 -0.00022484113151671235 0.00034909182346763755 -0.00012109641238894125 0.00017892368354142672 -0.9708790554379465 0.05164107950497334
4.037285714285714 -0.7986322758041537 0.36291066170884073 -0.0004691196454642745 0.00020996486980350454 5.744462565984227e-06 1.7451740141268643e-05 -0.9632463033113665 0.05924645962788648
4.037714285714285 -0.7960670659561134 0.3617961175502636 -0.0005064824422538126 0.0006456908385292124 3.4024488891263036e-05 4.756326331223023e-05 -0.9699887506143058 0.05536308481993833
4.038142857142857 -0.7930646599612806 0.3829279565528352 -0.00021999755876541332 0.0005147694561674827 -5.367461004974803e-05 4.8462063279331046e-05 -0.9637063483039916 0.062008021472201094
4.038571428571428 -0.793389722818262 0.3821085307421394 -0.0003605548344645379 0.0004217237716657032 -0.00022994292646717567 1.0765361848595742e-05 -0.9598171403133903 0.06571767945021934
4.039 -0.7880663535929058 0.3846306449674361 -0.0007050011443738908 0.00020653883201195722 0.0001318566967338646 1.4067085788446768e-05 -0.9599201441213779 0.06438759314235591
4.039428571428571 -0.7810447828838233 0.40269020356405216 -0.0003911426839877011 0.00045224147234318706 -2.1358818438226304e-05 -0.0002213737684493557 -0.9647745346855952 0.06897113135723673
4.039857142857143 -0.7841781447809069 0.40064150736632886 -0.00028732771374304897 0.0004641916724763883 -3.2083197533947394e-05 0.0002948302736759536 -0.9690894833118311 0.06974764042665196
4.040285714285714 -0.7801678746248366 0.40020831687708597 -0.00029534988176095536 0.0003380985663331234 -2.6599262814834417e-05 0.0001113743474760096 -0.9634951822254808 0.07500156741274035
4.0407142857142855 -0.7794657025126219 0.415025195949864 -0.0003584768148549917 0.0003089388507369755 -9.410192300782958e-05 6.278685440417445e-05 -0.9597743303698076 0.07617067682026975
4.041142857142857 -0.7676878766462724 0.420287276972858 0.00023514300461418696 -0.0002238069010755884 -0.00024585110543268445 -0.00027914561891031873 -0.969281791153679 0.08433172318156325
4.041571428571428 -0.7659384909684182 0.4267759541822687 0.0001883012150518794 -0.0001670706709178892 1.8459105888279584e-05 -8.170480346948802e-05 -0.96559416702446 0.08435296038711652
4.042 -0.763521998420253 0.4352565533943764 -0.00035033839390957006 -0.00011172263162045074 8.558747004649156e-05 7.936469267225272e-06 -0.9625458881921352 0.08766010535536571
4.042428571428571 -0.7568529468298968 0.440199544100248 -0.0006047775066766162 0.0002547561749296731 0.00012197570555110315 0.00024450388517803295 -0.9591711648947256 0.09328626247363575
4.042857142857143 -0.7572082917344156 0.436109943209037 0.0002097217653531286 0.0002805450844171073 0.00014535607915210959 -1.2553613954645263e-07 -0.9668702450331885 0.08657334206638978
4.043285714285714 -0.7518071265869464 0.4523079865438564 -0.00039718758900251534 4.9284208701648714e-05 7.27170442472417e-05 0.00013889193348418555 -0.9644227799550075 0.08416486891020336
4.043714285714286 -0.7451665292199753 0.45552225783672 -0.0006325621572934053 0.0002289071126254428 5.6164739801830805e-05 -0.00018451037350572308 -0.9674859235675207 0.08162791418776534
4.044142857142857 -0.7445042751589541 0.4629137932031306 -0.00016127276522157045 8.31052792185011e-05 7.800037941034613e-05 -1.1972311369648686e-05 -0.9609183506937942 0.09653324621671572
