!Created with skrf (http://scikit-rf.org).
# Hz S RI R 50.0 
!freq ReS11 ImS11 ReS21 ImS21 ReS12 ImS12 ReS22 ImS22
4.0 -0.8417536206567833 -0.24931422436173706 0.00010075935624106997 -0.0003469016651628821 -1.3508302452967187e-05 -6.633899136573667e-05 -0.9634803983592173 -0.13007876035644203
4.0004285714285714 -0.8491581127261207 -0.24229955013538498 0.0005713134997391921 -0.00018748921679362796 1.7600256600473103e-05 -6.844022985531018e-05 -0.9711402794253962 -0.12394394672260357
4.000857142857143 -0.8533129967685456 -0.23207370954597856 0.0002302521250928886 -0.00022153678176058947 -0.000139725632510053 -3.976996706936105e-05 -0.9662316015398552 -0.11535470102701191
4.001285714285714 -0.8478970290979736 -0.2266625551336096 0.00018752720457737153 -0.0006135070313423778 -5.289470745327282e-05 0.0002671924518467873 -0.9650130022598131 -0.1147883040574944
4.001714285714286 -0.8545321013779726 -0.2186422459320429 -0.00028926079356622874 -0.0004707071289905661 -9.416349354596446e-05 0.00035810916833387777 -0.9665848172654193 -0.12053753801597593
4.002142857142857 -0.8526496697082836 -0.22067756305081218 7.845849759259029e-05 -0.0004487205435038507 -9.875963298499604e-05 -5.902404132176676e-05 -0.9661527057127586 -0.11118357363290753
4.002571428571429 -0.8549828014327421 -0.20860996676727644 -3.26900541954545e-05 -0.0005087382352350945 -0.00013603838012372612 7.670188331507333e-05 -0.9701767649739811 -0.10572811079488127
4.003 -0.8599602729006162 -0.1978095556970862 0.00022786646529371267 -0.00031317135872099345 -5.2754601379787755e-05 0.0004083193102932472 -0.9690613931402166 -0.10286729704217484
4.003428571428572 -0.8629378738392088 -0.1951068155317276 0.0002528291315201616 -0.0003466441513365522 0.00011402808744568157 0.00041683551391548016 -0.9637746838371614 -0.09835513611592556
4.003857142857143 -0.858169288248555 -0.18543724241723422 -0.00015284179473193545 -0.0003162861507130085 0.00022735502470245454 -2.4486938754202322e-05 -0.9704147696211092 -0.10878141708368615
4.0042857142857144 -0.8694391945000404 -0.18088741311363565 -6.631116579195271e-05 -1.0401595842814633e-06 -1.0255263758916957e-05 0.00022372508316839584 -0.9654548787498115 -0.09821783764079305
4.004714285714286 -0.864585117329119 -0.17101089148434828 -0.00012965399680996573 -0.000430309298088576 -1.712899567402501e-05 5.095942252050216e-06 -0.9591471728263243 -0.10677888109153884
4.005142857142857 -0.8666344982163806 -0.1619718300982038 -0.00010213124959292666 5.548053258251586e-05 -0.00027702356195525045 -2.6421636649920574e-05 -0.9671439407399918 -0.09500664304865122
4.005571428571429 -0.8680800131548444 -0.1548485001301368 0.00018157482195403022 -0.0005798611324418456 -0.00013722060675035123 1.2498210263068287e-05 -0.9585746087576179 -0.09451895292181584
4.006 -0.870714572589159 -0.15132328612506316 -0.0002210646408877275 -0.000544971115085428 8.415113051182463e-05 9.827871325583788e-05 -0.9712959977735098 -0.09416250039984633
4.006428571428572 -0.8707156666984546 -0.14733350861812589 -0.0003242253687786842 -0.00038758802832148986 -0.00012655212351795285 -0.00017686610954342823 -0.9674339958742062 -0.09193144187506999
4.006857142857143 -0.8751406750057629 -0.13406315359688759 -9.188142246092084e-05 -0.0005029120068741701 0.00016215823487456267 0.0001913147657633909 -0.9661029623480473 -0.08646102166432607
4.007285714285715 -0.8757159499838884 -0.12810589740061873 8.841087805445942e-05 -0.00034530094504541886 -0.00016948570830517442 -0.00010611701681495968 -0.9680415598132792 -0.08175198268783672
4.007714285714286 -0.8758587903757562 -0.12471941694007237 0.00017208414146785772 -0.0006576296563076991 -9.923446766249644e-06 0.0002689545785151046 -0.9617155643691421 -0.08283966707457616
4.0081428571428575 -0.8763729410411344 -0.1206262755097407 0.00016060084023625796 -0.00033141775864855124 -1.3244670740519884e-05 -4.734889233826499e-05 -0.9673132006192983 -0.08638145686176187
4.008571428571429 -0.8776070565776207 -0.10511389950868169 -0.0006056204169474343 -0.0007847028149269542 2.9022660523546443e-05 -0.0004642792404308789 -0.963285754193071 -0.07691831445633415
4.009 -0.8791946749318552 -0.10135588354471813 -0.00012683471373112443 -0.0007770926576331543 4.943424751427995e-05 -0.0001712753321362191 -0.9741777786713425 -0.08210586732930834
4.009428571428572 -0.8766354112909787 -0.09882743498063994 -0.000232950565935657 -0.0005100817909744695 -7.953457903056746e-05 0.00019961429322316843 -0.9769363391814769 -0.07613422383509394
4.009857142857143 -0.8795937113754173 -0.08667766658381129 -0.0002589303043033953 -0.000632628184450651 -7.475035345400394e-06 0.000266140833646128 -0.967061569442458 -0.06906258220901945
4.010285714285715 -0.882620161920025 -0.07871595730365619 -5.70648979475417e-05 -0.0002832676887186939 -6.254176153459023e-05 0.00014508078895295265 -0.9663894301290652 -0.07280956520477666
4.010714285714286 -0.8827012893330807 -0.07338465506550862 -0.00035410187726007 -0.00022746876451623522 5.363666018890129e-05 7.33296616406362e-05 -0.9695126528381874 -0.07099042965419479
4.011142857142858 -0.8766343514279311 -0.06953654631392157 -0.00016366395019620816 -0.000363176583091527 0.00012467330984877913 -0.00021817105894612765 -0.9699402986778298 -0.06609943109584698
4.011571428571429 -0.8781965932262784 -0.05396852429352214 -0.00015702789826234101 -0.0009266343317027009 -4.718147378156378e-05 -9.997513706597656e-05 -0.9724670279706012 -0.0660463377141619
4.012 -0.8811624976206616 -0.05323033530516799 -0.00022303509021970904 -0.00038056480311622956 -0.00011482257738376561 4.107901076492312e-05 -0.9757916160305081 -0.06162311664190412
4.012428571428571 -0.8805215705419275 -0.0442648001656663 -7.723400568229036e-05 4.861550851680176e-06 -2.0901495448562887e-06 -0.00010127758829886001 -0.9625045901577087 -0.05431794879145047
4.0128571428571425 -0.8865990491757086 -0.032840174806844175 -2.28688593207217e-05 -0.0004237495671458007 0.00021219480732292807 -0.000202650525863588 -0.965477951511733 -0.06320167571052232
4.013285714285714 -0.8775981112482749 -0.029517746112463217 -0.0005710742735224433 -0.00028754481945845886 2.0417047092869322e-05 -4.367099381215118e-06 -0.9617692602005341 -0.056508427815965684
4.013714285714285 -0.8805925170175057 -0.020824120625547934 -2.5267171618815466e-05 -0.0006644101500864572 -1.3067862825081606e-06 7.916001305304116e-05 -0.9757796942774014 -0.05170574672410977
4.014142857142857 -0.8822697967854473 -0.012915305645075424 -0.00033216660214355854 -0.0001732024033758569 9.792013065201445e-05 -7.281387664013037e-05 -0.9696845777180841 -0.04464232187475569
4.014571428571428 -0.8778547444227321 -0.01120978175944937 0.0003073569441716741 -0.00039446298651712867 0.00012812752013085946 -8.443447829277363e-05 -0.968002843806882 -0.05134462106933648
4.015 -0.8896237844143693 0.0027975860860349837 0.00019103862621766793 -0.0004153362547164897 0.00032800135999853887 0.00012355015695251454 -0.9638436976879826 -0.05105887247171234
4.015428571428571 -0.8841373128000232 0.012550501184390061 -0.0002452798140580003 -0.0005594693502453523 -0.00010188443677508384 -0.00014648315205686698 -0.97251928652322 -0.04936095847205217
4.015857142857143 -0.8815413227578901 0.01728872491254726 -8.403743866870245e-06 1.3294351301073582e-05 3.8112180853230883e-06 -3.7371629330548474e-05 -0.9700068121442279 -0.04412180895998709
4.016285714285714 -0.882557925242825 0.023684859100738993 -0.00014479252296769552 -0.00015864657498923572 -3.065024392938972e-05 7.058430859950809e-05 -0.9660064134629525 -0.04221515208388898
4.0167142857142855 -0.8822418510623002 0.030802743205704097 -0.00027971904389183667 -0.0007621535252536622 -0.0002860910068278926 0.00011806167613660953 -0.9645182388942789 -0.04782129942226972
4.017142857142857 -0.878448318780667 0.03927433346150377 -0.0003891636202924995 9.917242028383264e-05 -0.00023414286118333673 -0.00029100740903039796 -0.9626607994005779 -0.04030933295339583
4.017571428571428 -0.8847213521379446 0.044430690591862235 -0.0005522793060125456 -7.327330175119952e-05 -6.336062835717562e-05 -0.00020927894392774543 -0.9730515987436578 -0.040525125069116305
4.018 -0.8783601320708223 0.04937571307100879 -0.00025279726849269094 -0.0006616901417466045 0.00010397008290067979 0.0003520156538494008 -0.9684616426927659 -0.03997341750533035
4.018428571428571 -0.8820298188676021 0.06010696281791289 -0.0006625992435691582 -5.503516432076782e-05 -1.2088918061578087e-05 -0.00030641327205613517 -0.9706108857038568 -0.03367899915603594
4.018857142857143 -0.8759698957776999 0.06841625315221218 -0.0003568357525566476 -0.0003967437363796166 -0.0003088615577340083 0.0002602747727738588 -0.9626148171230607 -0.02566890292328699
4.019285714285714 -0.8737306724319681 0.07843081347298665 -2.0706301678647305e-05 -0.000489789438395852 3.428865293431856e-05 4.8066954751387356e-05 -0.9701523472833742 -0.027251798149699944
4.019714285714286 -0.8806517852474177 0.0841179439297132 -9.579577019907822e-05 -0.0004260430428274971 0.00044078460164069695 9.164004606761496e-06 -0.9646732801118232 -0.02727258617410474
4.020142857142857 -0.8784442966550366 0.08874764681591947 -0.0005952578058900093 -0.0007448751901127221 -6.692046111078504e-06 0.0001400930021931189 -0.9684245103091998 -0.023538205376378584
4.0205714285714285 -0.8789164089194917 0.10417013148507134 5.4499691168663475e-05 -0.0004616131560662133 -0.00020823372878767284 0.0001264094384244673 -0.9661151802798148 -0.02740105897124514
4.021 -0.8750185384299062 0.10129660536800851 -0.0001805855628505234 -9.387964164935995e-05 0.00012177005851949443 -0.00022475998303329262 -0.9671533844219147 -0.019302417554007315
4.021428571428571 -0.8731204576354262 0.1174115823446181 -0.00018458015102761042 -0.00016340206261683413 0.00011201554331756843 -0.00010375075288287379 -0.9694980106174428 -0.019724410092847956
4.021857142857143 -0.876409766959704 0.11822062950774381 5.281725843851333e-05 0.00012690308856037392 -2.3015205290116624e-05 -0.0001380056585492591 -0.9673461265300887 -0.013029280704211913
4.022285714285714 -0.8674816317859091 0.12293666362010944 -0.00013802723583396313 -0.0002148433728647291 -3.115040235484728e-07 -6.073162638291363e-05 -0.9760085812658895 -0.007387094090050142
4.022714285714286 -0.8734149082762264 0.1389067604352108 -0.00030307014736061417 -0.00022949126765415921 -0.00017977282312717403 0.00013950190605427107 -0.964863145520344 -0.012782812561232888
4.023142857142857 -0.8680284744378376 0.14407600467046053 -0.00030981884082037557 -0.0004826483167997986 -0.00026711721546656385 4.102943907031244e-05 -0.9662709638257216 -0.006828150940840303
4.023571428571429 -0.8697926496183676 0.14545332454390336 -0.00038046177038068184 -0.00013157556078155914 0.00020774008792345596 0.00019394794389467315 -0.965297692248741 -0.004095716105548971
4.024 -0.8640398393047403 0.15685316113817657 -0.0007731502416096072 3.7485060563754815e-05 -6.527617873924304e-05 -9.291418796628201e-05 -0.9696282749919437 -0.0060003896753111725
4.0244285714285715 -0.8670096752568583 0.16032756642774695 -0.0005444789931329427 0.00011151100794202896 3.5602948030946446e-05 -7.203597376712582e-05 -0.9716468547871466 -0.003910271937578744
4.024857142857143 -0.8688478185527777 0.1723543165421891 -0.00010933394554846918 -0.0002672216449167 -0.00010675825435187399 6.097512665082286e-05 -0.9667917320110047 0.0003162808461382067
4.025285714285714 -0.867166337816487 0.181476286005678 -0.00038400504298572683 0.00015450812731202535 0.00022001464055368617 -9.20064408930299e-05 -0.9675818468777121 0.004386719676629659
4.025714285714286 -0.8648503197893237 0.1870877226784568 -0.000520728005988638 -0.0001618770721163588 -0.000305207480311264 -0.00026560021735075085 -0.9763260602190428 0.008111033900530387
4.026142857142857 -0.8692152475602855 0.1927142194657175 -0.0005264957843179871 -0.0003403459040641532 0.0003627438132582742 -0.0001958887495396486 -0.9723507064226379 0.003980743168926159
4.026571428571429 -0.8545520931594988 0.20055487211120593 -0.0007286048908650869 6.53831663429634e-05 -0.00016921123993835448 -0.00021825303559370074 -0.9751255721402968 0.008689881106878463
4.027 -0.8571390381055052 0.20622273608507985 -0.0009178706359786218 0.00010919831628108907 -0.00019056118335845112 0.00016771193612612347 -0.9692732908251995 0.005073291781326575
4.027428571428572 -0.8596748761085872 0.2098233958823211 0.00017233750622785456 -0.00016054569671582918 6.3309543642942415e-06 0.0002440170273034843 -0.9655236599988736 0.01637899683461159
4.027857142857143 -0.8549640088317108 0.21640794453031817 -0.0005058378679165623 7.316127010686786e-05 0.00022922472150372836 5.076254577922682e-05 -0.9767074118944591 0.011713182482116549
4.0282857142857145 -0.8532781853679362 0.23236590352825673 -0.00041982284053069055 0.00013711279525517513 -0.0001429366328454038 -0.000188952548547288 -0.9709237531186615 0.02306565367886785
4.028714285714286 -0.8585680488111576 0.23143852322165057 -0.00018475494924069454 -0.00043706962800582687 -0.00012111704101659343 -0.00021729461577872243 -0.9708368218815676 0.015623233025535069
4.029142857142857 -0.8511328508106014 0.2440175625565419 -0.0002470366980461363 -0.0001654830147269042 -0.0001516098408267907 -9.381378649204142e-05 -0.9679632113952554 0.024385209153213034
4.029571428571429 -0.8502138561706081 0.24658715782869928 -0.0005740955799741768 -0.00014450683166750456 0.00020240073643006562 -1.7387928339282642e-05 -0.9626169628730706 0.022432483763608145
4.03 -0.845478163595657 0.25312436882032896 -0.0004258353207654976 -3.02830590678118e-05 0.00022183523756468787 3.755644923225973e-05 -0.9710696080877693 0.031452278047012755
4.030428571428572 -0.843459513453803 0.2643097738360145 -0.0003679632014702829 -0.0002815289445721181 4.404779828222512e-06 -4.110356008010058e-08 -0.9682328045406223 0.02964084139931405
4.030857142857143 -0.8461268175036456 0.2662520476230173 -0.000639550392124426 -1.1304029787009533e-05 7.892485462439186e-05 0.00012985786129270126 -0.9713829962870368 0.023289723874261044
4.031285714285715 -0.8364883739180436 0.27591240180443666 -0.0005537755137072396 -4.5042229273704494e-05 0.00019790255909819885 -9.037164037946277e-05 -0.9680086682159293 0.03456523873145517
4.031714285714286 -0.8351668691619621 0.27811848280282503 -0.00034159950973292546 -0.0002257033564643966 -0.0003294069189970074 8.992336628324434e-05 -0.9643005763460055 0.026292017715636083
4.0321428571428575 -0.832154183434992 0.288639813116135 -0.0004807065341904885 4.414431212246446e-05 -0.00012668212795242232 -8.985532155157122e-06 -0.9732807615017315 0.03634879742437451
4.032571428571429 -0.8317926417012493 0.2959213523980295 -0.0007443666324676025 -0.00015343888605150557 -0.00024116905090499792 -0.00015098559158977027 -0.9652428753009844 0.04448874664423062
4.033 -0.8318343530610921 0.3019276075626022 -0.00029353656214588806 -0.00022985297359998 -0.00025742456435783875 -0.00032545736503575637 -0.9664811162001551 0.04464018009939031
4.033428571428572 -0.8352247158630873 0.31148794776004035 -0.0007830776008683235 -0.00028806268632847773 1.5857453020823258e-05 -0.00012427102244503928 -0.9628305349331708 0.03913840496809355
4.033857142857143 -0.8277650382497026 0.3179870752248699 -0.00045827476299218977 -0.00013783762289339079 -0.00014699947150012183 -0.00013665341335385156 -0.9634746754414276 0.04545920545483594
4.034285714285715 -0.8193167855974535 0.32105221647540655 -3.657646590226659e-05 -6.535557239255695e-06 -8.803413952135626e-05 -0.00033861611254582365 -0.965838756391815 0.04296072034372865
4.034714285714286 -0.8132415070874717 0.33372022216818725 -0.0004989257123601622 -0.00010329873136512349 0.00016002284900552545 0.00010125849053741506 -0.9664101736037701 0.052551185342271815
4.035142857142857 -0.8154599120338076 0.3358805975218324 -0.0002631981855416131 0.00023617566422471053 -6.630166462679068e-05 -5.140042956012266e-05 -0.9675273899375992 0.05247787578591484
4.035571428571428 -0.8085870229652067 0.3450899089440249 -0.00042077355203171373 0.00017676790591836301 -8.45029839040907e-05 1.6788715210460895e-06 -0.96723817009108 0.059083276152739984
4.036 -0.8052196612076139 0.35434576993614586 -0.0004823911207412414 0.00026618673530553837 0.00010476651842711723 -0.00026931569140451996 -0.9691421312693874 0.05765862774394132
4.036428571428571 -0.8137603120679793 0.3525263836669477 -0.0004856901524277757 -0.00013905108153673885 -1.0922884251505845e-05 7.00285362992982e-05 -0.9690988549942208 0.05239924340721418
4.0368571428571425 -0.8069623862756727 0.3655627252114339 -0.00024161547805158826 -0.0001638507587224413 -3.0508431880260433e-05 0.00031279445224032454 -0.9691168022110691 0.053384560352022804
4.037285714285714 -0.7983397704642696 0.3731988554735547 -0.0005785232915699201 0.00042706406038381633 -1.2234875579852784e-05 2.709230304849349e-05 -0.9624793398455566 0.05992673524529961
4.037714285714285 -0.7971124117692856 0.37185256250598286 -0.0004721980879341532 4.6208507617212264e-05 8.893159462393045e-05 0.0002730540398069484 -0.9691125348600332 0.056820144174966496
4.038142857142857 -0.7927134820291554 0.39320789389467914 -0.0002372549573802794 -8.781729852086635e-05 2.8091039814220798e-05 4.625377277964148e-05 -0.9638323693758584 0.060920375499953223
4.038571428571428 -0.792181380603044 0.38998324746822416 -0.00011402874626492431 -0.00043586722370691616 -8.262977926752534e-05 0.00011836356045688886 -0.9610948283357106 0.06677432041195648
4.039 -0.7874152362883062 0.39496137119890157 -0.0001069343721993859 7.992318490214986e-08 -0.0002139148664580672 -0.00011727911870422118 -0.9586231059467323 0.06563733578940575
4.039428571428571 -0.7820317726809322 0.41054790615703385 -0.0003728382971302702 1.3487868037161975e-06 -0.00011365944659654045 -0.00016527393479767768 -0.9644416761483138 0.06955187176237583
4.039857142857143 -0.785405204781769 0.4092729634707884 -0.00039980151785132397 4.398079075781287e-05 6.626869833998843e-05 -8.108856392691471e-05 -0.9714832877519123 0.0694380579943737
4.040285714285714 -0.7796335669249814 0.4098223162596473 -0.0005649097523846389 7.260065589754301e-05 9.806626587439456e-05 -1.49533794257485e-05 -0.9630528758495347 0.07552362960233923
4.0407142857142855 -0.7821042582234634 0.42520880613158796 -0.00035194681772982136 0.0002694443148586747 0.00011363090049125483 0.000560042022912928 -0.9588959917944692 0.0776739052314393
4.041142857142857 -0.7677568727150362 0.4285766778496831 -0.00025131326822357575 0.00031145965655569874 0.00020192398153451 0.00016998804186724208 -0.9690394970297109 0.08566269729149197
4.041571428571428 -0.7651844668108926 0.43500519031806933 -0.0006174663750335861 -0.00016999742826081027 -7.863171678828724e-05 -0.00019714634405871418 -0.9643603617822663 0.08525829143386526
4.042 -0.7630872080184119 0.4448501143250548 -0.000550332582906197 0.00019282720994155913 0.00035765267452935893 0.00013655440179503569 -0.9621240850755551 0.08881398479259377
4.042428571428571 -0.7591886863781302 0.44884654939109087 -0.0004229256937792459 0.00010951367919911774 -0.0001570324230044248 -0.00016467333882760866 -0.9596952702715129 0.09412369554589664
4.042857142857143 -0.7572299758365362 0.4467694742964928 -0.00044324238496909116 -4.007206876192351e-06 -0.00012516495103624388 -0.0001955316486020047 -0.9648584004445655 0.0894143247959858
4.043285714285714 -0.7500900770327055 0.462611967625532 6.820085054352653e-07 0.0002774807383261546 7.906012563524357e-05 -4.960929967628844e-05 -0.965445354157156 0.08784732851639139
4.043714285714286 -0.7461951292355667 0.464485094589776 -0.000542073060876491 0.00028204173614100413 -0.00010292720157815105 0.00023166737536053247 -0.967784630682644 0.08501047224105361
4.044142857142857 -0.7454941573829597 0.47294923061817606 -0.0006077130491357915 -2.7494298677211457e-05 -0.00014080063075192634 -0.00019176554210094407 -0.9628724855113862 0.09686394181553537
