!Created with skrf (http://scikit-rf.org).
# Hz S RI R 50.0 
!freq ReS11 ImS11 ReS21 ImS21 ReS12 ImS12 ReS22 ImS22
4.0 -0.8313764076233914 -0.25443246509029976 -4.669527835342106e-05 -0.0003795322420012752 -0.00010830329067410917 1.8896684668463007e-05 -0.9626337734808681 -0.12898039267628716
4.0004285714285714 -0.8381356586872613 -0.24791596020974477 -0.00011833503769411001 -0.0009767445662292814 7.067043421055605e-05 -0.0001402275024041782 -0.9708982211006704 -0.12188746165124087
4.000857142857143 -0.8426842466784098 -0.2382057965965688 -0.00030025613527668476 -0.0006652047391236143 -0.00020972452937836344 -0.00010013280986124317 -0.9664409639603191 -0.11600574549185501
4.001285714285714 -0.8373537289432793 -0.23348786124124515 -0.00030048520771480084 -0.0005740843343184532 5.50402522280035e-05 6.007882619862879e-05 -0.9646712001089456 -0.1168637956631587
4.001714285714286 -0.8419232974615248 -0.22594748915676674 4.046768791322795e-05 -0.0004712106275522667 -0.00014438193959887723 4.3087440237365364e-05 -0.9668806723916673 -0.12115348101886353
4.002142857142857 -0.8415966423630601 -0.2257465122367763 -0.000187720076063003 -0.0005785575602013016 2.1866660824555518e-05 0.0001850815539661005 -0.9643076713956195 -0.10962078442376111
4.002571428571429 -0.8455675203815569 -0.21503059079127437 -0.0002546503900322502 -0.0007109415651687953 -7.15400310522453e-05 0.00013436963776796102 -0.9697771008724201 -0.10574306467250824
4.003 -0.8488569046267903 -0.20372421962701173 -0.0004808900990959716 -0.0007126336665170726 -0.00020612540465757598 -0.00020643476448040001 -0.9670642704382841 -0.10330794175358324
4.003428571428572 -0.8521716620023638 -0.20087838445001577 -0.0003240096077758775 -0.0003667481886293041 4.3230402643904225e-05 3.2793960208292566e-05 -0.9620445338638803 -0.09891830276444301
4.003857142857143 -0.846998164032671 -0.191980608428768 2.6840637738688492e-05 -0.00045193466895020884 5.012831942400091e-05 -0.00019015839704848679 -0.9709209227168284 -0.11031127545027948
4.0042857142857144 -0.8592439423627029 -0.18538742352157728 -0.00017341827891778774 -0.0002458572904636908 -9.545854758931223e-05 0.00017289554279396242 -0.9663199815668305 -0.09882119355542535
4.004714285714286 -0.8533375582683148 -0.17647081530150752 -0.0006213810952590911 -0.0006532592188804971 -0.00019223189815420475 -0.00012132268652223246 -0.9602446611696013 -0.10716210920515722
4.005142857142857 -0.855097569517111 -0.16766467118844297 -0.00043364054117971666 -0.0005354114679453079 -8.011995670208023e-06 0.00020208229105876576 -0.9693283912975955 -0.09593299587548479
4.005571428571429 -0.8555169154541021 -0.16216218628576085 -0.000247871189478553 -0.0005150705825686237 2.7759361644701632e-05 0.0002248433950168242 -0.9616034714970461 -0.09465423241243685
4.006 -0.8592394200365755 -0.15892183473945107 -0.00040274958426779657 -0.0005149134262946552 -7.368190714632751e-05 -2.6093699709902665e-05 -0.9709080332009875 -0.09300221889782302
4.006428571428572 -0.8605812571779066 -0.15371362629075674 -0.0004924653338980689 -0.0006195060760616997 -0.00013255394027277082 1.8661971700881985e-05 -0.9692980748855708 -0.09267085536944539
4.006857142857143 -0.8646610338775836 -0.1428476221038508 -0.00034399092096256193 -0.00048625669081660765 -7.915628541142347e-05 -0.0002732306297006244 -0.965630074184881 -0.08421091946334301
4.007285714285715 -0.867339116706712 -0.13423978122799662 -0.00029393824322125996 -0.0006789553665620448 -0.00021338009601413126 -0.00013783409814708584 -0.9691693585739641 -0.07974558068494556
4.007714285714286 -0.8648868055749539 -0.1291118665017084 -0.0005108643007854241 7.551786150163923e-05 3.4138678657511974e-05 -0.00037572317642731233 -0.964463661358822 -0.08188618572112612
4.0081428571428575 -0.8666742512352548 -0.12630318212382236 -0.0005553877697552187 -0.00026038303706575215 -4.432921120721953e-05 2.9056059550132404e-05 -0.9658513329654543 -0.08637705609579882
4.008571428571429 -0.8684479082624103 -0.11297188780752089 -0.0004742214203227303 -0.0004719480886810019 -1.6488471533513072e-06 0.00011208379964266616 -0.9641198283401783 -0.07689782659746891
4.009 -0.8690867278695491 -0.10883513260422698 -0.00021161551199959361 -0.0005571211400528533 9.900828700627077e-06 0.0003134459585137884 -0.9741075937610532 -0.08429537755220656
4.009428571428572 -0.8659933000389274 -0.10530245673462066 -0.00037137938489334416 -0.00020892445805933702 -0.00022538314829210432 -0.00019977347460613191 -0.9762077388917788 -0.07651603860999237
4.009857142857143 -0.8710771167257806 -0.09195519887546771 -0.0006465876336492405 -0.0005950901232992551 0.0003316977626243893 0.00012457755678780782 -0.9669668472570704 -0.06916261979814904
4.010285714285715 -0.8718829042116356 -0.08711429696920951 -0.0002722662688672867 -0.00037340942392139154 -0.00031522215281757645 3.0947499174016135e-05 -0.964431224814426 -0.07278614346292561
4.010714285714286 -0.8717242056743864 -0.0801167421140437 -0.0004688932747100851 -0.00012400582866765089 -9.31112169971996e-05 -7.250075470767812e-06 -0.9702720950592448 -0.07035576568734403
4.011142857142858 -0.8685247279226257 -0.07582626591918522 -0.0003447741386279976 -8.362115533008699e-05 -4.636205597264389e-06 -1.5056710836554298e-05 -0.968675709943158 -0.0657768324105494
4.011571428571429 -0.8683501211528267 -0.0632937649373911 -0.0005991937963057077 -0.0005371973004524099 -0.00010772574689468738 6.959746671561143e-05 -0.9711018684983148 -0.06566595202020181
4.012 -0.8738349090432304 -0.060032252903285184 -0.0005884564241066957 -0.00045046187508145986 0.00017323412986389137 -0.00015044950795179587 -0.9744743595831125 -0.06098407568462911
4.012428571428571 -0.8707059976410162 -0.050285474191295004 -0.00035461604182958237 -0.000410511023439342 -1.0007643405922713e-05 -0.00012243915106143228 -0.9638423772614473 -0.05621794663447149
4.0128571428571425 -0.8777743807527429 -0.04155941421335693 -0.0004135332822686032 -0.0002713654468541332 0.0001878333502915251 -0.00018981252911852312 -0.9648979620604925 -0.06273190463975585
4.013285714285714 -0.8669696306828786 -0.037540416689787956 -0.00044680589249726407 -0.0006344672865139981 0.0003023992675230458 -6.059295454250327e-05 -0.9621588290073526 -0.05738124307108174
4.013714285714285 -0.8709348488803964 -0.029260340596832777 -0.0006390399577259216 1.516450690411726e-05 -0.0004970263118525336 0.00011081220621165842 -0.9755330310626305 -0.05120222220312242
4.014142857142857 -0.8705967521543354 -0.019707331853024875 -0.00018024862995218198 -0.00033040616186613724 -2.4443553628798794e-05 0.0002934303786270346 -0.9730422397492233 -0.046169505540966396
4.014571428571428 -0.8691647140369573 -0.016927403073598413 -0.00010341891618959387 -0.00017687728608708063 -4.670460438662163e-05 0.00010043033041272826 -0.970423792932538 -0.051341777421937025
4.015 -0.8800644585313924 -0.006334301406416639 -0.0006380427775261422 -8.064040678048533e-05 -1.4967037504295867e-05 0.00017134165130069484 -0.964865996928883 -0.04934323234803084
4.015428571428571 -0.8747704314296582 0.005025396334437809 -0.0002566144871690341 -0.0002749558802537759 4.0525685599347845e-05 -0.0002121890680890209 -0.9723239135216172 -0.048364592271077665
4.015857142857143 -0.8733566247959534 0.010093029639050064 -3.861752921045328e-05 -0.0002631363162460739 0.0005363501791324221 -0.00011450060453214497 -0.9711225191169952 -0.044962748712635676
4.016285714285714 -0.8728866718725821 0.016162272164481607 -0.0003190246857510238 -0.00026431379593116154 -0.00028027314057191255 -5.800102544259116e-05 -0.9639408681686488 -0.04047263655636461
4.0167142857142855 -0.8720842781320893 0.021230751952053917 -0.0004412673142481104 -0.0003834891185849826 -0.00020256457450909163 -9.606412646386261e-05 -0.9653145537382717 -0.046690541322355006
4.017142857142857 -0.8693015270635902 0.03232494675507657 0.00010537404250232234 -0.0003727625099613706 -2.4631952267734256e-05 -1.9957773351138472e-06 -0.9616187961289303 -0.03902814500858557
4.017571428571428 -0.8742843987998019 0.03470844621672186 -0.0005008568035055434 -8.968649588074003e-05 0.000381194045333242 0.00019994903800715913 -0.9747963808886948 -0.04242141694693884
4.018 -0.8693070135370291 0.04272025168069202 -0.0005998289844855246 4.502678332000759e-05 -5.638469219627807e-05 -0.0001434520111489144 -0.9701502128860415 -0.0401145765312142
4.018428571428571 -0.8766967298136082 0.050147801333735836 -0.0005423209520143872 -0.0002666176249798244 -0.0001662055548480645 0.00025972682511933446 -0.971181533662057 -0.033453254253148774
4.018857142857143 -0.8673596608335522 0.059418970458252764 -0.000620588490060949 -0.00044370764538803024 0.00019049242268000683 -4.30547054187869e-05 -0.962621836733873 -0.025594211190031996
4.019285714285714 -0.866483453580888 0.06975561049920265 -0.0002926146389702108 -0.000511714940266432 -0.00023811442868877512 4.623728288008409e-05 -0.9694854473995422 -0.028265743805642143
4.019714285714286 -0.8713773736628537 0.07719634552386562 -0.0006836635817340121 -0.0005165626646961303 2.0836206366085938e-05 2.1302895832282494e-05 -0.9631569365655221 -0.02725128304271564
4.020142857142857 -0.8687317975752327 0.08134935389245528 -0.0005309059622442718 9.762132998706711e-05 8.909056133322327e-05 0.00016364878813891737 -0.9682592013342398 -0.024596246917576777
4.0205714285714285 -0.8695721044387303 0.09503776090519755 -0.0007185585436154597 1.464417432838075e-05 -5.3568075676870675e-06 -0.00018262170695584908 -0.9681639632158415 -0.025649140688093763
4.021 -0.867769591622489 0.09228347333374635 -0.000499379443902902 -7.104562667618952e-05 0.00012982913105577027 -0.0002265836860574218 -0.9672833520884061 -0.01961732247540976
4.021428571428571 -0.8650716657499635 0.1054050633399844 -0.0004438527350761223 5.454176037979447e-05 0.00023934773046269342 -0.0001300071079305418 -0.9687846634162349 -0.01983448377529671
4.021857142857143 -0.8676240286841241 0.10837138511891857 6.87825122095541e-06 -0.0003313019269490137 -0.00047920123726080926 -0.0003163312551685296 -0.9674535822869301 -0.014694178660649485
4.022285714285714 -0.8596950614796761 0.11334549484125517 -0.0005805530380912025 -1.98161719199485e-05 2.3742059659165206e-05 0.00035984802665088345 -0.9758898845005424 -0.007842931455410977
4.022714285714286 -0.8651265782588251 0.12885416854536194 -0.0005451140590925469 0.00031407998683924973 -4.863870567511834e-05 7.535401537851496e-05 -0.9652250459949889 -0.013048484533293204
4.023142857142857 -0.8610972475891694 0.13502826720728406 -0.0005456441014810541 0.00025444526942222477 2.916670664433175e-05 0.0003721412382821441 -0.9668697508427758 -0.006745622079931387
4.023571428571429 -0.8618116194225299 0.13496546624212985 -0.0006649689996870571 -0.0002769645816295228 -0.00022568132459905218 0.00016165340841533429 -0.9627916677163051 -0.0037217626573846922
4.024 -0.8570454464721519 0.14709538050029505 -0.00029357014755082686 0.00023309314994734374 -5.07090555446341e-05 0.0003406531562188159 -0.9711301410241306 -0.006548815582118544
4.0244285714285715 -0.8589488784016197 0.1514998324723441 -0.00039402016029712906 0.00013600681753207178 0.00011913613257503078 0.00016721475111785233 -0.9696487223512943 -0.001415551746688852
4.024857142857143 -0.8603415904996359 0.16060172056302327 -0.0006234944380311664 0.0001661272327545107 -0.0002812376940345229 0.00022479464137876686 -0.9670970150822314 -0.0007115945511168856
4.025285714285714 -0.8574692888612334 0.17068577835369325 -0.000449582017384036 -0.0002448789199224876 -0.00010004233331653868 -7.87868906028517e-06 -0.966237140704272 0.0038624361503627014
4.025714285714286 -0.8555725580121452 0.17579467501032892 -4.648832091665059e-05 -0.00038253690098934964 -2.7024567213530537e-05 0.00011670402513398199 -0.9754262774229018 0.009368958944077233
4.026142857142857 -0.8602016713832729 0.18155824656568087 -0.0003012181849104397 0.00022846331900764087 -0.00016831481720531427 0.0003406816839632512 -0.9678006598495696 0.004373987626853687
4.026571428571429 -0.8454198879699962 0.19083655648338518 -0.0005700264997695204 -0.0001944256353135089 -3.1426866037618847e-06 0.00010412332986374997 -0.9739973948937292 0.010206475008323954
4.027 -0.8490204250428703 0.198016874705734 -0.0007596886415450789 0.0002611125150582594 0.0004435558920515724 0.0001695296875420807 -0.9681584057663903 0.005661870322916066
4.027428571428572 -0.8528558030562051 0.1998453448116516 -0.000963618599030765 0.0004664403692404372 0.0001946116613122327 0.00035542186521731123 -0.9680082127970998 0.017894859681579042
4.027857142857143 -0.8466351178083223 0.2073792712612256 -0.000726559849505847 -3.0138386801362514e-05 -0.00011257404515180941 9.422873313189472e-05 -0.973073619666661 0.0116141639571889
4.0282857142857145 -0.846982544057847 0.2230042224279306 -0.0009033023198377856 0.0002652917834758237 0.00027693060990852944 0.0002480167127526042 -0.9720433723711941 0.02359187172270973
4.028714285714286 -0.8495582118756779 0.22170299756865747 -0.00048322691383655375 3.293451484174537e-05 -2.6998013254970443e-05 5.2049556183150245e-05 -0.9706971109427018 0.015460236876513725
4.029142857142857 -0.8449182896618737 0.23298829304703905 -0.0007965371332055659 0.0002671684901574945 2.06263344253574e-05 -0.00012103745510964463 -0.9678190673154834 0.024241430203718724
4.029571428571429 -0.8417600861251087 0.23694788901120356 -0.0003126983704348063 8.203739550397053e-05 -0.00025568981126030223 0.00024061249492673053 -0.9637794618209422 0.022293545634230725
4.03 -0.8375365757641585 0.24329126048974875 -0.0003212310731353055 -4.350732034247636e-05 0.00036913072551849116 -0.00010453393255625861 -0.9730248280117048 0.03430718737096476
4.030428571428572 -0.83561582768359 0.2543709242894225 -0.0006502609318039923 1.6400862703125997e-05 -8.251703241720185e-05 5.948236683349793e-05 -0.9684674598486738 0.030392244058963937
4.030857142857143 -0.8379689317186918 0.2568727456691423 -0.0007517204434706587 -0.00019908301697698098 -6.0927304477800816e-05 5.869487012351755e-05 -0.9717642231218669 0.023047503353554155
4.031285714285715 -0.8308717343339139 0.26444583278450884 -0.0006786248173288213 0.000123678254261638 5.141911020847306e-05 0.00016403595005665196 -0.9676954051499308 0.03232899559021431
4.031714285714286 -0.8270404102996675 0.2685252094562898 -0.0004669782544062211 4.3573734010151425e-07 7.382122887875166e-06 0.00022159834912997492 -0.965216375352485 0.02612915597699309
4.0321428571428575 -0.8257707694748782 0.2776912925088722 -0.00029771214459054266 -0.00025600410263353063 0.000313364415799563 6.2297038583842e-05 -0.9729344763639443 0.03735514240926481
4.032571428571429 -0.8248057813046218 0.2852218666292306 -0.0006571911976592959 0.000401985282649966 0.00010916820862659133 0.0001295983125461642 -0.9653382409706913 0.04561950513803951
4.033 -0.825058696395816 0.2920873383819915 -0.00041014232440192704 0.0004224231031485902 5.094336830537088e-05 0.00036460853887540994 -0.9654775279126315 0.0465773577616623
4.033428571428572 -0.8290073458565878 0.30201593583270114 -0.0006059034893176439 0.00022166433424660598 -0.000170359812818928 4.767116765136101e-05 -0.9635076139807057 0.04016941708607106
4.033857142857143 -0.820510860936555 0.3063395558900293 -0.0002673477374887072 0.00038968892160710906 -1.333802585772359e-05 -0.0002773423332893908 -0.9633877471510813 0.04493754273943667
4.034285714285715 -0.8129866516853378 0.30954030569264607 -0.0009419106680737709 0.00016818277230517853 9.567834180053163e-05 0.00012204018168660363 -0.9653466343705819 0.04297230739367536
4.034714285714286 -0.8074788373334656 0.3240238772675925 -0.000688691992038054 0.0005487620578139612 -7.213376760166148e-05 -0.00013398939806941925 -0.9685188961362062 0.0506081760576509
4.035142857142857 -0.8077614474621924 0.3282427155670182 -0.0005766215501664196 4.017047010581425e-05 -0.00013747444277937833 5.099031060335178e-05 -0.9690922628409914 0.05184505802717954
4.035571428571428 -0.8028770617354875 0.3328487209426722 -0.0005639110655016496 7.351930211659372e-05 -4.3826214332971256e-05 -0.00011512234671561611 -0.9665893340927947 0.0570037863897288
4.036 -0.7998131368717167 0.34369002108058566 -0.0006240238536861444 5.052074127082515e-05 0.00024051020189607382 -6.905974527368205e-05 -0.9685990291490704 0.056006316663321024
4.036428571428571 -0.8071469003279113 0.34253488001022186 -0.00046053981124397395 5.120098171163054e-05 5.260727437239778e-05 0.0001226247641625943 -0.9683170340298191 0.05357786114249649
4.0368571428571425 -0.7998913143900728 0.35487962537812173 -0.0002617812345429614 0.0006504774312986167 0.00020861669352252498 -9.259502046748778e-05 -0.9720371025093488 0.055489251330483734
4.037285714285714 -0.793467161714549 0.36026000977220524 -0.0008645085428582124 0.00023689851044225312 9.402768845247073e-05 0.00014804828607039883 -0.9637164760083741 0.060327914611318506
4.037714285714285 -0.7919963137830327 0.36146998454814727 -0.0007881218033262602 0.000511462903261894 7.670806177054744e-05 -8.453932521080662e-05 -0.9709760486050268 0.05662858071044573
4.038142857142857 -0.7867503659938311 0.37954538366811796 -0.00019896613997489004 0.0003628393450382138 0.00015138740827157365 3.635492510690658e-05 -0.9634121162366818 0.06298494076299385
4.038571428571428 -0.7878436950607111 0.3805474495956442 -0.0005919523518622285 0.00047859237918095716 -2.058409011847124e-05 -0.0001398457483072645 -0.9597620650413097 0.06648998378290039
4.039 -0.7840017705134245 0.38436223184945767 -0.0008436232648359793 1.8401697109806036e-05 -0.00015131405738545484 -0.0002150017764077327 -0.957394091989989 0.06453863597043648
4.039428571428571 -0.7771269959679655 0.39977498478889195 -0.0006560741448240598 0.00016280593003942427 -0.00029038629858106006 -3.515549769574582e-05 -0.9646709867129051 0.07063136865889705
4.039857142857143 -0.7785076935871476 0.3990713807388244 -0.0006263026982455498 3.665024408740572e-05 5.7179210198584696e-05 -7.180305765865443e-05 -0.9692920001687443 0.06872863487454862
4.040285714285714 -0.7743667639845734 0.39913401654287317 -0.0004027794190707535 0.0002363429503047091 -0.00023873266110489578 0.00010055280944250118 -0.9616361074285479 0.07665362912791866
4.0407142857142855 -0.7735378119116678 0.41125193027262213 -0.0002866738777938127 0.0004347340017091257 0.00013513415630862243 -0.000284564193152276 -0.9616322042415423 0.0774495791256279
4.041142857142857 -0.7620501253072527 0.4179783921877515 -0.0005984776792635312 0.00031926553705041635 2.49818838197965e-05 -0.0001568176838852516 -0.9689991134730869 0.0851649161125642
4.041571428571428 -0.7600718432785654 0.4245655751915521 -0.0005070578735182603 9.704275414380129e-05 -0.00015488561549696392 -6.646265310214313e-05 -0.9645544016918609 0.08398617200463691
4.042 -0.7585331817506576 0.43313042496204507 -0.0005529708752652386 0.00025692051049205444 0.00012573848917445097 0.00015811733112101544 -0.9624730160597177 0.09112599708762852
4.042428571428571 -0.7526153511069349 0.4365508608182231 -0.0007066543467545211 0.0005280044180546255 0.0001058644728985324 5.67471096752295e-05 -0.9588000565222222 0.09305327452994692
4.042857142857143 -0.7527848762209094 0.43514920998607565 -0.0001752371492024724 0.00047147147520046296 9.443614169425872e-09 0.00018047922351820716 -0.9638032499889487 0.08874745346732772
4.043285714285714 -0.746847156754534 0.45205029281640474 -0.0002944443125065587 0.0003168655707878948 -0.0003792973475074929 0.00018780478206844426 -0.9658943645994583 0.08706345431115783
4.043714285714286 -0.7387681329567198 0.4542430174838205 -0.0006427186950954051 0.0006931246197634544 5.386933781110747e-05 -9.217805274705858e-05 -0.9654452486766105 0.08372872637415321
4.044142857142857 -0.7395061974258533 0.46369469529736235 -0.0002499793086372425 0.0006619491559205322 -1.8080134585583373e-05 -1.9556523774390258e-05 -0.963592800367006 0.09827231394233045
