!Created with skrf (http://scikit-rf.org).
# Hz S RI R 50.0 
!freq ReS11 ImS11 ReS21 ImS21 ReS12 ImS12 ReS22 ImS22
4.0 -0.8316857063025901 -0.25404721804280006 -0.0003169826410252744 -0.0010190097847438053 0.00014788453634395399 -8.894556526064455e-05 -0.9637689819280308 -0.1300957862068442
4.0004285714285714 -0.8392005287796956 -0.24641296648025293 -0.0004967329454681925 -0.00047431137721693536 0.00010000487779042872 0.0003057069484218593 -0.9722691288549871 -0.12267190673227857
4.000857142857143 -0.8421955274358842 -0.23818137259284453 -0.0002958344448835749 -0.0008553252553595617 0.0002981147924736038 -2.7570594774393536e-05 -0.9676943332524192 -0.11553417826430169
4.001285714285714 -0.8361457007814673 -0.2332172795969452 -0.0004259507008845378 -0.0006642357463297003 0.00024324387508729516 0.00014160115649112812 -0.9659124643148574 -0.11613373214249176
4.001714285714286 -0.843650658866403 -0.2245852567834326 -0.0005399433187134151 -0.00016170044958754918 -6.773837679568804e-05 -8.630939692802013e-07 -0.9658861539448534 -0.12178685580605016
4.002142857142857 -0.8412098015661658 -0.2259644187122696 -0.0005856765660239294 -0.0006463427347960107 9.865595094998683e-05 -0.0002316511292630309 -0.9654028197343488 -0.11039632223940236
4.002571428571429 -0.8449213416724687 -0.21495285284127943 -0.00015311876762654956 -0.0005706128628258443 5.237955619428663e-05 -0.00033804670638823994 -0.9713920875088333 -0.1046386751937961
4.003 -0.849087961699137 -0.20413459204244577 -0.0007603799777368489 -0.00018864274847537425 -5.0285621675096354e-05 4.894744343196991e-05 -0.9690297401877194 -0.10282694523058154
4.003428571428572 -0.8495562225118863 -0.2003084760585833 -0.0006494721604764491 -0.00028852222568025344 8.913809772019736e-05 0.00029070515364652155 -0.9632006606822257 -0.09797250452930571
4.003857142857143 -0.8482699814707767 -0.19214394163699217 -0.00046938854251714904 -0.0005472295829332158 3.542325694468959e-05 7.838245159864757e-05 -0.970710025333629 -0.10760798177447897
4.0042857142857144 -0.8586281118121804 -0.1855396401301435 -0.0004956310727162177 -0.0004631851688160577 3.0272831516255137e-06 0.00013680244496938363 -0.9651668672185101 -0.09832095710978819
4.004714285714286 -0.8514179081572356 -0.1757531855294756 -0.00014076938099233345 -0.00048601006825877595 4.213732249464457e-05 0.00021404630952682305 -0.9599921595564014 -0.10697470495800125
4.005142857142857 -0.8566449887712416 -0.16704845964574305 -0.0003449649388578448 -0.0006956185399935365 -1.6383215557937187e-05 5.5843628997714435e-05 -0.9682689591942222 -0.09462994174139712
4.005571428571429 -0.8575207923738989 -0.16224014833945574 -0.0004702082517249843 -0.0007143630789679143 0.00020904185747233072 0.0003125980163054737 -0.9597731474378727 -0.09612407902763849
4.006 -0.8592462465225192 -0.15814208398140847 -0.0005624758599604108 -0.0007002410556546363 9.539041813372627e-05 2.0586505906455362e-05 -0.9723476763014586 -0.09394205147222533
4.006428571428572 -0.8592290650678881 -0.15375216757792554 -0.00031652056608162053 -0.0007947032887282221 0.0001738924826191169 -0.00024603946240830244 -0.9665304646718065 -0.0924513354897331
4.006857142857143 -0.8627514846401813 -0.14136114439687172 -0.0004412724689664861 -0.0004956563322795261 -2.0072559617765895e-05 7.477756548412629e-05 -0.9661386471498116 -0.08592732047696046
4.007285714285715 -0.8667347633143275 -0.1351015285773815 -0.0002466124566670064 -0.00046082100774440455 -0.00021432508655063216 -0.00016321406406104985 -0.969872398250421 -0.08052665193031547
4.007714285714286 -0.8630534896977293 -0.12979660905076656 -0.0007334028940538819 -0.000360081898754883 0.00014717038500900614 0.00019530472617148938 -0.9630095790652368 -0.08238193761099981
4.0081428571428575 -0.8647327729959311 -0.12729651094721195 -0.00030169445797706293 -0.0005439045172101926 1.2406669135692855e-05 0.00019287703057977525 -0.9670030260593007 -0.08632574521790158
4.008571428571429 -0.8669146754632625 -0.11187469118466074 -0.0006902869822743976 -0.00041035635320597707 0.00027874286426857463 2.9352808735681023e-05 -0.9642008470138705 -0.078537328620479
4.009 -0.8684793324157964 -0.10677287564279947 -0.000345674075209823 -0.0004596962807322289 -0.0002639631930984062 0.00013474254350913665 -0.9743669801038541 -0.08358108828459351
4.009428571428572 -0.8674353112291198 -0.1047058137006422 -0.00029584441856648694 -0.00033031004666907523 0.0002672526841708667 -0.0001415925976413672 -0.9767060975194161 -0.07671183841498994
4.009857142857143 -0.8690841498866086 -0.09324070440370472 -0.00018229664477921188 -0.0001722005172087155 -0.00039674002285325095 -4.543376545849064e-06 -0.968450390807004 -0.06922722604034656
4.010285714285715 -0.8718068867869312 -0.08538665475454754 -0.0005124036172346577 -0.00047242691088019307 -0.0002001332423231744 2.482905113803163e-05 -0.9647707702228436 -0.07012412377649821
4.010714285714286 -0.8714128884588931 -0.08071320621778001 -0.0005429172733034011 -0.0007684621457634309 8.785634458008458e-05 -0.0001268819748159931 -0.9671062929462053 -0.07196482964090874
4.011142857142858 -0.867432390945332 -0.07678776123881507 -0.0004431406479835231 -0.0004602008168649349 -0.00010640068996493792 0.00019535669672663279 -0.9692101696004415 -0.06544159786998963
4.011571428571429 -0.8692852170382405 -0.06449519366412003 -0.00045048215422545363 -0.0004898071840422084 -9.971829330539303e-08 7.250159770488276e-05 -0.9710166144813881 -0.0665054137633748
4.012 -0.8705258664123061 -0.05821572493470974 -0.000850503343939159 -0.0006157605029111769 -0.0001599608539950843 -3.418424852428869e-05 -0.9758561005043913 -0.0641592096840164
4.012428571428571 -0.8707869271967038 -0.049886897092451636 -0.00035693162785109864 -0.0004392012189280612 -0.00020667148730506144 8.026393936518343e-05 -0.9633386778189069 -0.05597441557230278
4.0128571428571425 -0.8755756645930123 -0.042084157949129064 -0.00038367474574112193 -0.00043232132186977264 9.533799100455073e-05 0.00023839814543355711 -0.9648028814895071 -0.06328724666184135
4.013285714285714 -0.8674192242704768 -0.03807365274065861 -0.0005150086232348675 0.0002655431110944487 1.6486159336756924e-05 0.00012100765953977738 -0.9639165317918541 -0.05977850442876389
4.013714285714285 -0.870919246405893 -0.02894538326663237 -0.00017709393286873668 -0.00026242205172875025 2.0204783714949052e-05 0.0003531525537883122 -0.975802443014221 -0.051935800587177235
4.014142857142857 -0.8702167841622591 -0.021243517537061773 -0.0003352383041061418 -0.00016059967975246442 -6.548006531651095e-05 6.69542763028778e-05 -0.9713375770521103 -0.045384753004561705
4.014571428571428 -0.8705128535673955 -0.018002690449510066 -0.0007754726323348191 -0.00013562471290006552 0.00040364352831820437 -0.0001284010979039349 -0.9719653207012512 -0.05191849933764757
4.015 -0.8790705342966401 -0.004767931325426981 -0.0008519876217430486 -0.000386380016500026 2.878580768423393e-05 8.65385710086157e-05 -0.9649465597539011 -0.05090638412841994
4.015428571428571 -0.8734122053864468 0.004448150933469468 -0.000591282653338991 -0.0005008271526979707 0.0003182084453069506 -3.877902647644789e-05 -0.9729433623170336 -0.04768468360549504
4.015857142857143 -0.8721790030104397 0.009778511440890106 -0.0005731992622830939 -0.00013454881758926887 0.0005763672494242868 -0.0002306590629612702 -0.9698464253431205 -0.04464915925385648
4.016285714285714 -0.8724905991304778 0.016724822832623172 -0.0008973870637015991 -0.00016547563671682477 -1.982497107581415e-05 8.763220094779507e-05 -0.9645556140757859 -0.04202082637021875
4.0167142857142855 -0.8725667816402215 0.023086143289224762 -0.00034565469964201396 -3.8132676731890334e-05 0.00045154542437837063 1.2941690408088225e-05 -0.965328098217219 -0.04864851027578705
4.017142857142857 -0.8698940879337042 0.032951263129883474 -0.0006646437717170728 -3.838239631074811e-05 -2.170047168799187e-05 -0.00013431048049216635 -0.9618632079281114 -0.039641344092804884
4.017571428571428 -0.8738687597723708 0.03500127470036019 -0.0007188139203717518 0.0002818385784397426 0.00011646504129504324 5.887825988872155e-05 -0.9732011238269263 -0.03964641914278832
4.018 -0.8709514147472053 0.042871149827492155 -0.0007139740041140076 -0.0004701310273356005 -0.0001595626896091636 0.0001715497375742456 -0.9700202155507379 -0.04030617688433084
4.018428571428571 -0.8753967749909478 0.05039151445891808 -0.0004765783841657413 -0.0005051734542118704 -0.00019922270531276618 -0.00015250838470269313 -0.971531068095949 -0.03366691075351228
4.018857142857143 -0.8661120944344655 0.06055578437363714 -0.000443677938584985 -0.00019181342519115538 0.00020988349312476464 -0.0003098852971587452 -0.9625655714970885 -0.02700946574950886
4.019285714285714 -0.8667012878167538 0.06915002710535248 -0.0004570321028018082 -0.0005649873680228654 -0.00018042199807596272 0.00019920696232173516 -0.969609927089855 -0.026043841848363267
4.019714285714286 -0.8706749529972979 0.07697466973995296 -0.0002150033653075334 -0.0002755019793965237 -2.341194247178223e-05 -3.0336839407669298e-05 -0.9639635619635727 -0.0274454958532756
4.020142857142857 -0.8704684890756345 0.08105471346465169 -0.0008337727899781293 0.00040348717166032697 -0.00013570853002405187 0.0001789934450053113 -0.9685253605953812 -0.023547120345020652
4.0205714285714285 -0.8697024908935278 0.09628432386144416 -0.00035053391654825834 -0.0005358363670980894 0.0002980418686527074 -4.227581324296997e-05 -0.9699660473916005 -0.02662915676153356
4.021 -0.866110725381168 0.09248027631521713 -0.0005415357052968325 -0.00029342755460673653 0.00010466335957414666 7.847773919741048e-05 -0.9649442876805598 -0.020316910561777778
4.021428571428571 -0.8654436100609332 0.10759336045749104 -0.001163537707536127 -0.00031869783632758347 0.0003183685354587906 -0.00014171968314172247 -0.9691132028336973 -0.018848588817170168
4.021857142857143 -0.8674389425581547 0.10874890928206228 1.5686432102282058e-05 4.1300706971796955e-05 0.00014212027951619939 5.834146754762396e-05 -0.9665990478415348 -0.013993373516329498
4.022285714285714 -0.8587754367643394 0.11216902793366208 -0.0003863581933914258 0.0002129573148360004 -0.00012219812515840763 -1.1714858838271122e-05 -0.9723388665725012 -0.008599654272545693
4.022714285714286 -0.8637992472603268 0.13087066248740603 -0.0003981583065899536 -0.00014268984882058862 -8.294737946476818e-05 0.00030013784478784755 -0.9649719682428504 -0.013696868372085233
4.023142857142857 -0.8598429038592789 0.13622280549334143 -0.000820716436485413 -0.00010719628110990198 -0.00022251122296736676 0.0003760619659017809 -0.9692527295211396 -0.008381660399420258
4.023571428571429 -0.8616261807135197 0.13737144096083592 -0.00049990421345455 6.691708163427258e-05 3.6215798414083225e-05 -2.2801133958114713e-05 -0.9631930772381848 -0.004060249941516101
4.024 -0.8586358181866458 0.1477310306961593 -0.0005707513084007171 -0.00020900387214717965 -5.161347103589632e-05 -0.0003297319876014152 -0.9704015590332994 -0.006984071466926661
4.0244285714285715 -0.8609197701726047 0.1518479513792502 -0.0008141822972580101 0.0003234176167871184 0.0002872743550620527 -0.0002204126139759473 -0.9702137094777102 -0.0038878771126367056
4.024857142857143 -0.8594697953520266 0.16542267674529884 -0.0006249319224689743 -0.0005294883627015181 0.00013255456415757147 0.00014461176854648543 -0.9661190100131978 -0.0005629222451112963
4.025285714285714 -0.8587443075584837 0.17017380700480259 -0.00035352428136300524 0.0006372225144907586 -0.0002768108690557965 -0.0001597326857180326 -0.9677945749911402 0.0014145910510417437
4.025714285714286 -0.8557512979440673 0.17868538110849053 -0.0009503798317620591 0.0003778173633632255 6.996605722076384e-05 0.0004823563177904201 -0.9766904651503792 0.009338171405687021
4.026142857142857 -0.8597490625917247 0.18291027506011984 -0.0007249936426230425 -0.00019232398037398918 -5.1469819877503594e-05 -0.00014768565072490185 -0.971458520814059 0.003197395567656707
4.026571428571429 -0.8450199493386245 0.19206316210415972 -0.000538432897265966 0.00037848798664228615 0.0001813380641137949 -0.00022488121817028516 -0.9734214153828793 0.008982489933293375
4.027 -0.8483518071013663 0.1967837424181545 -0.0002455315606447776 0.00023362913522516834 -0.00022806080011793454 -0.00015810548786733788 -0.9695483562750276 0.005597500061500675
4.027428571428572 -0.8540041724686803 0.19928409548986603 -0.000911863581895972 -0.0003782955864461938 0.00017609891064058046 -4.719706102994045e-05 -0.9676168242289626 0.016233507446850384
4.027857142857143 -0.8485468424135967 0.20713092557008173 -0.000483246402238963 -0.00011075978786635526 0.0003448481663321304 4.73291324050853e-05 -0.9749755002284454 0.01107506287953005
4.0282857142857145 -0.8460175305265902 0.22233005249987492 -0.0005193033775966081 0.0005650972855216264 0.00023380384953931486 -7.996230354325994e-05 -0.9725083705937585 0.023665342661037633
4.028714285714286 -0.8496710464829074 0.22005271726881898 -0.0007687339099987666 0.0005487735812187843 0.00017960319439214693 -0.00015846607492198996 -0.9709332216033137 0.013772169478517116
4.029142857142857 -0.8442476743217876 0.23677823423354913 -0.00046080541365304986 1.1730663208569537e-05 -0.00012638708161291607 0.00011438835792788068 -0.9691385400061355 0.023278884308755934
4.029571428571429 -0.8411925741185836 0.23582217921911083 6.744337238089581e-05 0.0002449067996935874 -4.429577393644544e-05 0.0001720543622428645 -0.9635574577503873 0.02216573054365122
4.03 -0.8354623446336618 0.24239144420344821 -0.00044071270495594085 1.5556405943183997e-06 0.00021020163791740865 -4.416370451372448e-05 -0.971952534664609 0.03350671958253808
4.030428571428572 -0.8365832161920531 0.2554668851245295 -0.0006619394704930685 0.00026514353702959394 -5.982976128587401e-05 5.054119587031999e-05 -0.9689056780737445 0.028011484673237597
4.030857142857143 -0.8379457989410775 0.25715271977473536 -0.0003722279017256971 0.00021730849474692587 -0.00016290317620757872 -5.5531300876121544e-05 -0.9714027096312109 0.024398499369961066
4.031285714285715 -0.8316344833476473 0.2662280728174994 -0.0005164060468151602 -1.0193125267553384e-05 8.816396001749228e-05 0.00021294398368850101 -0.9692074724824402 0.036767825639756106
4.031714285714286 -0.8267330209437294 0.2675916360172594 -0.00039738184048067733 0.00011805074213235528 0.0002316578977654175 -6.992706069797239e-05 -0.9638478546151338 0.02459343642355192
4.0321428571428575 -0.822859347936235 0.2795049746948302 -0.0009466697095759711 0.00041450420154332836 4.859153849210341e-05 -0.00021565786512856223 -0.9727640699391717 0.036277136646178786
4.032571428571429 -0.8244650976183157 0.28675488053066495 -0.0007076190006182069 -2.411555614164302e-06 0.0003762198702232677 -0.00017976745389586274 -0.9637848748539787 0.046411039226803966
4.033 -0.8231735927358645 0.29175240239940775 -0.0011079918065366927 0.00013967098191386328 -6.09460522400006e-06 0.00012998724957750057 -0.9652389904035455 0.04442069292020025
4.033428571428572 -0.8265264418096001 0.300939020322624 -0.0005737044720886814 0.0002440584590909659 -0.00013436324193879346 -9.699693486518851e-05 -0.9634966421706375 0.03822707739953995
4.033857142857143 -0.8198763004093546 0.30814552962299474 -0.0006194443666649663 1.6442328048171882e-05 4.228611140694182e-05 -0.00011852715111592927 -0.9642044360462867 0.045526901168865735
4.034285714285715 -0.8122432384173349 0.3106098479602851 -0.0007070063972559537 -1.7603298155770673e-05 6.216095477797161e-06 -8.08797546018569e-06 -0.9662932555226751 0.04295945680553259
4.034714285714286 -0.8057694647202324 0.32567300875927485 -0.0003535317193562157 0.0003020619453055824 5.9812268863530075e-05 -0.0002278032685003049 -0.9667931591517381 0.05130022717396912
4.035142857142857 -0.8081405921666107 0.327006107113521 -0.0005020431402637608 0.00035469199056641966 -0.00016449566484016975 -3.2745129432034156e-06 -0.9714093481855849 0.0517711955300966
4.035571428571428 -0.8014655224132129 0.33390621925852665 -0.0005263983335586246 0.0002291739165825935 -0.00014253464554891441 -0.00010853475717509275 -0.9664861308800954 0.05685587627469616
4.036 -0.7997309000662925 0.34284300715553406 -0.0007813630201166427 0.0002738383748216811 0.00013946985609029214 -0.00045597143335540945 -0.9697097046884943 0.05737738140468612
4.036428571428571 -0.8073198704074664 0.34282589627926235 -0.0005429644377829887 0.0004991746307118795 -8.29969257218357e-05 7.884318998117258e-05 -0.9678604403149597 0.05226955229554624
4.0368571428571425 -0.7999240749415054 0.35438734594971794 -0.0005483681045843553 5.9967145761819775e-06 -9.431730324180635e-05 0.00011071390798816554 -0.9702126624736005 0.0541855054499053
4.037285714285714 -0.7918750438478884 0.360220644369688 -0.00042723695233837445 0.0005500838423234906 -0.0001781409105413895 0.00045550366213516083 -0.9640339083284145 0.06017836423382304
4.037714285714285 -0.7909031455792913 0.3621958530439415 -0.0008062775220618971 0.0006085858257710666 9.16006178327325e-06 8.805044578220033e-06 -0.9707149102841542 0.056192039368182636
4.038142857142857 -0.785818074156216 0.3795581032471412 -0.0006147309549514544 9.985464640775638e-05 -0.00015982165717486266 0.00020500062405481064 -0.9639217080466396 0.06365540221512755
4.038571428571428 -0.7869905070806101 0.3811369941124783 -0.0007253118907466724 0.000533852752265531 -0.00016532232646065595 -6.832460204792061e-05 -0.9606112912706624 0.06781193339547822
4.039 -0.7825348180965327 0.38505712987291063 -0.0008039761356533171 0.00031314064920193575 -0.0001602006998747626 0.00019684942393604068 -0.9590707194439705 0.06418694612989326
4.039428571428571 -0.77574552064792 0.40146347000568516 -0.0005749998477512555 0.00039988803866326035 -0.00020597429840022764 0.000262058993284224 -0.9631178853082337 0.07047955669901036
4.039857142857143 -0.7798066457566933 0.40053310931408215 -0.00039935602062484023 -1.4988185247133506e-05 -1.0266054014806503e-05 0.00010162112258745896 -0.9694186964336753 0.07057431099801939
4.040285714285714 -0.7743400573597484 0.3991616747843399 4.724011873638262e-05 0.0002345932772841892 -8.640559732917852e-05 1.1921602576800087e-05 -0.9632993648123727 0.07707874903790665
4.0407142857142855 -0.7752983584791748 0.4128745005619797 -0.0004186642756079399 0.00015733934857286826 -0.00013971360268800277 0.0002066140062860266 -0.9591380657449317 0.07575617485796034
4.041142857142857 -0.7610163004598508 0.41728952812303904 -0.0006362247047088424 0.0002502841876830117 0.00021152842528743678 -0.00011708550667911444 -0.9688373316779361 0.08579745449232537
4.041571428571428 -0.7600032339210379 0.42484009542972795 -9.40875729757456e-05 0.00037403783355459034 -0.00020223858076680066 1.9996557762681412e-05 -0.96620054037137 0.08261915891333191
4.042 -0.7567648197371484 0.4343531816324882 -0.0006417168158330518 0.0005068136623187636 -3.680406710128537e-05 0.00011311436563473308 -0.9624884865619567 0.0910507989102371
4.042428571428571 -0.7521171164413636 0.4370399459398671 -0.0006853477455249252 0.0006095556448061463 -0.00027993637143566776 4.116005676207081e-05 -0.9589735460162643 0.09419597835205494
4.042857142857143 -0.7504129782772097 0.4361279396040319 -0.0005337525383180145 0.0009208036757925571 0.00028692108136508414 0.00022644896287674353 -0.9647716126229835 0.08905611252106072
4.043285714285714 -0.7455558755471463 0.4522127585256685 -0.0006359933398800006 1.932265218821633e-05 -0.00019292814741202595 7.287661893889994e-05 -0.9644445827115132 0.08587045072774042
4.043714285714286 -0.7396245671558833 0.453492121896006 -0.0010429985420366758 0.0006887033776556592 -1.8325096463475525e-05 0.000518906034998732 -0.9675238527895513 0.08478751254884205
4.044142857142857 -0.7399180144988418 0.46221697516372506 -0.00034482220370842356 0.0007643314180221848 0.0002792447959705896 -0.00016032184523804798 -0.9643152233871678 0.09654937696395242
