!Created with skrf (http://scikit-rf.org).
# Hz S RI R 50.0 
!freq ReS11 ImS11 ReS21 ImS21 ReS12 ImS12 ReS22 ImS22
4.0 -0.8432136025847209 -0.2481655850448052 -0.00017533533546317358 -0.0005430631737121778 0.0001364509597197036 0.00018258743745068324 -0.9629948439762107 -0.12966800940636514
4.0004285714285714 -0.8502076638564177 -0.2428488964996571 7.952758429364511e-05 -0.0003287905965907684 -0.00020040063661549818 2.1144470280505767e-05 -0.9717589587961286 -0.12265540774294686
4.000857142857143 -0.8542066971653186 -0.23221043374105427 6.099397839987828e-05 -0.0007590581488322901 0.00024048896027911425 0.00010788186438715492 -0.9657281076816012 -0.11700348380779531
4.001285714285714 -0.8481262522448454 -0.22738898857545045 0.00018987027373446985 -0.0002536523992585827 6.850809678058417e-05 0.00025031016800815107 -0.9637903627822842 -0.11705886828340654
4.001714285714286 -0.8541647434993032 -0.21884203402552968 4.580803346090841e-06 -0.0006070881035210545 2.5078671863381224e-06 -6.899747640747501e-05 -0.9656260285188429 -0.12178585370127001
4.002142857142857 -0.8544147930342557 -0.2181562537701841 -7.409812419037615e-06 -0.00015818568225890798 -3.040520834051789e-05 2.5214399161642832e-05 -0.9654183311233323 -0.11222830666285345
4.002571428571429 -0.8559310583235469 -0.20783245254927055 -0.0001647320065791215 -0.00027628334010811447 0.00016206633444545822 7.552105488599302e-05 -0.9708650318918884 -0.1061908279443875
4.003 -0.8606648295578159 -0.19777899014641095 -4.1699839246422745e-05 -0.0005872005066501191 0.00021878222392955645 -0.0001274225099594836 -0.9684259721299452 -0.10439001586390019
4.003428571428572 -0.8628291464181015 -0.19408044381881753 -1.1572136281994635e-05 -0.0009341129908041321 0.00011276561342380022 0.00032079951697071046 -0.9634490985980404 -0.099982560014086
4.003857142857143 -0.8595914637530289 -0.18556691769646583 0.00016084846196750082 -0.000597976796397294 6.81273019582924e-05 8.018345952424091e-05 -0.9705991648755796 -0.11070044718595447
4.0042857142857144 -0.8706610203502366 -0.17805568563629023 -0.00018238259306715588 -0.00044009004693436484 -0.00013034054843173663 -0.0001672749168664013 -0.9655944857056843 -0.10210966070217405
4.004714285714286 -0.8642988912490582 -0.1707083615486354 5.467607721952055e-05 -0.00034606950085854036 -8.626828890465719e-05 5.5492792657745346e-05 -0.9600300501619956 -0.1088393562369594
4.005142857142857 -0.8677971147117968 -0.16091903882246936 -5.5380844179776255e-05 -0.000660724422672847 -0.0002241010741885514 7.931449738258227e-05 -0.9698619361202783 -0.09564123276666672
4.005571428571429 -0.8686875699745469 -0.15520944019219687 -0.0002393499191177997 -0.000630101646341516 0.00013923133387982688 0.00016442250873167794 -0.9595748199515557 -0.09560298128690478
4.006 -0.8706452522085251 -0.15040331512524355 -0.0002801446551259721 -0.0004793959439700063 -0.00033806094381629985 -7.498636366686632e-05 -0.9715789011902525 -0.09374516281907673
4.006428571428572 -0.8698698849628158 -0.14514364683756212 -7.002030391999572e-05 -0.0005725580712065365 -3.2671518036922847e-06 7.082153986295495e-06 -0.9686480180293671 -0.09394976116655016
4.006857142857143 -0.8756670778147674 -0.13346845218586825 -0.0001683055449757097 -0.0004674076118560558 -8.871312752199038e-05 -5.041609454448405e-05 -0.9639398283445331 -0.08763814938236983
4.007285714285715 -0.8765880979492146 -0.127993009197044 1.9114172354656125e-05 -0.0001937888912669357 0.00024641022483371986 0.00015986002002464622 -0.9687187063219631 -0.08283497481831596
4.007714285714286 -0.8767700117460177 -0.12161855587862379 5.14358869975597e-05 0.00011386776918050693 0.00022806036511146342 -7.469548053603067e-05 -0.9630981686365768 -0.0845086972000498
4.0081428571428575 -0.87585271380351 -0.11872331425666711 8.477121585117945e-06 -0.00015381538347173878 -0.00025761137027335184 0.00021983089893665085 -0.9682589473822816 -0.08712827253910328
4.008571428571429 -0.8788247238132012 -0.1057541157778466 -0.0005547974549225504 -0.0005076331122798881 -0.0003751553049837715 -0.00012153107956578067 -0.9624655205123355 -0.07979003786093632
4.009 -0.8790173529947417 -0.10063226238436859 7.954706456639371e-05 -0.00020152096289762007 -0.00015700896509855008 -9.630168061910479e-05 -0.9758862033130008 -0.08774714870462638
4.009428571428572 -0.8776085949605972 -0.09699117292653384 -0.00030191092606494116 -0.0003910192615711892 0.00024966808414405434 0.0003331883064643271 -0.9756866954660336 -0.07549076652475785
4.009857142857143 -0.8799144082399895 -0.08513240332029018 -0.0003622139616260652 -0.00041536261059451897 -0.00011248231432102346 -6.333999631749778e-05 -0.9689047423888949 -0.07095874975380996
4.010285714285715 -0.8837728305814476 -0.07837633230649418 -0.0001963564535110892 -0.0003696292665454871 -0.00011278557681399625 8.832663034124115e-06 -0.9651503662655301 -0.07569173861254644
4.010714285714286 -0.8820576092481679 -0.0736909412936446 -0.00018496494770883028 -0.00013604027252679904 0.00028158681169482676 -4.3389810950541495e-05 -0.9684359550177277 -0.07239129979435124
4.011142857142858 -0.8777353377522189 -0.06820275760720969 -0.00034165867784586847 -2.6171832174135815e-05 0.00012582298832919937 -0.0002008775441808237 -0.9687696151764612 -0.0677901099917326
4.011571428571429 -0.8788360617499102 -0.05532642763468791 -2.9156891402166016e-05 0.0002425492979131804 -0.0002260575378211853 -0.00020575635931035984 -0.9723223564184148 -0.06817992405097789
4.012 -0.8844189072913018 -0.05120541356384982 -0.000424081706301352 -0.00028312755199122556 4.46266141368773e-05 -0.00032745717742641814 -0.9758924109083092 -0.0634946270069199
4.012428571428571 -0.8791124343447839 -0.04217095106049624 -0.00015563801765773513 -0.00033636259617657 -0.00025330092022795816 0.00024068332298317943 -0.9631376184586476 -0.056026695209704304
4.0128571428571425 -0.8869826272641531 -0.03378708906966807 -0.0003877075995515549 -0.0004023367212930248 3.9564679856126314e-05 0.0002347808234766333 -0.9647929876621505 -0.06469807233961043
4.013285714285714 -0.8771143129690021 -0.028540940077162607 -0.0003707629809089484 -0.0003137230388485091 9.359755326283907e-05 0.00019996922367488903 -0.9633238666092304 -0.05942432491581734
4.013714285714285 -0.8821401204582692 -0.02007323037108221 -0.00011318592852058565 -0.00013535466712315356 -8.810594502813628e-06 0.00024130236063517248 -0.976541843727647 -0.05240897865164028
4.014142857142857 -0.8801326873162817 -0.01217833584808136 -4.0571190840214726e-05 5.80087881687241e-05 -4.363100184824982e-05 -0.00017562729322177906 -0.9718419355565058 -0.04843220982119334
4.014571428571428 -0.8800299009641254 -0.010591873692332979 -7.578919498376744e-05 -5.513055331779173e-05 4.5892812499690306e-06 3.7649574980293634e-05 -0.9700528951698117 -0.05185553381501774
4.015 -0.8896402341802826 0.0025085312586999604 -0.0007612702400179952 -8.622353526605037e-05 -0.00018149915503925203 -9.40473256768443e-05 -0.9643736074193446 -0.0526469040463989
4.015428571428571 -0.8856021145711446 0.01316462091933042 -5.19249461905088e-05 -7.27539374463616e-05 2.974682985166102e-05 -0.0003364299965652929 -0.972071813736561 -0.04931043709078394
4.015857142857143 -0.8839038435911281 0.02008823447082882 -0.0003001900357898316 -7.523307600227273e-05 0.000350048978405681 0.00017191822433519136 -0.9705014715998164 -0.04654693666008404
4.016285714285714 -0.8830115317456197 0.02502584525613722 -0.0004665845436534898 -0.00025485554139322356 2.568160023850781e-05 8.014961678816741e-05 -0.9649825347394868 -0.04187920248770368
4.0167142857142855 -0.8833563431260384 0.031022707748764894 -0.00023279269362547688 -0.0003104541710507777 0.00022126351834621263 7.75468173590752e-05 -0.9651694624403536 -0.05005645645046224
4.017142857142857 -0.8795613576039917 0.04050750541617189 -0.00076547292578027 -0.0003205210101072637 -0.0002652758157828332 0.0003322047993336989 -0.9622321099537783 -0.04114301887519358
4.017571428571428 -0.8848493366254389 0.044869308214880686 -0.0004019107901024291 -0.0006326567718602377 0.00010982781265834328 1.5691131948846068e-05 -0.9741874289760131 -0.04218265090777332
4.018 -0.8797771655532272 0.0521252254588263 -0.00018499373163815335 -0.000240254550856319 0.00018229958868051793 0.00027289531877374644 -0.9699481342087378 -0.041813527193057975
4.018428571428571 -0.8845398649020713 0.06051752675184191 -0.0003830809084799052 -3.4435258146576426e-05 0.0003099938188330613 0.0003557875437371115 -0.9735509092498844 -0.03506319547088818
4.018857142857143 -0.8765379363875724 0.06859055927368904 -0.00044628346315879757 -0.00011857572141119853 0.0003111712440509853 -7.319323384733971e-05 -0.9620249496473421 -0.027853876079257774
4.019285714285714 -0.8758520256040957 0.07928518680176237 -0.0002601928861575201 -0.000494701169669078 -0.0003949708886873794 -1.1407408281015215e-05 -0.9706619898094743 -0.027030292283788084
4.019714285714286 -0.8814305175213244 0.0859289313391905 -0.00017105018927644655 -0.00046769239862516973 0.00015308203314330174 0.00019685568826236118 -0.9647757804152091 -0.02948169263623579
4.020142857142857 -0.8794171808176497 0.08982428200086168 -0.00010167848725685167 -0.0005955233374757479 2.1149805568895502e-05 -9.122889020741477e-05 -0.9685313850802006 -0.026151597918960445
4.0205714285714285 -0.8785565213832595 0.10595593182139265 -0.0006234623675771863 -2.802637982738379e-05 -6.0797984736452185e-05 1.7524037293471944e-05 -0.9699721670875051 -0.02816003996562711
4.021 -0.8759052149037676 0.10421137851899963 -0.00043588146553960957 -0.0003691074731255457 0.00022543261612890364 -0.00025075552508959026 -0.9655661719808626 -0.022303201725905164
4.021428571428571 -0.8750900037233672 0.11632388790292228 -1.9755208071507042e-05 -0.00010043654938896633 -0.0004369172867379786 0.00018558546963333704 -0.9691341219039014 -0.01988380425355135
4.021857142857143 -0.8753478567588133 0.11915122196053696 -0.00045999274088509985 -0.00017256261809993071 -0.00015089326296553447 -7.274575413110746e-05 -0.966594618106425 -0.01734404451107692
4.022285714285714 -0.8681700628093578 0.12279536946231019 -0.0006123579795239308 -0.00015548196125158878 0.00014473049926252572 -0.00016619868541976448 -0.9761836335958731 -0.008985009243984586
4.022714285714286 -0.8737133137234344 0.13873619314639327 -0.0004755024293175634 -0.00038491471735701047 -0.00023411906476904524 -0.00027531786212756483 -0.9661957394862818 -0.015194771911340535
4.023142857142857 -0.8687131075055314 0.14334416244570317 -0.0005679446755436394 -0.0002156775390114237 -0.00011726059236740613 -0.00014299013203179087 -0.9669012906166181 -0.009040106282860162
4.023571428571429 -0.8712060422033089 0.1458201147050092 -0.0008247106689159606 -0.00031206606393676127 -0.0001853967598244641 0.00013371740867809228 -0.9605561867758361 -0.006765881616394421
4.024 -0.8643069454962916 0.15782731899365773 -0.000456671637729747 -0.0005490078174825824 -3.631687210176186e-05 -0.0001260964311201244 -0.9729802710415005 -0.008665958286343133
4.0244285714285715 -0.8669377824906599 0.1620416359486743 -0.00033802344282229843 0.000258217575273947 -0.000149040225026644 -4.513851803844141e-05 -0.9687875272492449 -0.00434224765867145
4.024857142857143 -0.8688597460466685 0.17398860444529268 -0.00015233532709867217 -0.00015437167102008432 0.00010186781351153 0.00034494256096123264 -0.9679678941872805 0.0010401964358034243
4.025285714285714 -0.8675914080866207 0.18035638787667546 -0.0005341223335407454 -0.00010134405795550777 0.00014381074418078565 6.061735224683768e-05 -0.9663705194689849 0.003023138886831483
4.025714285714286 -0.8649278634735383 0.18641945649064232 -0.0005500196663317203 -1.310685649244894e-05 -0.00012513420351365 6.675543600980944e-05 -0.9751457435852361 0.007951267744567577
4.026142857142857 -0.8681955701385835 0.19245115447653877 -0.0006069738663482665 -0.0003194369839239294 0.0001947831008814385 -8.797254117441785e-05 -0.9693495031610756 0.0034358882122117636
4.026571428571429 -0.8554680011636725 0.2008856104614495 -0.0005567193146076609 -0.00027863267442283465 7.48891558941773e-05 0.00017084604462396362 -0.9745409348714872 0.0072925712862414145
4.027 -0.8579765509809321 0.20801099978729232 -0.00029274914253882636 7.80436225929038e-05 -6.548808117524561e-05 5.165694821022054e-05 -0.9699963188466851 0.004490844090189725
4.027428571428572 -0.8605855247020425 0.21016594077928052 -0.0007030861489161337 0.0003230089965517954 8.608904965943128e-05 8.962606067212306e-05 -0.9673193084796291 0.015492425976098716
4.027857142857143 -0.856005186117859 0.21725781086048457 -0.00037941940151261735 -0.00025695905450472974 4.822918040087609e-05 0.00018584453596447905 -0.9730486756881055 0.01026099372527216
4.0282857142857145 -0.8532809499311529 0.23426162415280527 -0.0006740778072536178 -0.00033993018328368235 0.00020761372864889975 7.28317607141585e-05 -0.9730533479925284 0.019269576223655507
4.028714285714286 -0.8583829681630423 0.2322302354555342 -0.000843859663085846 -0.0002603770478991368 5.953175894974511e-06 5.3364059420037e-06 -0.9693306418606488 0.013498626508776456
4.029142857142857 -0.85193939342629 0.24475167494574945 -0.0004857766769879313 0.00033143352587636124 -0.00024877962952941603 9.593618730443486e-05 -0.9693890809351903 0.024412116806630437
4.029571428571429 -0.8519289504295983 0.24787904044976575 -0.0005887545664687968 -0.0002268070580594933 -4.995207701309636e-05 -0.00013636205067935764 -0.9639964614667451 0.01997518859011651
4.03 -0.8454154158260287 0.2540067279663475 -0.0007165052965588424 0.00015385289737630307 -8.660194623521622e-05 -0.0001064703001112288 -0.9720354306683006 0.03043820855233577
4.030428571428572 -0.8450523438070663 0.26481089148242565 -1.3018423054350359e-05 -9.33281646240996e-05 -0.0002539780056544782 -0.00010500292400833384 -0.9704124310224933 0.02688623373762494
4.030857142857143 -0.8439632811937371 0.2672067410834612 -0.0006813843362742698 -0.0003982923030796871 -0.00034944776177495444 -1.9480159640562325e-05 -0.972403132696965 0.020812739693939566
4.031285714285715 -0.8388359588895108 0.27641760013598143 -0.0006897077918904213 0.00039493465071598066 9.351724761610067e-05 0.0001204225947110527 -0.9675899112463351 0.03329488735011381
4.031714285714286 -0.8351504808196565 0.27744033180929106 -0.0007698654937432566 9.266591626160006e-05 0.00022149592290867398 5.771921390660912e-06 -0.9653402297140538 0.02348808254949952
4.0321428571428575 -0.8319551388199599 0.2896009086631459 -0.0005533049239878156 7.154574835697404e-05 -7.069597034148582e-05 -0.0003112101759135003 -0.9732175257846054 0.034864686194147926
4.032571428571429 -0.8325380602175556 0.29716522332611695 -0.00018187566355074876 -0.00022699844671027436 -6.92542915345631e-07 1.3011458424109999e-05 -0.96552808547242 0.046520143840584297
4.033 -0.8321121489218181 0.3029839492424424 -0.0001264098165198398 0.00027034749399378196 -0.00018078445216714693 0.00012790763976643728 -0.966889809298347 0.044614788733942645
4.033428571428572 -0.8339890126997371 0.31079369266362744 -0.0006266040795399367 0.00022926360507461653 0.00024366815378840952 0.00010710176729801801 -0.9640669524945773 0.03916721831123168
4.033857142857143 -0.8277038757775569 0.3180286420499686 -0.0005923491305986555 4.167519740297951e-06 3.3221121810821533e-05 0.00017274992265628786 -0.9632003065723447 0.04367627692217573
4.034285714285715 -0.8197136235435553 0.32154071288390096 -0.00026336744482526633 -0.0001372945312124132 -0.00018219913496027619 0.000318173641466534 -0.965650594093011 0.040421819496836875
4.034714285714286 -0.8125451490276477 0.3341335036702238 -0.000293283016950655 -5.3230252072870054e-05 0.00011279625617633967 -2.4612094964312585e-05 -0.9653197781832675 0.05224744018303995
4.035142857142857 -0.8157583645830259 0.3381739777574088 -0.00018267492260013853 0.00034747549207088776 -1.740756840721678e-05 -6.357588700478761e-05 -0.9693962813948148 0.051361556473585805
4.035571428571428 -0.8084536637744805 0.3455647562334012 -0.000565860465490208 3.533994823005142e-05 8.687046874159561e-05 0.00011771692786919896 -0.9674973721078183 0.05610399671153871
4.036 -0.8046879619598829 0.35497940242533926 -0.000371547892642759 2.92434233412982e-05 -0.0001420559690804735 -3.5983317969192504e-05 -0.9688059998084073 0.0574629566005297
4.036428571428571 -0.813810912772559 0.35305655126092406 -0.00027885289290914886 0.00011463293749687936 5.632580394885426e-05 -7.425283876609798e-05 -0.96823551102644 0.05247945497696437
4.0368571428571425 -0.807819612161533 0.36606557758024894 -0.00010448503240681203 -8.399872218463099e-05 -0.0004554373412947269 0.00016628353274725533 -0.9711200515714927 0.05439062433138359
4.037285714285714 -0.798121909972147 0.3727250028079302 -0.0005180131986804416 3.136197081810787e-05 0.0001237724813355749 -0.00015965065848258362 -0.9640328336580297 0.05895419535196448
4.037714285714285 -0.7969082015053917 0.3748156526003384 -0.0002927341664937262 6.0074813545885106e-05 -0.00024467495135067603 -0.00029030583813794217 -0.970586022124394 0.0540705370933158
4.038142857142857 -0.7929466428617598 0.3930157183025885 -4.230455928764428e-05 0.0004025276836439037 3.2555751664372085e-06 0.00012444637587100452 -0.965046937726829 0.061214577383782894
4.038571428571428 -0.7946776126849426 0.39170325258714694 -0.0005761608686427698 -0.00017939819263598905 3.5315589357942594e-06 -0.00022148833383150366 -0.9617387336935671 0.06475741451723466
4.039 -0.7907400019862361 0.3963551271907006 -0.00038989025165530336 -5.4452823224007774e-05 -5.785591412607147e-05 -8.728917031837178e-05 -0.9607640979898837 0.0642886852349324
4.039428571428571 -0.7817859563976974 0.4133463426349324 -0.0005513023521977487 -0.0002703834639779363 8.980016527295864e-05 -0.00010441945412979344 -0.9640156513452858 0.06931259310315377
4.039857142857143 -0.7858683114395146 0.4109529457991819 -0.0002929862281509341 0.0004310832266575472 7.572503056502284e-05 7.338162114150361e-05 -0.9716217386048925 0.06819991609684385
4.040285714285714 -0.7800136263807129 0.4130561343098205 -0.0003356671565108223 2.4817940342953585e-05 0.00025296819860928235 0.00024523477652680194 -0.9630317278449955 0.07553843062969016
4.0407142857142855 -0.7811348937021295 0.4250936849644271 -0.0006076514441404317 -0.00012129291092074938 0.0001375317018391992 7.558773971737341e-05 -0.9604155981865942 0.07498300220972505
4.041142857142857 -0.7677522409413133 0.428481058749764 -0.00020686368510022262 0.00042470576348816927 0.00027405474329180726 0.00016013103444604513 -0.9707845778951466 0.0838093795461429
4.041571428571428 -0.7653951747236205 0.43664099811357954 -0.0004186007205866992 0.00019579104005196927 0.00021384417301678081 -0.0002121933875163694 -0.9664156486663478 0.08114913433487822
4.042 -0.7622735965644383 0.4461844305681369 -0.0001851778729370665 0.00023555223309134997 7.619236154221472e-05 -1.8478464609643457e-05 -0.9640001397535608 0.08736140259296836
4.042428571428571 -0.75938312952072 0.4493760502259812 -0.0009525659070163687 0.0004300318831044621 -0.00012254206611259492 -0.00012230749092488762 -0.9592927100030659 0.09021626331667833
4.042857142857143 -0.7586581279864577 0.44658876490587646 -0.0007198210784328849 0.0004662020805966133 -8.16047633863146e-06 9.57966784087372e-05 -0.9647376302590495 0.08629843553616348
4.043285714285714 -0.7529644172231795 0.4646920911525245 -0.0005106807442396578 0.0003454960051484897 4.892406755272809e-05 -0.00027786563483619975 -0.9659032636381158 0.08387503127536165
4.043714285714286 -0.7439768732293166 0.4649238256520469 -4.6258266447033446e-05 0.000212013069020254 -2.6239626075309702e-05 0.0002692141767678223 -0.9666913875519659 0.08215247784658385
4.044142857142857 -0.7451778553658268 0.4769452936343277 -0.0005343745800620158 0.0006501132590624912 -4.264591708824271e-05 -0.00015000189086775728 -0.9611372449173887 0.09635155522267189
