!Created with skrf (http://scikit-rf.org).
# Hz S RI R 50.0 
!freq ReS11 ImS11 ReS21 ImS21 ReS12 ImS12 ReS22 ImS22
4.0 -0.8377981596829357 -0.2539083077529114 1.807748719008882e-05 -0.00047150677914071436 0.00011867581050834631 7.564386249179997e-06 -0.961798875012883 -0.1309135904013587
4.0004285714285714 -0.8453043276145276 -0.248889569284865 -0.00017252150216128423 -0.00048257108393186216 -0.00019512881361291007 6.744141756410343e-05 -0.9703272467744236 -0.12311337147326072
4.000857142857143 -0.8489000988757219 -0.23807720151664621 -0.0004017403363406807 -0.0005101166557026515 6.069335274023468e-05 0.00017290811519972912 -0.9673811336865317 -0.11613899339995444
4.001285714285714 -0.8434512949062261 -0.23159738424989543 0.00018642432148609401 -0.0005761295732214911 -0.00012191446472913191 -3.565157428124048e-05 -0.9635443628309645 -0.11706701919788985
4.001714285714286 -0.8496022780174832 -0.2255278514189429 0.0002492138222364065 5.234434784237054e-05 1.484749065505899e-06 -9.090310614819425e-06 -0.9664455782581486 -0.12151657783021745
4.002142857142857 -0.8490529241018673 -0.22555577767015436 -0.0001667307892160457 -0.00018258080875461363 -0.00017231145973010682 0.0002538100946098649 -0.9657016688959854 -0.11084310527445312
4.002571428571429 -0.8516277287937084 -0.21403416664937694 3.440850958830103e-05 -0.0007292466737168567 -0.0001641270019268825 2.1947899911102524e-05 -0.9702422949830141 -0.10503457762639559
4.003 -0.8559473987371986 -0.20299873996218795 -6.337385905738974e-05 -0.0005381179018978033 -5.174656828878589e-05 3.3641065337059194e-05 -0.9674944971268007 -0.10405056922063546
4.003428571428572 -0.8589385654799687 -0.19997886694012865 -0.0001118225071153288 -0.0001866701065964574 0.00013743356933421287 -7.724804401097517e-05 -0.9610990550599822 -0.0972063756508035
4.003857142857143 -0.8557455714059146 -0.19166571743253488 -0.00033915819361867426 -0.0005383347302542331 2.0931611534582217e-06 5.42021613447554e-05 -0.9710688426868724 -0.10971279150588517
4.0042857142857144 -0.8663559526931164 -0.1856426574907523 -0.00035496589484423186 -0.0003378024456508867 0.00021030393327099858 -3.6295799822647644e-05 -0.9658776917541333 -0.09893923326498756
4.004714285714286 -0.8605848273983787 -0.1752634969191217 -0.0004643290489442811 -0.0003081712357284586 -0.00017849246962515583 4.1892172710081376e-05 -0.9596476737549786 -0.10847401859356919
4.005142857142857 -0.8626664934336 -0.1658478150081769 -0.0001023782026015217 -0.0006843894507810501 -3.789640412067544e-05 0.0004127295694950636 -0.9684982615254923 -0.09537708582062022
4.005571428571429 -0.8634793292845783 -0.1620037741378998 1.7203843131712614e-05 -0.00039479002016662104 -6.324359668363226e-05 -0.00018625113963427982 -0.962648897907179 -0.09522370364278727
4.006 -0.8667127815027127 -0.157056830800453 -4.550352163249708e-06 -0.00026100594345675795 6.0775873431775595e-05 0.00012001010260831658 -0.9718696364565943 -0.09525909094034384
4.006428571428572 -0.865424609531154 -0.15173526495898587 3.654074679156138e-05 -0.0007618156395435579 0.0002708912317431104 -0.000132394772989324 -0.9677202619966719 -0.09183716456123003
4.006857142857143 -0.8701061435781648 -0.14079132000534064 -0.00013234056492748085 -0.00022523532888394951 0.00038694287290998473 -0.00015224506500248063 -0.9634568170385043 -0.0858662640900921
4.007285714285715 -0.8737116965642672 -0.1336544413906012 0.00016238678040197456 -0.0005121600730896468 0.0002968384825748022 0.00014001907983096661 -0.968745164494632 -0.07965349712817735
4.007714285714286 -0.8706021439424485 -0.12966529699883522 -0.0004053701949320908 -0.0003801849841009707 -5.827718840678844e-05 -0.00011771470399400861 -0.9635539553872957 -0.08305571622882932
4.0081428571428575 -0.8708071686409974 -0.1266409860900313 -0.0003762213449557552 -0.0006921282194523102 -0.00021824071676251677 -0.00013494309547159195 -0.965497008636203 -0.08823025626689066
4.008571428571429 -0.874121392191826 -0.11175346584891871 -0.00029420578991766775 -5.2845173236733315e-05 6.956155079963925e-05 -0.0001177398309956569 -0.9661237406246674 -0.07860663851052971
4.009 -0.876349830742011 -0.10709933334824202 -0.00015454818220635443 -8.07187916460723e-05 -0.00019437789309512815 -7.517271701435389e-05 -0.9744220518949762 -0.08503011576344395
4.009428571428572 -0.8730726229591027 -0.10406622203275318 0.0002074861463452796 -0.0002843843062793931 0.00014688002004560705 0.00010901532169264642 -0.9754619470607679 -0.07607762321710963
4.009857142857143 -0.8764072183145084 -0.0923098479935227 -0.00031027402337976343 -0.00015882511021527806 3.673769528113079e-05 -0.00012411150967829297 -0.966567397824606 -0.07034422891907635
4.010285714285715 -0.8790623811432842 -0.08590459459749901 -0.00028246284063669283 -0.0004782144766299817 -0.00017731041579045322 2.1469443651014584e-05 -0.9642529433241681 -0.07376518114191752
4.010714285714286 -0.878139121885715 -0.07919967674170547 0.00028285004678690006 -0.00018181552251839492 -0.0004159846510112264 0.0002528061450400016 -0.9683507581980274 -0.07255933734936194
4.011142857142858 -0.8738281684996199 -0.07476882238196322 -0.0004607437665901076 -0.0002850830927513117 -4.3907623003108444e-05 -0.0001874586058313294 -0.969039506308474 -0.06534397635282352
4.011571428571429 -0.8754943391563677 -0.06268659102719285 -0.0005615475088349691 -0.00016079104791562218 -0.00012364780235025617 0.00011582160266652907 -0.9712717104156317 -0.06713360059766409
4.012 -0.8793265372022063 -0.058733942164340636 6.559199411233511e-05 -0.0007222117668426384 2.6896581552944715e-05 -0.00014610265338174457 -0.9761815107162811 -0.061680381108734875
4.012428571428571 -0.8747028063947764 -0.05001815440526819 -5.69571012726683e-05 -0.0003982097720531661 0.00013687650297285696 5.524460785522573e-05 -0.962462841769348 -0.05515610777511054
4.0128571428571425 -0.8852166063532194 -0.039546304607225934 -3.7846269301477016e-05 -0.00033164469697346074 0.0002200304657637549 -5.397506354429946e-05 -0.9642843851240949 -0.061922123070765875
4.013285714285714 -0.8750896807538389 -0.035144904328800255 -0.0003539056561090423 -0.000297790892438697 -3.238401420390152e-05 5.2717590887118996e-05 -0.9630026423847734 -0.05866291739294668
4.013714285714285 -0.8778414391149415 -0.02810809732440564 -0.00032028773480610246 -0.00033550287999825265 -0.00029501929738348393 0.00011611785740280411 -0.9746158297718843 -0.051370866067735436
4.014142857142857 -0.8777530589000933 -0.019361173034783668 -0.00017430743413008202 -0.0001258314310213944 -8.764428073664963e-05 0.00013227028168787244 -0.970839664724787 -0.04653221829512451
4.014571428571428 -0.8764087454094657 -0.017027543502578 -0.0003626796297547088 -0.00017441841142039493 -5.1961886276160676e-05 -0.00025498230809423573 -0.9695538181870857 -0.05220932099573947
4.015 -0.8850968410827352 -0.003409866626025635 -0.0003676239003483582 -0.0003794327610257158 0.0001118482783007659 -0.00012267776320136822 -0.9664263000997629 -0.05043414709337435
4.015428571428571 -0.881780233468273 0.005388554511523016 -0.0002713277244289778 -0.00011835046166856991 3.768721571489304e-05 7.669012127020361e-07 -0.971254333615763 -0.047924513106466594
4.015857142857143 -0.8801582162158833 0.012735548928921859 -6.162217860306994e-05 -0.0005072394657782041 2.2005811597832512e-05 -5.226850892104257e-05 -0.9705986648745438 -0.04607137064582668
4.016285714285714 -0.8804205249943646 0.01816490577832431 -0.00012548850760912638 -2.6776061432657138e-05 -0.00023398271552368765 0.00014054557379924407 -0.9662165121443558 -0.040792886289101216
4.0167142857142855 -0.8788237027693727 0.024728479947009895 -0.00018080805622312058 -0.00018599967145063653 -3.101199788480972e-05 0.00024372565837836704 -0.964460262161101 -0.047655418815416
4.017142857142857 -0.8753407279726091 0.03365478491686726 -0.000617058888949247 -0.000520576517742742 -8.325972339111837e-05 0.0003147267361240731 -0.9598708702491862 -0.040487883457052114
4.017571428571428 -0.8806138323493002 0.03821979636429475 -0.00011295478709454879 -0.00028998001190374303 2.0594001820941753e-05 2.2773798617929515e-05 -0.9726898212479078 -0.04090877760658612
4.018 -0.8757446428923764 0.04287594928027623 -0.00043995181709808765 -0.00020301839095628575 0.0002506715975512581 -0.0002157867756592 -0.9705671128514146 -0.039250881374108454
4.018428571428571 -0.8800021877094409 0.05167418065304961 -0.00017130371976996835 9.429854602380381e-06 -0.00011231784793127348 2.4917010514291595e-05 -0.9705602732384527 -0.03309635112429732
4.018857142857143 -0.8738364703184616 0.06172746871688028 -0.00015194031744941762 -0.00038775588236347015 1.7838276248539534e-05 5.153386145118691e-05 -0.963252997907452 -0.02617463971923627
4.019285714285714 -0.8727627137374987 0.07181559787989493 -0.0007506281076976471 -0.00040273212415497134 7.941379515816569e-05 -2.6264991349381892e-05 -0.9706874866864897 -0.028030312215052526
4.019714285714286 -0.8765973152679826 0.07907536433832536 -0.00028740917942469214 -0.00019146872761024772 -0.00013010508127731454 4.40731183212558e-05 -0.965068856939037 -0.027778732979520812
4.020142857142857 -0.876102215960842 0.08242243892865013 -0.00027164475094545114 -0.0001900038922661113 -7.357098771582706e-05 8.263749913357733e-05 -0.9690171239691566 -0.0221891292486071
4.0205714285714285 -0.8763955422319119 0.09812478940587659 -0.00045981800119484985 -0.00028322887970682394 0.0003622677488358106 -6.980134930025386e-05 -0.967402470177707 -0.02611057836998808
4.021 -0.8724660286401875 0.09731228097432948 -0.00041571781656951287 -0.00015742098452082705 0.00011287170067847229 -0.00015166756193191465 -0.9665144599527015 -0.02173518990893388
4.021428571428571 -0.8710121595113817 0.10859601498756577 -0.00024539513397364205 3.602915560998759e-06 0.000292035715669368 -0.0001326590149866282 -0.9682311445112842 -0.019288892522743382
4.021857142857143 -0.8731566427076471 0.11270995824765564 -0.0003930006277530208 7.065016555633032e-06 -0.00019266977361934358 -0.00015513045992286264 -0.9672230592840075 -0.014388905676836374
4.022285714285714 -0.8657236826531695 0.11677540829263541 -0.0005833790660633811 -0.00048718448731703367 -1.2923826818852287e-05 0.0002143874063320069 -0.9748131092703833 -0.009293123497715142
4.022714285714286 -0.8724047398502436 0.13378231588257714 -0.00029449417540424323 -0.00015516660145085728 0.0003811402445009318 -0.00022600472236163278 -0.9671689953641563 -0.013492465789783706
4.023142857142857 -0.8656557008821903 0.13629460586133574 -0.0005263432688761334 -0.0002946533063004679 -9.69843111303299e-05 -7.584665119789337e-05 -0.9692902944775915 -0.006727733438547625
4.023571428571429 -0.8681011597317195 0.13778117547899457 -0.0006387623269468982 -0.0003245655648372093 -0.0003627910969059014 0.0003106677946036336 -0.9656323512713497 -0.005038142822157969
4.024 -0.8631682668576618 0.15029147505612334 -0.0005890996223773946 -7.666990260418441e-05 8.29238341168907e-06 -9.545876955526915e-05 -0.9700566077444801 -0.007646458516802869
4.0244285714285715 -0.8671134348162179 0.15553477377817818 -0.0006530679144565779 7.768958658558982e-05 0.00023366038946734386 5.1732935700334406e-05 -0.9706611007072709 -0.0033315604942566433
4.024857142857143 -0.8653129790798839 0.16631329441974238 -0.000390507693137658 -0.00023529925969377659 -0.00012519549944749533 -0.00028076204178504953 -0.968846717397414 -7.631662202116082e-05
4.025285714285714 -0.8646248957336709 0.17437729206968317 -0.00024275906189861972 0.0001707358269926252 -0.0003574075832595645 -0.00032034053969470344 -0.9660569960829948 0.004022619776059285
4.025714285714286 -0.8629632013815325 0.178772776318982 -0.0005822884920510101 -0.0005447504215259505 0.0001591745262677873 -0.0001168789681538402 -0.9756807523151148 0.008144607888145972
4.026142857142857 -0.8651230202725003 0.186619447389504 -0.00039999776037481907 -1.550241450099406e-05 -0.0002723514973388527 -0.0002667518892676524 -0.967594740976417 0.00036615149534262363
4.026571428571429 -0.8521319400366912 0.19424075020130585 -0.0003727791573344565 -0.00026323910880225217 -1.739111406651151e-05 -9.10590850685868e-06 -0.9728465693289786 0.007913750103289442
4.027 -0.8555714584816243 0.20026214396129896 -0.0004932410284127542 2.2687518590990966e-05 0.00016455992697591247 -0.00011630698467580912 -0.9681330809376502 0.003965755851198168
4.027428571428572 -0.8582057496313041 0.2010493548068527 -0.0006328804416925626 -0.00017637463012790705 -3.747544537548556e-05 -0.00023792065715183897 -0.9662041498504758 0.016404086452109643
4.027857142857143 -0.8519596738179588 0.2094426269516442 -2.767874437939329e-05 -0.0002468742726310976 3.4330956353989514e-06 9.260878195309833e-05 -0.9750436849693258 0.011014824586143604
4.0282857142857145 -0.8512209042981197 0.2261535398450546 -0.00011714167459448525 9.464936322606075e-05 -0.00026017665935866954 -0.00023465712085710252 -0.9725753967591488 0.021758311867114175
4.028714285714286 -0.8562931463804259 0.22270809438145867 -0.0009472504855302521 -2.4404387526733822e-05 0.00011643205551285668 -3.5355861760153e-05 -0.9690946228415576 0.013951669539583697
4.029142857142857 -0.8514470560682418 0.2383335620497757 -0.0003092355539480438 -0.00043890605003152024 -1.2762443518975948e-05 -0.0002922821686027131 -0.9696636627917549 0.02343611156005038
4.029571428571429 -0.8507332628488221 0.2387468287175591 -0.0006017265868824859 -0.0002152256161330259 0.00028779753600715057 0.0002424763608299176 -0.9647015972200884 0.018315992533224336
4.03 -0.8435643081780083 0.2465233658319913 -0.0004624715861368009 0.00017574539195138578 0.0003218878297734974 0.0002849882419138961 -0.9708919346632975 0.03422830060882581
4.030428571428572 -0.8424491267301069 0.2566419011896295 -0.00043776495299978325 -0.0001492273596063526 7.78199155274533e-05 0.0001919109066221082 -0.9682270940234607 0.02805389329568586
4.030857142857143 -0.8447668819006642 0.2602900743499944 -0.0001339409275527089 8.492237906248934e-05 -0.0002703796957283056 -8.082114664862981e-05 -0.9734813939007133 0.022302601211037484
4.031285714285715 -0.836150950309027 0.2689833289612407 -0.0004366817249159877 -0.00020781180027778357 3.201099965578167e-05 -0.0004277029344206843 -0.9685853495062734 0.03486744095285109
4.031714285714286 -0.8320444628121914 0.27221480160235034 -0.0004362491111182203 0.00015495965749448397 6.676561575154303e-05 -2.4619569650635943e-05 -0.9635351665375895 0.025349914147047518
4.0321428571428575 -0.8314516187510127 0.2814778704544101 -0.00020967992268007462 0.00017591787730290083 9.582314231153423e-05 -0.00024751299707895957 -0.9717917000289751 0.034900825836437444
4.032571428571429 -0.831710595923113 0.28924634820595807 -0.0005404535321105493 0.00019672377448770335 0.00011788876999147055 0.00011931249469938127 -0.9653489410335814 0.04342948618415755
4.033 -0.8279806490018721 0.29468269815526044 -0.0006273437120400726 -0.00025744148806278487 7.146907537958533e-05 -8.800785943433376e-05 -0.9653249705051262 0.04387329336612416
4.033428571428572 -0.8341750928851319 0.3037215889094561 -0.00019869209921681948 -0.00026119116046579134 -8.539527557380797e-05 0.00017809685968885177 -0.9663137416475713 0.03877848090024052
4.033857142857143 -0.8255698940264563 0.31164629964191276 -0.0003989894289084859 0.0003842716782543891 -0.00015893720507097428 -0.00010823614238871082 -0.9611947727874424 0.04523877885010601
4.034285714285715 -0.819252615084676 0.3147013965727014 -0.0004987318536472572 -5.29811267985101e-05 -0.00013896630665471258 -9.404466960863504e-05 -0.9670828502219007 0.042130977331277374
4.034714285714286 -0.8125019638189802 0.327118745929107 0.00010073889613158064 0.00011373802974955143 0.0001700247042246429 -7.906926362240393e-05 -0.9675664806377713 0.05082415650382372
4.035142857142857 -0.815675874176857 0.33130506552961 -0.0005425521098581902 -0.00023356794723313704 -0.0002335382207528545 1.2573205637169912e-05 -0.966544894529223 0.05244375209271292
4.035571428571428 -0.8079787464799761 0.33759383114985886 -0.00022103865660050374 0.00012086640353316163 -0.0003310152777390107 1.562434176557534e-05 -0.9662176202420844 0.05614587584952979
4.036 -0.806331357945028 0.34862293272954337 -0.000660576215558129 0.0005031750318633343 -0.00013155442243784827 -0.0002565956231321424 -0.9716313836157467 0.05646636093728312
4.036428571428571 -0.8123195513588218 0.34606137338961784 -0.0003722243094756266 0.00015551234373530745 0.0001222112113410994 -1.592631910955202e-05 -0.9684860307611781 0.053473886378357205
4.0368571428571425 -0.8072464157641062 0.35804829518349035 -0.0003542935409960572 0.00015946231247330412 -5.463391361206473e-05 -0.00030202986466016784 -0.9698403165554615 0.055104412254214925
4.037285714285714 -0.8000809540646059 0.3656580516580925 -0.0005603095758982986 0.0005466135878355981 2.5808635449258226e-05 -0.00012447963409641468 -0.9623903014942836 0.060021594426761894
4.037714285714285 -0.79791618630165 0.3663844406890395 -0.000647113305122563 0.00021371458896113243 0.00022457336851432696 -0.0001475994006620538 -0.9685725844151097 0.05529244547711686
4.038142857142857 -0.793709170313375 0.38518110719953863 -0.00030126128360841045 0.00037595639015568824 9.703226670982057e-06 -2.1443186347503568e-05 -0.9628199433539574 0.0607629003624833
4.038571428571428 -0.7934553952606284 0.3827984894631867 -0.00014322865755231806 0.00010808047212214675 -0.00011274844213840928 -0.0001092038562537979 -0.9608004008714678 0.06582222944801257
4.039 -0.787119969774415 0.3880005335247473 -0.0003309409889136214 0.00020919121606355099 7.088109754169182e-05 0.00011759226338431103 -0.9604267070246728 0.06531193620341386
4.039428571428571 -0.7809239312460076 0.4057217280289747 -5.209745916778151e-06 0.00017162944961046593 0.00011849817961087698 0.00023168813414058346 -0.9631821210155579 0.06805449778700252
4.039857142857143 -0.7853519686428312 0.4048526738669316 -0.0007295793464298146 0.0004103108155065864 -0.0002867117780709346 -0.00016080675485049664 -0.9687884865209248 0.0704037035124134
4.040285714285714 -0.7796535508278174 0.4045599662911714 -0.000645811606301806 0.00035302898298328973 -1.2079737949254527e-05 -0.00012084521270379468 -0.9641936312462176 0.07510590014993297
4.0407142857142855 -0.7802352702700459 0.4171169207311006 -0.000301884333626912 0.0008809165160132388 3.92759213763362e-05 -0.00011823008118076445 -0.9580614351076795 0.07729278041312154
4.041142857142857 -0.767011514901852 0.42114154323529285 -0.0007356024699910102 -9.724963888391912e-05 -0.00014614310967135652 -0.00017424752931047827 -0.9685092669020782 0.08595480228074386
4.041571428571428 -0.7657260188375714 0.4281596276661853 -0.00038342728587568325 0.0002351617798114338 -0.00036377534885520085 0.0003086168165580963 -0.9641668101177887 0.08300121709586053
4.042 -0.7628341470403162 0.4390198194944389 9.991295158280804e-05 6.803120482146438e-05 0.00034534954859511465 -5.5526039929929104e-05 -0.962985925912368 0.08947588823190195
4.042428571428571 -0.7572929027175856 0.442322394855897 -0.0003861977130112697 -7.589435813201164e-05 -0.000207292954113072 -3.170100728169951e-05 -0.9603599410095686 0.0940733881222381
4.042857142857143 -0.7586604091172172 0.439018685675697 -0.0005215302610339103 0.00024151598479364752 0.00020626038672022328 -0.0001966616317661126 -0.9645593627874535 0.08725197081537527
4.043285714285714 -0.7517888238678483 0.4567108315151166 -0.0003422613923837677 0.0006418625678487422 9.128243513446897e-05 -7.325920189517653e-05 -0.9649160156650165 0.08512574202619018
4.043714285714286 -0.7437956989731023 0.4572342146242288 -0.0004848078522777794 0.0003840349343825086 4.190603170384178e-05 2.1696482961117154e-05 -0.9662222858337361 0.08148051083478643
4.044142857142857 -0.7444985475389345 0.4684663512082787 -0.00042576002049527937 -4.2000944993112005e-05 2.8407586198147387e-05 1.388728671838617e-05 -0.9625694220582995 0.09944693807551662
