!Created with skrf (http://scikit-rf.org).
# Hz S RI R 50.0 
!freq ReS11 ImS11 ReS21 ImS21 ReS12 ImS12 ReS22 ImS22
4.0 -0.8411537628265978 -0.25035220251952817 0.00020599350562150207 -0.00010251023787701522 0.00012795810829247664 -4.974841413323458e-05 -0.964788963364733 -0.130574285915492
4.0004285714285714 -0.8487977582425679 -0.24371802133411988 5.666762003400206e-05 -0.00024184820671764308 0.0002503582725039846 -0.0002045538406636128 -0.9699696976518358 -0.12373448959165649
4.000857142857143 -0.8535619044720593 -0.23422242093388074 -0.00014016490607717463 -0.0004099941314206709 0.00010371509577230853 -0.00014369479816992876 -0.9667286626062094 -0.11630301775305911
4.001285714285714 -0.8461397906192976 -0.23138566289136542 9.468808769966619e-05 -0.0005028461965829274 -0.00015549564349359675 -0.00013768284338046234 -0.9635938760412629 -0.1155413544406547
4.001714285714286 -0.8528343319640734 -0.2213883900399428 -0.00021415284155294168 -0.00017367973625656593 -3.89334941224418e-05 5.651495551514431e-05 -0.9672991957377173 -0.12240117054851128
4.002142857142857 -0.8520598340587718 -0.22056523840727627 0.0001749292112878045 -0.0006948363170732987 -9.560795084312191e-05 -1.9595256855624256e-06 -0.9660973941622222 -0.11199912918773229
4.002571428571429 -0.8537566582886281 -0.21106235928652736 -0.00020266168991846608 -0.000503873949065142 -9.871074067003286e-05 0.000153604779302896 -0.970346503554376 -0.1036532246761979
4.003 -0.8580537752596742 -0.20030774176978638 -7.850552496650466e-05 -0.00044540008879316844 9.328061961828455e-05 6.138750117582175e-05 -0.9671838122714288 -0.10402225043748986
4.003428571428572 -0.8606917986601774 -0.1949686932523401 -5.504302161492943e-05 -0.0004411614795997443 0.0001152437679993597 9.9883306391741e-05 -0.9626371134787279 -0.0964557023742012
4.003857142857143 -0.8568431467232699 -0.18791726996036706 -0.00023725779997406415 -0.000376252491384586 -2.9551051864927594e-05 -0.00018717299865684143 -0.9720334060119299 -0.11011438069344505
4.0042857142857144 -0.8684299841960835 -0.1807750102082994 -6.628356117191983e-05 -0.0003263321440532797 2.3691708110679344e-06 -0.00010393810324641644 -0.9645875535277163 -0.09911612178208057
4.004714285714286 -0.863594925735328 -0.17246220812126192 0.00014116510715242756 -0.0010240793589838015 -7.273464055797365e-05 -5.371954405600595e-06 -0.9599735225409581 -0.1063460532275659
4.005142857142857 -0.8656635936554089 -0.16243283813530296 8.547482075709089e-05 -0.00039640410198632747 2.8484108287423506e-05 -5.5855556962053964e-05 -0.9684369195364906 -0.09548623303656566
4.005571428571429 -0.8666576298569426 -0.1572962327551062 8.733506135873813e-05 -0.0005152394857028574 -5.1021378952628044e-05 0.00011460885675542362 -0.9609362292473367 -0.09445786472750886
4.006 -0.8688856140954816 -0.15486513656880282 0.00017436537765460166 -0.0003800219299171567 0.000351167568185325 -0.0003647450734772989 -0.9701141321988255 -0.09381808497738858
4.006428571428572 -0.8698188594821433 -0.14883967261123596 0.00012014166498109698 -0.0003286096702996133 9.835670893160097e-05 0.00019706074943112413 -0.9680542878276971 -0.0916565670349205
4.006857142857143 -0.8727040746390146 -0.13666854837215656 -0.0002496558360369743 -0.0004265291800795953 0.00016436746186585424 -5.333667739356143e-05 -0.9655109428488274 -0.08884555939244874
4.007285714285715 -0.8750309234842867 -0.12901735546236173 -0.0003388490895932532 -0.00013656942256863686 0.0003406273782188133 0.00011351093492805456 -0.9679975333966565 -0.08109766410118577
4.007714285714286 -0.8723930222211101 -0.12391258605337624 -0.00045180911535420905 -0.0002456091745817246 8.599734260468178e-05 -0.00011630683399196745 -0.9638179491697025 -0.08324858591031786
4.0081428571428575 -0.8747207693104155 -0.12191280972931388 -7.383173902692998e-05 -9.029782167157768e-05 -0.00013873316363050873 -0.00021521575222621786 -0.9680213719437224 -0.0878137228459908
4.008571428571429 -0.8767209456420214 -0.10899966571779324 -1.262194177845137e-05 -0.0004023969547926046 7.064324913848927e-05 -8.678919183192017e-05 -0.9630138682519663 -0.07937889721933981
4.009 -0.8787695060517624 -0.10398177664262612 8.430891271905964e-05 -0.00030350536738131767 -0.00012865500437281717 0.00012257382853722492 -0.9742554719617832 -0.08581044367196886
4.009428571428572 -0.8756978921524093 -0.10124042231743743 0.00013822900573363822 -0.00030429347290819147 9.356018400095157e-05 9.953834596747551e-05 -0.9762293016950075 -0.07593414917965989
4.009857142857143 -0.8790248487547524 -0.08849980011195634 7.121261857789913e-05 -0.0002999401364120811 -7.229961304671896e-06 2.6697176327586997e-05 -0.9680935669401498 -0.06886995666712005
4.010285714285715 -0.8811454065490341 -0.08149730344395396 0.00011345849448755665 -0.0008846173988505121 -0.00012048940616401147 9.09535661412147e-05 -0.9630113604574995 -0.07353614161421448
4.010714285714286 -0.8803961297562491 -0.07401072414860041 -0.00010052288666330388 -0.0001325730969442925 0.0001606702830561162 -0.00026341599113566765 -0.9682739481744179 -0.07095669194830419
4.011142857142858 -0.8754455533772564 -0.069797696199492 -0.0006458322088272588 -0.0003181634927990766 5.901015160076002e-06 0.00016974058389225574 -0.971013496313102 -0.06619386207579475
4.011571428571429 -0.8776272961435012 -0.05759885061987782 -0.0003869767571895141 -0.0005202830833155321 0.00029492622231010364 1.4153917391937124e-05 -0.9700437550827189 -0.06747467140121044
4.012 -0.8817493424280872 -0.05595515967227048 -0.0003902564673355025 -0.0007456687140748882 -1.4041211298501694e-05 -0.00023458966177990152 -0.9760874763364434 -0.06384105921920122
4.012428571428571 -0.8786750137003614 -0.04330217650147887 -0.0004422979826780467 -0.0005939637085073059 -0.00013376476717826222 0.0002811677088532542 -0.9619839833643017 -0.05686281297487967
4.0128571428571425 -0.8852623064229418 -0.03574728819252367 -0.0006084372849989627 -0.0003788630359824985 1.213726156108203e-05 0.00018820671841997285 -0.9647771306228138 -0.062278079405472246
4.013285714285714 -0.8740942496161781 -0.031492983295930935 -0.00010699994486280701 -0.0004898707693545058 -0.0003341665697144029 -0.00015610225189897513 -0.9641951262198796 -0.05799414435559993
4.013714285714285 -0.8789431492761763 -0.022836551194903854 -0.00013961274846327444 -0.00035539944536608424 0.00023387246352764908 -5.082930678445493e-05 -0.9751657225255305 -0.053628898686396836
4.014142857142857 -0.8796873668853249 -0.013130559162636227 -4.7800483836998925e-05 -0.0004109124174912811 0.00020418226359356887 1.0030232368021697e-05 -0.9704594204852659 -0.0463412271042991
4.014571428571428 -0.8770199609641985 -0.012537070634593339 5.4691912446585806e-05 -0.00043437802352064655 3.993112690091252e-06 -0.000195719164661482 -0.9701059177291365 -0.05293848705716196
4.015 -0.8869820716319118 -0.00041609100485836447 -0.00020268652089023447 -0.0004937160031856957 0.00011616051535092097 0.00035871062357309386 -0.9664058017360352 -0.05128100818810837
4.015428571428571 -0.8823827856426358 0.011316622984185967 0.0002249876092016648 -0.0005695288412936508 -0.0001188175723191092 -0.00013016966319181821 -0.973105850851692 -0.050006533530801596
4.015857142857143 -0.8811243417350466 0.017619355366217344 -0.00028740935356036526 -0.00041406709963179826 -0.00012716878092910276 -0.00023780526930569895 -0.9699456302386689 -0.0472559094581769
4.016285714285714 -0.8808000561460803 0.022174276519948903 -0.0004045596326920799 -6.883415698936819e-05 -0.00016853900091880577 -3.297690243701082e-05 -0.9678398684841366 -0.0431263046269655
4.0167142857142855 -0.8802327287496542 0.028619893528395304 -0.00045775585440926286 -0.00037254374701244276 0.00019403308442398384 -0.00024021365151535455 -0.9651560053888347 -0.049676133849184505
4.017142857142857 -0.8777375303576029 0.03696512121751799 -0.00015713849781314325 -0.0004174925608822795 -0.00012407196214352518 0.0005642730570306222 -0.9619189318911081 -0.03900808392677358
4.017571428571428 -0.8821855940451918 0.042522832934679275 -0.0009177075662076947 0.00012432055221619674 -0.00011686622056008077 0.0002710473755796776 -0.9737598605856139 -0.04118194832625214
4.018 -0.8785550682112204 0.04789851348598051 -0.0004520744869245838 -0.0005669947005628921 -0.00015139330572710297 -2.3535999571713423e-05 -0.9693491114717124 -0.038528150839907356
4.018428571428571 -0.8825232124186064 0.05938587872280969 -0.0005456055020201374 -0.00018649951390288 -0.00023097805167374664 -6.916651553237156e-07 -0.9730664614234574 -0.03566381132636596
4.018857142857143 -0.8753840509282353 0.06697078377946133 -0.00044109499833003865 -0.0008968519272264592 0.0001283104486853379 0.00011136790392432088 -0.9626890436497083 -0.027242326315223806
4.019285714285714 -0.8744643156151931 0.07759762426693458 -0.00045935755343503584 -0.00038779278464877985 -4.3845871735825985e-05 3.774868886414874e-05 -0.9705669749757763 -0.028220393118467347
4.019714285714286 -0.8786104191122999 0.08160038330908222 -0.00016720417502218902 -0.00010948830264517591 -0.00017273437230068945 -6.959939566278968e-05 -0.9651462255976275 -0.029308939065109573
4.020142857142857 -0.8776029791293459 0.08720389432709885 -0.0003364004794761507 -0.0006205393587196667 -1.1845869037333961e-05 0.0001938141696799158 -0.9673614984656304 -0.021413702288537173
4.0205714285714285 -0.8773411930712729 0.10151249511651547 -0.0003218443819219337 -1.703628729996463e-05 0.0002805448268237012 0.00014887807027801108 -0.9675283551746159 -0.02577402449101789
4.021 -0.8725972032256557 0.1010264056204908 -0.0005088416084463236 -0.0001112544266669319 2.27215641914188e-05 1.4964433833805512e-05 -0.9668096877178716 -0.02152579432930842
4.021428571428571 -0.8727931262406474 0.11264372103393784 -0.0006290339806868896 0.00018175052465284878 -0.00033812293064281563 5.821204949059944e-05 -0.9688749477013431 -0.01921485855246002
4.021857142857143 -0.8734615832474535 0.11363250373484926 -0.0003283422155970443 -0.0002840097459384225 -7.016637806910436e-05 -0.00015870058960824163 -0.9691169092203431 -0.016703147989095998
4.022285714285714 -0.8657666144673913 0.12006200312457177 -0.0004830353581419801 -6.3705439134531505e-06 -2.940286265605147e-05 0.00013845465008652743 -0.9765875655864197 -0.008219259009856813
4.022714285714286 -0.8717841627075236 0.13682916854855376 -0.0005256504166441283 -0.0003813782864529727 0.0001731500846908624 -0.0001446945576527717 -0.9650040751566699 -0.013147495643751965
4.023142857142857 -0.8694657028900649 0.14191764755671385 -0.0002517929829061458 -3.175307899763699e-05 -1.1802209008803888e-05 0.0002789751396577775 -0.9659597860194531 -0.007926884505841517
4.023571428571429 -0.8696816670572509 0.14291380857044925 -0.0006738810373325535 5.323548947796426e-05 -8.915003929529923e-05 -5.4985113844469255e-05 -0.9633860275534183 -0.006356490940274945
4.024 -0.8643946326297233 0.1549113392727723 -0.00020290363498434475 -0.00025965958802547367 0.00010207336758246846 -0.00014607063045340646 -0.9696432506812244 -0.008494002443676294
4.0244285714285715 -0.8674180070179397 0.15891265028539253 -0.0002508479669755005 -0.0003512966157163234 -9.548875385400748e-05 8.904287914527263e-05 -0.9703320273519788 -0.002003703978211099
4.024857142857143 -0.8662931284256802 0.16927775152522948 -0.00016645294946000154 -2.9515010922777827e-05 -0.0001870214169972334 -0.0002726764054250686 -0.9665924166301637 -0.0005102999579946847
4.025285714285714 -0.8674496668732665 0.17897381021259895 -0.0005033484248940232 -4.541525163064179e-05 -8.14306473953807e-05 -0.00019270942203828388 -0.9672401658285977 0.004700179106387843
4.025714285714286 -0.8633451635515946 0.18485505876008954 -0.000796471462508753 -0.00026062077895648166 6.619190516266543e-05 8.153325618886875e-05 -0.9766327642121421 0.00846192202523708
4.026142857142857 -0.8653959892562973 0.19092278566008475 -0.00024337743981217623 -0.00043281939432876986 -0.00019764896420697224 0.0005296197341998088 -0.9695314737773434 0.002450279601353642
4.026571428571429 -0.8529913843990374 0.19885363239857384 -0.0003987278014214646 -0.00033081021684102697 -0.00015857563001914308 -7.452042203051343e-05 -0.9737567630471907 0.01029606473874673
4.027 -0.8553307669469172 0.2045899375840084 -6.750027684162863e-05 -0.000710329259376278 0.00029754501765519883 0.00013890202776838676 -0.9691879583445532 0.0046925501203693674
4.027428571428572 -0.8594317596769991 0.20698632905831876 -0.0003753778475966915 0.00013452678893997397 -0.0003299173142026214 -4.9536027440604884e-05 -0.9659837485350727 0.01635207518868488
4.027857142857143 -0.8543925278597444 0.21517299128561737 -0.0004945666798426128 -0.00024619557286282266 0.0002571997101336465 -5.4845354648202496e-05 -0.9743644710840061 0.012049148806631672
4.0282857142857145 -0.8526590857152486 0.22887009413154136 -0.000570341972584145 -0.00021540445745493985 0.0002752599889505147 -0.0001325980480701698 -0.972203607658329 0.021798554937456784
4.028714285714286 -0.8584142761436003 0.22704776296211973 -0.00029392030138983814 -0.00028682407638636043 -0.0003116532474878148 5.7510620065116125e-05 -0.970070542266545 0.013922450143958228
4.029142857142857 -0.8528027632908523 0.24142590067289313 -0.0008452678764565957 -0.0001160154721491078 -0.00012947200823328875 -9.894224976077504e-05 -0.9680594849189932 0.02336695223656791
4.029571428571429 -0.8494564757111484 0.24581666639041916 -0.00043684531801189194 -0.0004683118875016852 7.704178148346022e-05 -0.0003297552287412894 -0.9632387084722965 0.0212040833029042
4.03 -0.8438258685281707 0.2505208959885601 -0.0005966196098871395 -0.0002370738215574608 -0.00014521267016115224 0.00046779904204648746 -0.9708270653170284 0.03279327597650991
4.030428571428572 -0.8428782074606656 0.2624126286622766 -0.0005526040061533694 2.720861920873447e-05 0.0001129915286200499 -0.0001748159524288837 -0.9699260037158994 0.02850890692181904
4.030857142857143 -0.8457251930819065 0.26526547480322155 -0.0005747181855656404 -0.0003520360128735136 3.93317343802216e-05 -0.00014515019221206474 -0.9729997696825867 0.02089841368319356
4.031285714285715 -0.837815359253359 0.2727948787632775 -0.00034870611911213314 -3.8407471192842875e-05 -0.00013329955972211967 9.325459912040061e-05 -0.9664419198020557 0.03478480973894198
4.031714285714286 -0.8354586723080738 0.2760547967264514 -0.0008267169639221158 4.651621957685004e-05 0.00014543180001386194 0.0002592939911310219 -0.9647702332148986 0.025803604228228093
4.0321428571428575 -0.8297577738227596 0.2868241673793702 -0.000412850531382346 0.00011153517015632251 0.00025523413513223463 7.307238642530761e-05 -0.9732469068496229 0.034784700783361086
4.032571428571429 -0.830948635868609 0.29397742088712253 -0.0004140238528951924 1.4848140404985211e-05 0.0002690809705218923 3.691057981307361e-05 -0.9654761202494103 0.044656094044752286
4.033 -0.8320705022436156 0.29927290859993855 -0.0002652603778868498 -0.00014322767403953765 0.0001258289358322779 -6.627776980459839e-05 -0.9644580428107568 0.04418255158023546
4.033428571428572 -0.8337628142560976 0.3075477780154405 -0.00071358725402145 -0.0002610418141108572 -0.00017570897952277076 1.715707319458935e-05 -0.9611340154083929 0.03870623139522254
4.033857142857143 -0.8276035264118623 0.315198731687125 -0.0007985147198612476 8.895132435982509e-05 -7.715171801939726e-05 -0.00033537093385894865 -0.9627739623371168 0.0450430202974769
4.034285714285715 -0.8189288898601695 0.3188895230620824 -0.0008828649388923801 -6.39144870025505e-05 -0.0002123658954744195 -0.00023335459764521312 -0.9648063438990007 0.04267658105216802
4.034714285714286 -0.8136291054039257 0.3320125466658565 -0.0008224425526421839 0.00023012870974786152 5.934808928660847e-05 -5.453698662577649e-06 -0.9653838806437265 0.05238294793578195
4.035142857142857 -0.815403541328119 0.33519370715897856 -0.0004708033494291883 0.00026079851328058364 -5.1444295430245884e-05 2.1245796116527124e-05 -0.9699358465753325 0.05089032147179823
4.035571428571428 -0.8091417114724778 0.34284797047823906 -0.00033786491400955576 5.999939315192229e-05 9.61975344866183e-05 0.00018548177767522888 -0.9683416999937497 0.056703081461198165
4.036 -0.8067929996332944 0.35335669778468387 0.00024862559606490136 -0.00011884595082601756 7.210675287865169e-05 2.1254259756222384e-05 -0.9692985956479118 0.056376878709668815
4.036428571428571 -0.8139168918543972 0.3483310559827383 -0.0005361562487834975 -5.718904696905273e-06 -0.00015272661744845012 0.00015110464633364957 -0.9694862981958491 0.05278805023844849
4.0368571428571425 -0.8063116301324046 0.36237126742665526 -0.0005302021422675036 -0.0003589496509139614 -6.64372781911681e-05 6.354337282647766e-05 -0.9701295817959387 0.05311815203671756
4.037285714285714 -0.7983992016133388 0.36941731526406846 -0.0001232466415108052 -0.00018778072644305704 5.546138792040188e-05 3.062154139980061e-05 -0.962926456903947 0.05817845545755907
4.037714285714285 -0.7982800804583438 0.36975196868713955 -0.00044745092260458334 0.0003321477158060781 -7.539756305233316e-05 9.870727843548082e-05 -0.9683281162978364 0.05622565275939291
4.038142857142857 -0.7925044370599682 0.39071952645080166 -0.0005180790689131819 -0.00017139677573722406 0.00010244035301945015 -8.330508423182092e-05 -0.9631064407895876 0.062109298597672905
4.038571428571428 -0.7929285125148324 0.3891478525226879 -0.0007850010076469594 0.00046852286686246074 -0.00020414240065471325 -0.0002478635723235962 -0.959338360785709 0.06780978721005079
4.039 -0.790640393553133 0.39218578236219814 0.00010637360154324625 0.0003209781114572732 -1.8058405399963652e-05 0.00020657259421595983 -0.9602512803951704 0.0642967045359136
4.039428571428571 -0.7818608778932198 0.4099484681849973 -0.0004214368552983926 -0.00013253725910079606 0.0004855387475016455 -0.00037612527238247063 -0.9627350244558327 0.06973234166176158
4.039857142857143 -0.7844028570725643 0.4071216667738844 -0.00041539972803450746 -2.361413441667372e-05 -0.00020444034712173138 -0.0001914391951379326 -0.9712208318452464 0.07016399108433362
4.040285714285714 -0.7805202599130776 0.40775410362758213 -0.0006375836920959839 -3.125324728978241e-05 -0.00010078731612063853 -6.234300068272635e-05 -0.9647977165466249 0.07286489602661045
4.0407142857142855 -0.7807151780623122 0.42257416833686184 0.0001436124265541798 -0.00018117984059899445 -0.00036837051970355414 0.00023708910408725816 -0.9599865909595833 0.07673028216815216
4.041142857142857 -0.7672343450555226 0.42640737345383545 -0.00029593747673401486 0.0002481562290606363 -0.0002655331987126845 -0.00022950216852562217 -0.9702157189156984 0.08566375457148051
4.041571428571428 -0.7658413192656929 0.4325335731580752 -0.0003206564483612574 0.0006104790906394336 3.477468380694904e-05 -0.00012149468992620356 -0.9663965546991752 0.08266236581912116
4.042 -0.7619637124648866 0.4427042353123195 -0.0005756480760556906 0.00027260200767603016 1.33396992525239e-05 3.445485665661728e-05 -0.9625652991043988 0.08878683809908453
4.042428571428571 -0.756918737115324 0.4453669107881846 -7.985400003297345e-05 0.0002330120951321068 0.00048245786448603917 4.351265269880945e-05 -0.9591883659613888 0.09163905860864921
4.042857142857143 -0.7582521639260696 0.4437307642470383 -0.00020565540136551074 -0.0003360690024906264 -4.7497547147086464e-05 -0.00026600179277869125 -0.9635108532034125 0.08749234947129086
4.043285714285714 -0.7517770851292203 0.45958281415987473 -0.0002284470148327457 0.0001321118465956245 -0.00036235817893576694 4.970448221127093e-05 -0.9650946344034221 0.08600823829838228
4.043714285714286 -0.7459714516326136 0.46124387894860297 -0.0007053339569223191 0.00021810108491885136 -6.385569919993198e-05 9.70111625027636e-05 -0.9652561033756419 0.08155462635695217
4.044142857142857 -0.7448909270772732 0.4718119255405489 -0.0004747437431264079 0.0003098933783040548 -0.0001791238379620682 -9.267130060938025e-05 -0.9633839461877234 0.0970144740431983
