!Created with skrf (http://scikit-rf.org).
# Hz S RI R 50.0 
!freq ReS11 ImS11 ReS21 ImS21 ReS12 ImS12 ReS22 ImS22
4.0 -0.8479209405269647 -0.2521025718302396 0.0002112032468900354 -0.000299178455184979 -4.452256167388317e-05 1.939940850800562e-05 -0.9642896224340981 -0.13069266350036235
4.0004285714285714 -0.8553285989213868 -0.2458151404689778 0.0003303001562625076 -0.000429167216059535 5.903467164294406e-05 0.00017394997356658272 -0.9700338855150812 -0.12424833708996323
4.000857142857143 -0.8601253548523222 -0.23648022244063524 4.725220837595161e-06 -0.0004975329143047532 0.0002153182360229577 -0.0003562157345313933 -0.9630758722233596 -0.11760183678327697
4.001285714285714 -0.8528109279539653 -0.23083285075000118 0.00036056948648659014 -0.00031198232231725696 7.4533105233665e-05 3.490726254577035e-05 -0.963757594416116 -0.11763416417654712
4.001714285714286 -0.8599191173055324 -0.22387485987124095 2.9037848124704148e-05 -0.0004220298830572993 -0.00017092268330245607 5.433143653985215e-05 -0.9675171579590852 -0.11810184469815065
4.002142857142857 -0.8585675322733084 -0.22141406519330895 -0.0002328114780671974 -0.0004139544307423795 -0.00013818109652190621 -0.00014831652969060231 -0.9642537946210952 -0.11075490597859956
4.002571428571429 -0.861683224249539 -0.21267639699546162 -0.00015316585358532786 0.00011696272024888889 0.00028368454195626587 7.38320516430832e-05 -0.9694844467723055 -0.10556426889255328
4.003 -0.8657561480673613 -0.2004760438623698 -4.392336665753641e-06 -0.0001304649029170356 -0.00014185935639310991 -4.347323181030823e-05 -0.9687141483593135 -0.10276516918650778
4.003428571428572 -0.867088738469118 -0.19811416090379871 0.00019626138944615104 -0.0002986161026232094 0.0001568558089482729 -5.8514211446472584e-05 -0.9624415996026213 -0.09751284544375796
4.003857142857143 -0.8643077482122868 -0.1901410856812929 -0.0001500087334865661 -1.3637380618298198e-05 1.810211197133043e-05 5.2223974103278066e-05 -0.9706931550530512 -0.10972977431435404
4.0042857142857144 -0.8749449974514923 -0.18178964691548333 1.5704305891379602e-06 6.822344359473331e-05 0.000354007542719495 0.00010701730599858528 -0.9660663203757412 -0.09922631281323654
4.004714285714286 -0.8711404643539552 -0.1742280485048479 8.252043862544073e-05 -4.405145025468884e-05 0.00015488210936861853 1.6304641455239557e-05 -0.9598852186519631 -0.10904976625877255
4.005142857142857 -0.8729354773712387 -0.1651494233972112 -6.050139593468215e-06 -0.00016848498316264957 0.00012510516062500847 -0.00024777850476110226 -0.9665167735388941 -0.09508677507457253
4.005571428571429 -0.8711202584817976 -0.15973339953938664 0.0002965773279696726 -0.0005123748759461278 -9.503169642332558e-06 0.00020900343344248186 -0.9605669910217536 -0.09448910707216618
4.006 -0.8767106592310272 -0.15512782952916238 0.0002466280406724351 9.521021215642159e-06 -3.721866560864705e-05 -0.00015403398371402664 -0.9709930868350793 -0.092328165017262
4.006428571428572 -0.8757932016325066 -0.14973542907326767 -0.00035438134502261814 -0.0004508420078852635 -8.197603868343326e-05 -0.00011181176487855214 -0.9674292379563529 -0.0937793330329021
4.006857142857143 -0.8805279496857747 -0.13898610861132327 0.00026926863432944826 -0.00011648889048471719 -0.00023776392482427594 0.00011835989810979527 -0.9659212580197709 -0.08545173459236044
4.007285714285715 -0.8827664813919791 -0.1304272439756426 3.41985576960955e-05 -0.0004711870455845685 -7.331356366190117e-05 0.00015410779399129373 -0.9695687679622164 -0.08020560089999902
4.007714285714286 -0.8791029325127643 -0.12569552498616354 -0.00011555230062462028 -0.0003446698792832625 0.00023722196324968935 -0.00016418988463987727 -0.962216964160819 -0.0833970784780425
4.0081428571428575 -0.8809680597245112 -0.1229456649707027 2.9429338031250186e-05 -0.00014300241350890142 5.6146765216391805e-05 2.4945702396872557e-05 -0.9688013445919721 -0.08702586402438464
4.008571428571429 -0.8843683078075768 -0.10924393771640417 0.00017671259558791968 -0.000614328622927199 8.604912323073893e-05 1.8777550857900286e-05 -0.963543151126478 -0.07904438637377456
4.009 -0.883384007521494 -0.10364711622215467 2.33202793345576e-06 -0.0005590099602389039 -9.744043295970283e-05 -3.356680687441223e-05 -0.974924086625967 -0.08577260992603328
4.009428571428572 -0.8839742774743484 -0.10060304997766147 -0.00017520288118667138 -0.00026287125156140894 -0.00028368564711564074 0.0001270070037668035 -0.9762427657731356 -0.0769566444266465
4.009857142857143 -0.8851244398665381 -0.08930945200969563 0.00038265714217754795 -0.00024277632558913944 -6.813154769835442e-05 -5.745165568945044e-05 -0.9679330948957244 -0.0704872447010632
4.010285714285715 -0.8878416935723713 -0.08267134654140869 -1.5160720956837986e-05 -0.00016003061399522765 0.00022974262827181338 3.64366075882605e-05 -0.965942231650951 -0.0714861281126792
4.010714285714286 -0.8889292742328362 -0.07594631437263523 -0.0003953493425415887 -0.0005821444069298714 -0.0002919569054511393 1.696863612130923e-05 -0.9677169093150423 -0.07292149988350058
4.011142857142858 -0.8830614974945363 -0.07263942873835423 0.0002042026661474434 -0.00044126198081440385 -0.00017088451739051785 4.452561343780687e-06 -0.9714552409893609 -0.06611721933500098
4.011571428571429 -0.8846941148987818 -0.058136317001766205 -0.00020478142295643758 -0.0006581479468629365 0.0001275321312895105 -0.0004081420387644759 -0.9696696020534399 -0.06659605742080217
4.012 -0.8887559485743128 -0.05549369461358763 0.00017417763901418434 -0.00014774839884899572 -4.6073113955716626e-05 -0.0003818092059753635 -0.975269097782805 -0.06384237485215209
4.012428571428571 -0.8860638578928635 -0.04687686436785777 0.00019412661105084047 -0.00031632181671726375 -0.0002422102659988296 0.0003043747517022705 -0.9629247485717599 -0.05665045057998159
4.0128571428571425 -0.8922856274692544 -0.0354671986251894 0.00022157604042627221 -0.0001594604701036669 7.332852942972349e-05 3.27698261487546e-05 -0.9673694831599847 -0.06304891436333336
4.013285714285714 -0.8829266059609505 -0.030791489280855976 -0.000161683237023622 -0.00010604991211773803 8.672589566601231e-05 -0.0001659360743109478 -0.9634011012429119 -0.05768745168712744
4.013714285714285 -0.8879027942287473 -0.02260652223121071 -0.0003107610750976317 -0.0003477773547134655 8.191046609422789e-05 0.0004243721203685979 -0.975239265965361 -0.051939294872842975
4.014142857142857 -0.8850114763516379 -0.014141720142926776 -0.0004943873171294659 -0.0003852767379853955 -6.668356827050374e-05 0.00025822218455120375 -0.9711423327449229 -0.04674922628717578
4.014571428571428 -0.883952498684782 -0.012355996808551827 5.249684019344916e-05 -0.00028531754383506904 -0.00019247145693550904 -0.0001629503976362224 -0.9695962967579216 -0.05077983719897125
4.015 -0.8962991387392621 0.0009767936620966834 -0.00044721356228288173 -0.0004959237242140575 -0.00015287662798234744 -4.5937164334412564e-05 -0.9654317580808737 -0.05258530963359261
4.015428571428571 -0.8889291994377203 0.009717754539808924 -9.338626673419322e-05 -0.0003688674353495396 -3.0697917083810315e-05 9.823769660721756e-05 -0.9719292294382833 -0.046733080771822234
4.015857142857143 -0.888455239858818 0.016833902178126334 -0.00029533031349718064 -0.0001344540399896712 -6.888878892047484e-05 -0.00010790453199824057 -0.9702940154343938 -0.04603192725690501
4.016285714285714 -0.8884189613318079 0.021518823137057826 -0.00010389015232528463 -0.00010430767869137518 -0.0001304125923930235 4.1684619324043516e-05 -0.965916760446455 -0.04314014962522609
4.0167142857142855 -0.8884795806858414 0.030689215788254127 9.252936175263763e-05 -0.0008612336985645116 -0.00011349260886504462 -0.00021843549581629742 -0.9656865779929796 -0.050135896533595486
4.017142857142857 -0.884746113261441 0.03765599474248599 0.00011007951696907345 -0.00019419086232242254 0.00028848442187521134 4.284149180267266e-05 -0.9620089153346811 -0.038325250479623006
4.017571428571428 -0.8900783741076345 0.0434753431547434 -0.00020369041631042152 -0.0004523290122385518 -6.586144603703508e-05 0.00024228668366912525 -0.9718095508578956 -0.04132297076070067
4.018 -0.8868615596962197 0.04812677895829916 -0.000667650745774787 -0.0008475035541607846 -0.00012667020360058271 0.00023531350998408625 -0.9697682429586526 -0.0410494032359371
4.018428571428571 -0.8901162974636668 0.05773303045658071 0.0004593198276499864 -0.00012427754222630292 9.000143732378936e-05 -6.88106966116118e-05 -0.9719369561654001 -0.03440734465833198
4.018857142857143 -0.8819048994395519 0.06552409192149294 -2.5432096884736835e-07 -0.0006459671811828582 -0.00017375961500186495 -7.192808039062674e-05 -0.9603170698949639 -0.027333920645398843
4.019285714285714 -0.8809962439591943 0.07827666151920787 -0.00043756202395747826 -0.0005546758778729299 -9.189654688763375e-05 -3.7761492344854705e-05 -0.971687519889242 -0.027910975811165323
4.019714285714286 -0.8857454130933244 0.08170273081630564 -3.7345047594947815e-05 -6.808532311232914e-05 -0.00023412038664173768 -5.538856662708458e-05 -0.9647260661256981 -0.02820613682752458
4.020142857142857 -0.8850654007726927 0.08772289426973992 -2.4461088852105457e-05 -0.0005911010294568067 6.415279664632817e-05 -8.705606210507262e-05 -0.9678010461177748 -0.025256981262735664
4.0205714285714285 -0.8842807803396573 0.10228644899482751 -0.0005060186614935546 -0.0002719213523524417 2.4381819629714305e-05 -9.840340519468858e-05 -0.9680236050881643 -0.026883144854962692
4.021 -0.8815617526865327 0.10254327988015599 8.710076269928603e-05 -0.0006988619456745568 -0.00018289453210354955 -0.00022946163727819598 -0.9647912166882918 -0.019857712876502447
4.021428571428571 -0.8797062245679419 0.11450989093146649 -0.0006516732796532596 -0.0010669341214044345 0.0003374057474917729 -0.00021147758885119703 -0.9708034021080618 -0.018808533519665806
4.021857142857143 -0.8830512205647303 0.1163823785149585 -0.0003178469627027235 -0.0002356686775128203 -0.00035599988677612304 0.0003493350659478224 -0.9661193900871335 -0.017263283863311087
4.022285714285714 -0.8753200825488834 0.12092424027559784 -0.0003836513100961508 -0.0005609269780699482 0.00025186958243627775 0.00010368017295413136 -0.9765950667572901 -0.009181222315239542
4.022714285714286 -0.8784424147926325 0.138216155635532 -0.0001711061287376403 -0.00035616700366168126 -3.7984964142060684e-05 0.00011489870060928406 -0.9651195921104083 -0.015509883225328872
4.023142857142857 -0.8741470616642507 0.14223606587472495 -0.0002626307165381459 1.722765189102179e-05 0.00022761542042124144 6.56819932286532e-05 -0.9663835038486542 -0.006466751108449076
4.023571428571429 -0.8789450614374815 0.14425909071072254 -0.0004881208295631865 -0.0006901852727458668 0.0002678351469170097 -1.5406457845445348e-05 -0.9619580010355878 -0.005537035710811747
4.024 -0.870767410724931 0.15589427380900225 -8.050667060866776e-05 -0.00032134261838290674 -0.00019454695138118963 -0.00012211957003752794 -0.9698509090701402 -0.008374252003414016
4.0244285714285715 -0.8731991353572299 0.15973148247284383 0.00012877041010465892 5.768649461207783e-05 -0.00027485321188579795 0.00014940561035123217 -0.970214807457452 -0.0005212689712491015
4.024857142857143 -0.8741820821628968 0.17131780302108104 -0.0006476342539891475 -3.1258427541034376e-06 5.379054832541746e-06 4.35323054515418e-05 -0.9686371218646777 -0.0009044685361467285
4.025285714285714 -0.8736733288151106 0.18105440811008724 -0.0005024385099801022 -0.0002371259585112567 7.036118828456108e-05 8.769868447194943e-05 -0.9660735174033072 0.004029315453328159
4.025714285714286 -0.8720415840346738 0.1853355496652824 -0.0005933890036720688 -0.0003893354444103339 6.590175499841167e-05 2.0508270556169656e-05 -0.9739619013213838 0.008456616682311225
4.026142857142857 -0.8740856518145347 0.19179577595979827 -0.0003798141273816908 -0.0002955700940469379 1.7789073747051365e-05 3.572393874606298e-05 -0.9681023795553814 0.005977094424741526
4.026571428571429 -0.8598652572436103 0.20244075798975703 -5.510890544744714e-05 -0.0005514953966563725 -3.287842757481347e-06 -2.798156581493925e-05 -0.9738370043604613 0.008110118164760855
4.027 -0.8638173451287045 0.2061558211059551 -0.00036270853613063614 -0.00026267572231661703 -0.00013556117871702894 -5.942443435610062e-05 -0.9686798120385344 0.004280508485383736
4.027428571428572 -0.8661432015630657 0.20772409250169058 -0.0007234875224314441 -0.00040568964522462924 -5.186543107163113e-05 -0.00029641285065171825 -0.9650590827451596 0.016379086602209658
4.027857142857143 -0.8598255749393934 0.21493399377837955 -0.0006637619761589662 -0.00029459524169393644 -0.0004112665099263763 2.6565409745893936e-05 -0.9738999952050733 0.011879920480339555
4.0282857142857145 -0.8599878880260782 0.2333503706172013 -0.000680877324893283 9.111637396444665e-05 -0.00019312745786520855 1.3040850844455503e-05 -0.9727207795815473 0.021656955900969787
4.028714285714286 -0.8660030160610905 0.22939788306262987 -0.0006002583601574803 4.715916858736199e-05 0.0002956503221688942 0.00013325530412705206 -0.9710348593929846 0.013025807256468583
4.029142857142857 -0.8588644380448678 0.2428778377855411 -0.00031534256319624374 0.00017563837628349158 -4.9248530838838605e-05 8.063793964375768e-05 -0.9711379237906153 0.022988114047000144
4.029571428571429 -0.8567751105836131 0.24564344101066668 -0.00034951770918919466 -6.923575734414288e-05 -0.00019321146471789743 0.00031884396879437607 -0.9632783730645885 0.02039744181500203
4.03 -0.8504509109229004 0.2534929327488568 -0.00025944576370051105 -0.00011295341573745417 5.751385686246605e-05 -0.0004564518140824044 -0.9716921725611236 0.03268178574540115
4.030428571428572 -0.8492350458428186 0.262769674852653 -1.6992654373349114e-06 -0.00029415851443927686 -0.00028978548746541545 -0.0002859769145060177 -0.9692155711817272 0.028613873467517644
4.030857142857143 -0.8517098648625323 0.26663823971737666 -0.000678036819213425 -6.224121971017455e-05 -8.368872573358948e-05 -6.91986221474681e-05 -0.9722351253996834 0.023709101644122706
4.031285714285715 -0.8445279319692547 0.2756259408352331 -0.00036520388555056146 -0.0004371230070032372 0.00039352368861051513 3.4222457919601535e-05 -0.9689751147014832 0.03561262531943703
4.031714285714286 -0.8409457496391973 0.27840944328770495 -0.0004169390450996152 -0.0003201062953803539 -0.00019993731774158035 0.00011765775869675638 -0.9650301819490174 0.025816946784016456
4.0321428571428575 -0.8379295426742921 0.28686958847316985 -0.000738830758662098 -0.00015291280021391407 -4.767867696695466e-05 -0.00021362976915022358 -0.9721870602572001 0.03515229142889275
4.032571428571429 -0.8388129034033708 0.29518642128317424 -0.0001936028769998609 7.741117376188235e-05 0.00012755408333979645 4.217598712049845e-05 -0.9654618443699506 0.042598892404079
4.033 -0.8372542085962867 0.30051252591630856 -0.0005606334168578487 -0.0003143379287673041 -0.0003087020618910028 -0.00019120248846997206 -0.9649729112703622 0.04525269922190657
4.033428571428572 -0.8418598169800187 0.30968374128034437 -0.0006662640223517633 -0.00014873505994132552 0.00022551655141689943 0.00016958384077249262 -0.9634279732666344 0.0393241951561951
4.033857142857143 -0.8334294023151451 0.31711545105873173 -0.0004502007801002131 -7.351733285312387e-05 0.00011587482635862128 0.0002449254448851129 -0.9628881435277976 0.047059600641902656
4.034285714285715 -0.8257300664953108 0.32028576426455035 -9.261942463271156e-05 -0.0003155970748256301 2.4743279778969923e-05 4.9604193656365156e-05 -0.965801203534441 0.04205756749876446
4.034714285714286 -0.819703824278682 0.33424519542087944 -0.0006444459743393721 0.00010435676937017526 0.000297238071792584 -6.919093029432312e-06 -0.9665572972260292 0.05093716572669824
4.035142857142857 -0.8208384677169116 0.3371997102317973 -0.0004967871656917017 0.00035239186114025846 7.001978570374536e-05 -0.00048180619323191966 -0.9682112468920863 0.04999027103718021
4.035571428571428 -0.8162971900615235 0.34435606414712927 -0.0001871806404444293 -0.0003544957203538738 -9.399000972160896e-05 0.00022282642797328563 -0.968568228106946 0.05727821078959373
4.036 -0.811643217768252 0.35351526805105726 -0.0007111996651799583 1.391218993945371e-05 -5.266883369508964e-05 5.336758756010664e-05 -0.969317943449203 0.05593289179299849
4.036428571428571 -0.8200995707691482 0.352621789872613 -0.00013146318115491722 -0.0003242523818844923 -0.000200282773137143 -1.0921245758783283e-05 -0.9682075838324848 0.05184595549789821
4.0368571428571425 -0.8127257644546115 0.36540353437431994 -0.0005748568798027338 -0.00027652345813026754 0.000252337836225409 -0.00023802189214469226 -0.9699878944603157 0.05381314897851966
4.037285714285714 -0.8051465672712393 0.3705953443942225 -0.0004237002285233175 -0.0001809746065196006 -0.00017103994035541428 1.785107191432077e-05 -0.9623149714594249 0.05908228152207855
4.037714285714285 -0.8051502351070616 0.373421909817416 -0.0006330652285035169 -0.0003281564334936144 -0.00023501582215838397 -0.0002102927951595011 -0.9720728512685942 0.054654788525797214
4.038142857142857 -0.7988956255649614 0.39245607139515803 -0.00024377558378351424 -0.00016705615157784794 6.646586194679891e-05 -0.00013583355172930647 -0.9642174278565352 0.06066873344326875
4.038571428571428 -0.8008755205305257 0.3913892595495858 -0.0003270584957177756 0.00011980229162859093 0.0001433689155675372 5.4747180904923104e-05 -0.9615209989165447 0.06438692384023563
4.039 -0.7945031072197015 0.3941546311515896 -0.0004266871329574333 1.5549882436490805e-05 -0.0004298768732418648 0.0002677005652496947 -0.9594497415482509 0.06384493321278435
4.039428571428571 -0.7872268895593392 0.4119538670490953 -0.00017391621271228922 -7.158989231608732e-05 0.00011793220453172037 -0.0001658604760720729 -0.96363564818241 0.06985861626811828
4.039857142857143 -0.7910808577132838 0.4102501162676603 -0.0003872106457038521 -0.0002815900346615131 -2.6696363742036457e-05 0.00034702487520165955 -0.9705057660667555 0.07035831413519854
4.040285714285714 -0.7874146370244234 0.4091627755135992 -0.0004375921842839182 7.114883641056184e-05 0.00026857128206846966 -0.00013286794553247 -0.9637443696589636 0.07476658866873272
4.0407142857142855 -0.7874721194516205 0.4235835468971827 -0.0002644729491563259 0.0002738154184956424 0.00020729569148435505 7.617076422080885e-05 -0.959681087683921 0.07587692243192366
4.041142857142857 -0.7737079235055179 0.4296211867006674 -0.0004975011007254364 -0.00018929865898257344 -0.00026908582633946703 0.00010280009029497239 -0.9703052764638929 0.08614744172752654
4.041571428571428 -0.7718492340381269 0.435464097092612 -0.0001887777833801589 -0.00012298143058406215 2.8717516771698887e-06 -2.9908137149467024e-05 -0.9639687567222286 0.0842721324519893
4.042 -0.7697013052233437 0.44513790665948766 -0.0005101625965252981 -1.9044736352348433e-05 0.0003270148892625885 0.00014250810747901347 -0.9618662440041783 0.0898213049026438
4.042428571428571 -0.762810003858549 0.44789296403233797 -0.00016394798938357665 -4.7331657463716795e-05 0.00035257187857383823 0.0002401093998056251 -0.9600439538890693 0.09209900974863423
4.042857142857143 -0.7635838824152942 0.44681696675575294 -0.00026001886995455126 -2.7711174559266882e-05 9.05422205867416e-05 0.00020417962024015183 -0.9663327528372582 0.0867706648561444
4.043285714285714 -0.7587077601279427 0.46267711664152905 -0.00045919678845267943 -0.0002989201902065136 0.0004172613980634063 0.00010616638742532656 -0.9641972324254982 0.08531496860912702
4.043714285714286 -0.7514239200346184 0.4633274053870255 -0.0003360715652262078 0.00020439364037115165 0.00019849723000760376 -1.3044000500270787e-05 -0.9666966192649022 0.08301075494679155
4.044142857142857 -0.7504627906108134 0.4746711966294526 -0.00021069043415131495 -2.9177575310326832e-05 -3.8267155693756984e-05 -0.0003819158370554933 -0.9638342105448345 0.09852305167874977
