!Created with skrf (http://scikit-rf.org).
# Hz S RI R 50.0 
!freq ReS11 ImS11 ReS21 ImS21 ReS12 ImS12 ReS22 ImS22
4.0 -0.8414090775287478 -0.2512190137613188 -0.00012583357460190593 -0.0003290131704697326 0.00018965163912700766 -0.00017312989232192103 -0.9629645982959822 -0.12928217248206586
4.0004285714285714 -0.8480376698721978 -0.2454827796042113 -0.000297863593354373 -0.00038257350829506927 5.520983327627577e-05 0.00013416415397738012 -0.9689048642431076 -0.12314559450160772
4.000857142857143 -0.8532808720322246 -0.236253352954435 -0.00011011178280000533 -0.000858303841857159 0.00014269504441654897 8.51725127856883e-06 -0.9688105764673774 -0.11598343369554702
4.001285714285714 -0.8462972194432051 -0.2302500024631124 0.0001761526109605303 -0.0003903979261608446 -9.485624827520371e-05 0.0001412837447359318 -0.9632859975910781 -0.11549326739613225
4.001714285714286 -0.8532232583152508 -0.2223211376964907 0.0001757182469171832 -0.00010055696460284929 -0.00018060891498135207 0.00010551222342630921 -0.964507800466655 -0.12123605233860756
4.002142857142857 -0.8515478557340342 -0.22346377682962643 -0.00032493074396326043 -0.00012161213367772499 6.867328016025834e-05 -0.0002871474728456484 -0.9648691735597306 -0.11096422162610575
4.002571428571429 -0.8552977714747955 -0.2117573890552275 -0.00017566011669461684 -0.000449765984980052 4.71796623492854e-05 -0.00036863447124636773 -0.9711046879909682 -0.10525874192356313
4.003 -0.85933911230998 -0.20072547650570277 -0.0001139624533299557 -0.0003917329492390337 -1.6228123620430537e-05 -0.00011345291855724785 -0.9697373984338867 -0.10511570116740945
4.003428571428572 -0.8634053736488402 -0.19654102880131624 -0.00023861257854341966 -0.00021379121830121056 0.00020977056056760464 -0.00010467748071161042 -0.9617177528267953 -0.09805272127887736
4.003857142857143 -0.8579155181854476 -0.18872816472215623 -1.170858564595247e-05 -0.00018460346787492455 -0.0001397146186367347 0.0004192835226390673 -0.9696238419901092 -0.10987491733738596
4.0042857142857144 -0.8689456426664279 -0.18095998267117058 -6.119324617129672e-05 -0.0006254955092479223 0.00012358440912080122 0.0002729655768477397 -0.9669538436407078 -0.09822356381683402
4.004714285714286 -0.8643672407184174 -0.17316988474524322 0.00016857484728756737 -0.00040188047193585164 -0.00012859374456785185 9.619925152430326e-05 -0.9603397715027888 -0.1085090054879724
4.005142857142857 -0.866107120028763 -0.16465685375087724 0.00031296344426166975 -0.0002480067816111367 0.00022061464418446377 -0.00017533762868640718 -0.9697030019622629 -0.09439617922065394
4.005571428571429 -0.8666912571230575 -0.15839475223904284 4.2670438531156825e-05 -0.0003629694925093762 -2.6758402337459895e-05 0.00014042181691234818 -0.9587926075766238 -0.09277442096045538
4.006 -0.8695338396844449 -0.15530652956236404 1.1662786243654699e-05 -0.00045310384211581485 7.036069955346706e-06 2.7687237542845187e-05 -0.9711901981583255 -0.09256134852710095
4.006428571428572 -0.8693566075549373 -0.15006073381541435 -5.8309093203474195e-05 -0.0005020537780307898 0.00014429562711259285 0.0001766916673845734 -0.9682162490873693 -0.09180818950748516
4.006857142857143 -0.8738042038596261 -0.1383462043511228 -0.00020670742023835216 -0.0006262105400367534 -8.652769573424216e-05 0.00017469558433212502 -0.9654375282674943 -0.08663766828494714
4.007285714285715 -0.8757632320997065 -0.13165174527791712 0.0003307227268081916 -0.00014500922094411774 0.0005760069355966536 -0.0001191300782782664 -0.9689510102959459 -0.07886218872205703
4.007714285714286 -0.8726824836530305 -0.12459050708197975 -0.00022516544898798068 -0.0005888337707628684 3.363575336739121e-05 -0.00010800895117442197 -0.9639215318807655 -0.08208459952471304
4.0081428571428575 -0.8759965629763637 -0.12401559572203529 0.00024372587748668962 -2.2424541117394454e-05 -0.00011857650491035498 -0.00017100128706735288 -0.9688672776636078 -0.08735561065486863
4.008571428571429 -0.8784167305418753 -0.10987779273443063 -0.0002440953663784718 -0.0004051711947370182 0.00017426910343191145 0.00018734834884691514 -0.963963453839428 -0.07734232538025027
4.009 -0.8781873250210006 -0.10501992458447076 -0.00018338967871225708 -0.00048273471446970873 -2.2991462398948616e-05 0.0001673983474014096 -0.9753051955636844 -0.08312113750140072
4.009428571428572 -0.8756729353610435 -0.10223067118975188 -1.9040823999740403e-05 -0.00035447204351809385 -0.0003254946426990762 -0.0002713787441808508 -0.9759177694717976 -0.07532856998072278
4.009857142857143 -0.8791020313244682 -0.08893540631683747 -0.00010839400938098476 -0.0006052462480325998 -6.533458011883964e-05 -1.5549614381347886e-05 -0.9670506698742211 -0.06948490536747728
4.010285714285715 -0.8813907875189096 -0.0819117559302884 -0.0002822066373802033 -0.0007139657181400642 9.977304699063531e-05 -0.000165627003697923 -0.965243251371665 -0.07376585488690558
4.010714285714286 -0.8805853643807845 -0.07532456218915734 -0.00015235205052588192 -0.000378571442810299 -0.0001649395787664638 2.8967362054615615e-06 -0.9694101638717747 -0.07023760772118744
4.011142857142858 -0.8767203067130422 -0.07058424491300083 2.8486042498889765e-07 -0.00034355097689666 0.00013413779283208516 0.00024516210307158165 -0.9702247278462941 -0.06530253077865418
4.011571428571429 -0.8782909847609154 -0.05925004856815359 -2.5077182346073998e-05 -0.000648312102194295 -0.00019014144526485692 -0.0003683748838134995 -0.971291727453229 -0.06537356471516649
4.012 -0.8833596753132972 -0.054792124746615364 -4.8366139787405444e-05 0.00022051792146121692 0.00020018491620300716 -7.35072514563743e-05 -0.9748606987956565 -0.06179310981571685
4.012428571428571 -0.8791411886648441 -0.04539901928829713 -0.0002308019850862926 -0.0005146652170324076 -6.109383922204652e-05 0.00013440639219064696 -0.9624610712690216 -0.05614281657798343
4.0128571428571425 -0.8864447793671677 -0.037369216141634944 -5.605871163448409e-05 -0.0003041736086622805 -2.7130710915491182e-05 -0.00019811817905777203 -0.965347114095473 -0.06311269530397297
4.013285714285714 -0.8783464200211258 -0.032747924452037044 -0.0001828665033334981 -0.00010624685282648299 -0.0001554454691581713 0.00014242524130389262 -0.9628129183605725 -0.05757498943103489
4.013714285714285 -0.879891352393371 -0.024699564954935072 2.1008922448433176e-05 -0.00032159988123547874 3.3715690141478543e-05 7.656104703512963e-05 -0.9750684722084989 -0.05200794947643152
4.014142857142857 -0.8794870451936228 -0.016479963815424027 -0.00016902567877314235 -0.0001478200249646767 0.00011430951397840258 0.00012725527720952563 -0.9723677582208157 -0.04630361370940317
4.014571428571428 -0.8808839545827628 -0.012464698873725253 0.00016213091032663677 -0.0003486652553555117 -0.0002938958847171847 -7.830918855212474e-05 -0.9710960279675895 -0.05197576674997117
4.015 -0.8881804849597403 -0.0003209105090113702 -0.00042545757002484174 -0.000601415175978494 0.00021353358529845363 0.0006649355951686713 -0.9648027164365028 -0.050188065075926054
4.015428571428571 -0.8842250421058405 0.008747220070470747 -0.00012485599819544782 -0.0004831810041599102 1.9595567030545772e-05 -0.00014879291612473949 -0.9716875156847993 -0.048954269152755574
4.015857142857143 -0.8829261579176976 0.014746660662312169 -0.0002621372758533762 -0.0003243437081504057 -6.293331769429817e-05 7.861313889613967e-06 -0.9695734743165836 -0.047160450195821386
4.016285714285714 -0.8831851283886459 0.02195279285112567 -0.0004344426548081595 -0.00034467832117524147 -0.00029466126465503356 0.0001674725334413087 -0.9663238319596787 -0.041192511000773854
4.0167142857142855 -0.8818053725976207 0.027222045388129484 -4.201746331381154e-05 2.267079584501217e-05 0.0002748183639500198 0.00041807713960209615 -0.966978135004345 -0.047985443840484754
4.017142857142857 -0.8785402518337164 0.03733301436684287 -3.767046376060869e-05 -0.000328658610873047 -0.000221189688341423 0.00014027650965713618 -0.961629490894592 -0.037774678110929896
4.017571428571428 -0.8836291496663323 0.04202132470927023 -0.0006435177998358324 -0.00018588022304211478 5.4659979767780876e-05 0.000126180439752731 -0.9730345534477912 -0.038928485577544095
4.018 -0.8783893342696928 0.048297685022278755 -0.00038105082639246555 -0.00036760166556624454 -4.3313367980951235e-05 0.0001601502836319364 -0.9677824016636152 -0.03966856561884104
4.018428571428571 -0.8827212897168302 0.05799010021031546 -2.184319031358242e-05 -4.474400197779847e-05 0.0002612706602151158 -0.00016249156906808206 -0.9690238448513311 -0.03304588054742909
4.018857142857143 -0.8770313849634143 0.06583823906957322 -0.00046414889502994935 -4.613718356065491e-05 5.563445267312074e-05 0.0001090162575493084 -0.9637968992976566 -0.025982405819061662
4.019285714285714 -0.8755240583458673 0.07618246121429725 -0.00020581839531934345 -3.4146584227636044e-05 -0.00016331416533058932 7.350346073532625e-06 -0.971535511495088 -0.027560086960000427
4.019714285714286 -0.8806987120422993 0.08180311330509159 -0.00033457227661315366 -0.00016817303690624093 0.00031220282530853 0.00012655890621286636 -0.9654968665711606 -0.026978566133369925
4.020142857142857 -0.8790529514633008 0.086176166336623 -0.00021107060398837342 -0.00032621173970173435 5.27468266299329e-05 0.00017544483155560505 -0.9678467650819871 -0.024031253123915453
4.0205714285714285 -0.8778361474613379 0.10078350640072227 -0.0006078894333454134 -0.0002426497566124417 4.659695393275104e-05 -0.000497708784373449 -0.9680525747377008 -0.02651221661171955
4.021 -0.8748591763495354 0.09909119042692813 -0.00018825280740702898 -0.0005964215536619532 -4.673569659872825e-06 -0.0003889493084667786 -0.9654614788603167 -0.017852575093542013
4.021428571428571 -0.8740657740796868 0.11290033305312333 -0.0002547963374977844 -0.0004851064261431257 0.0003516643032064691 0.00013597623772770474 -0.9693159228720002 -0.01816978293358503
4.021857142857143 -0.876353574767109 0.11551953807183955 -0.0005720584405315115 -0.0003832798110830264 0.0002663155342210017 -0.00021487577380579942 -0.9670188810896614 -0.015986400301178733
4.022285714285714 -0.8667973328161521 0.1191635331409731 0.0001358302974888728 -0.0002388044275429216 0.00011558292091354866 -0.0001282529842946216 -0.9751228361567169 -0.006740284725175357
4.022714285714286 -0.8742919957134122 0.13524426698119635 -0.0007595350096356962 5.436595339909664e-05 1.1864254857350285e-05 0.00019532310411379182 -0.9644189527580889 -0.013910822367602911
4.023142857142857 -0.8694994447464925 0.13973088214412088 -0.0001981515897054787 -0.0009663299028351437 -1.907550802577099e-05 -0.00010818716811513259 -0.9678981427445731 -0.006054370769939421
4.023571428571429 -0.8715333727119782 0.1414777750866481 -0.0003297651163637169 -0.00028626906322026785 0.0001251832933643631 -0.00011874550495703725 -0.9612176912660783 -0.0052590828652712565
4.024 -0.8660888190537069 0.1536824380435508 -0.0002984749418366365 -0.0003917425586380069 2.095776455909909e-05 0.0001090230603102075 -0.9691784761817329 -0.005573661268175069
4.0244285714285715 -0.8672120906445865 0.15905867912129404 -0.00024271520015700114 -0.00023998035855701913 5.157516167954606e-05 -0.00010569233781897957 -0.9701608914287999 -0.002169867352918122
4.024857142857143 -0.8680078660087182 0.17032520294638173 -0.00016527548449298853 -0.0003657407510782131 0.00010556700318068177 0.0001501210197178765 -0.9689474123554238 -0.00010159355188343125
4.025285714285714 -0.8671354647173759 0.17728787233475904 -0.00046709435037242057 -0.0007750115711353219 2.6134070559917803e-05 -0.00018668295754582968 -0.96587318165023 0.00492332431338195
4.025714285714286 -0.8644024608652369 0.18226622533351003 -0.0006504544459483776 -0.0002897375839044082 0.00011633449633190034 0.0001023795435619758 -0.9748283707762768 0.009055498449223945
4.026142857142857 -0.8680043530426951 0.18949603464124132 -0.0002614443048759682 0.00032454784728558583 0.00024338670305695196 2.5681766179032454e-05 -0.967607162175545 0.003358018632087248
4.026571428571429 -0.8536645749207774 0.19763592812833924 -0.0003651125467645372 0.000155217954985328 -0.0002551110152732147 -6.843437913694648e-05 -0.9724698073216455 0.007697783053558749
4.027 -0.8574505840525098 0.20303459047194525 -0.00038696385585220723 -0.00017511897022956323 -0.00010533708530026868 3.780801947437901e-06 -0.9704434080346371 0.006249973906915439
4.027428571428572 -0.8602257770415638 0.20553128609335072 -0.0003757873048081779 -0.0002991107301062804 7.184390364081072e-05 -0.00013689204391971964 -0.9656665863148608 0.016212215828766738
4.027857142857143 -0.856371817886287 0.21372290231748325 -0.0005639019123238763 -5.0835336713562235e-05 0.0001257524675960662 4.299263058474944e-06 -0.9745170284126705 0.013011106594164757
4.0282857142857145 -0.8530037462228423 0.22933836395797924 -0.0004205975915612654 -0.0004713208086788352 -0.00014364214870976987 8.61446131563263e-05 -0.9722955012543807 0.02328807297651996
4.028714285714286 -0.8581444556224087 0.22683790601180348 -0.00031010882750985076 -0.0006908837263836674 0.00010612041416459645 0.000232905767509163 -0.9694574325938672 0.013362437046259364
4.029142857142857 -0.8534878986375237 0.2415070521798974 -0.0002978786719476693 -0.0003850321328837688 0.00010498507382005091 0.0004978694937967064 -0.9664961309814685 0.0269023893025042
4.029571428571429 -0.8504074972980173 0.24268538874725076 -0.00040513717736903934 0.00011300754245074357 -0.0001225834426572749 -0.00019818495267100414 -0.9623151337393001 0.02041261721460953
4.03 -0.8447843561971802 0.24971115330028296 -0.00023551716253620094 -0.00010653428949773947 4.4806105388808145e-05 -0.00022599886504594263 -0.9711094993536231 0.03474496723291678
4.030428571428572 -0.8441873047413857 0.26111823966199976 -0.00024117851232948975 0.00015499880895433768 -1.2810429514817824e-05 0.00014251730563564263 -0.9685762370196513 0.031774083410032676
4.030857142857143 -0.8459538731052993 0.2646258366415871 -0.00030456661204565985 0.00021191936706929534 -0.000271048508641151 -4.157814970925197e-05 -0.9706608109498737 0.023882140480032184
4.031285714285715 -0.8390177068799949 0.273717481450486 -0.0006304726179391836 -0.00032846034394738553 3.858450709655591e-05 -0.0001372791278251914 -0.9675903872619182 0.035593660982751296
4.031714285714286 -0.8353790456641004 0.27603806655512414 -0.0009609680108231763 0.00014595235130307927 -0.00013051439589123337 -0.00035991786226192496 -0.9657075516578026 0.026389175009952533
4.0321428571428575 -0.8313220924917754 0.2863905021009377 -0.00022350254843747454 0.00019458413913530542 0.00020515332219189701 0.0001150387366546183 -0.973323633001612 0.03399070199837642
4.032571428571429 -0.8335049983553369 0.292731424939704 -0.0002757840678855777 6.0279433049427674e-05 -6.184861864998596e-05 7.044417043391789e-05 -0.9661168642448421 0.044146143661046265
4.033 -0.8324679477673342 0.2977882942835452 -0.00020736252270981773 -0.00023687637347326532 0.00010197117183133822 0.00014551423792135112 -0.9648708221361901 0.045867466590719094
4.033428571428572 -0.8362808971969974 0.30770151901592024 -0.00044339815953445684 0.00023544684245146427 2.7319281569832937e-05 -6.451481202274375e-05 -0.9646183088619077 0.03876106467493142
4.033857142857143 -0.8284388408325108 0.31441080459210347 -0.00024120641655379398 0.0002139216354323707 -0.00010569292323898002 -0.00019432274263425802 -0.9633617605908181 0.04323820762781354
4.034285714285715 -0.819231821737031 0.3178020181905757 -0.0007226578306071548 -8.202659358370249e-05 0.0002674423861579346 -8.321318253484365e-05 -0.9670798907436419 0.04364411159000833
4.034714285714286 -0.8139955799129764 0.3319032617516163 -0.0007674827425987699 0.00044685645059727545 0.00020266916748940255 0.00024997960503224934 -0.9672487223897902 0.05216129542210573
4.035142857142857 -0.8156607397289117 0.3346708190176307 -0.0003454396427513866 0.0002796386758374974 -7.929643655129088e-05 -5.2541518139487726e-05 -0.9704258649408575 0.05160555941255603
4.035571428571428 -0.8100046269031964 0.3421574414116794 -0.00037065563658447275 0.0003149277771234343 9.342454204305823e-05 -0.00019752986795676652 -0.9654616154203104 0.05800421014327133
4.036 -0.8067784673922034 0.35224829200187224 -0.0007053794680325173 -0.00013013324666657814 -0.0001769596354298465 0.00012446169850847778 -0.9694786828955386 0.05716957508210221
4.036428571428571 -0.8142643142769919 0.34916128835588495 -0.0001876266940449478 0.000237327407668369 0.00020629161595266276 2.0814421483184326e-05 -0.9681217094763086 0.05207974468638966
4.0368571428571425 -0.8082983538050806 0.36202496303977494 -0.0005232470126401482 -0.0002991149986974586 0.00012864222684509264 -7.96848818134631e-05 -0.9726003773127441 0.0527783172159447
4.037285714285714 -0.7997829998500415 0.3698259427220526 -0.0004223810349735679 3.109795149385895e-05 -1.596716773232807e-05 -9.837846758076808e-05 -0.9621082513097209 0.059955373436508384
4.037714285714285 -0.797486283261706 0.3693591111102872 -0.00036959045657893757 0.0004056741983346052 5.0092665923870043e-05 0.0002857145735746825 -0.9693482019066663 0.05739450260177203
4.038142857142857 -0.7927076977561794 0.3883944867129993 -0.00046853559265404076 -0.0002414113147396006 0.00011201355924598459 2.036344814358846e-05 -0.9625504834356281 0.06178159823806254
4.038571428571428 -0.7942862781215445 0.3885922293968264 2.6414036249205265e-05 0.00021556095855379404 -8.885041347477001e-05 0.00031963632923552614 -0.9606576662988665 0.06705899976758539
4.039 -0.7887680753234336 0.39109021469339433 -0.0006882751131405179 -1.5654772889328692e-05 0.0004257299570807669 -7.308224149531759e-05 -0.9587871483245785 0.06601422885397697
4.039428571428571 -0.7824848116831312 0.4096076898245761 -0.0005107900692564564 -0.00021535212735339726 2.7213117543107844e-05 -0.0002841856977006347 -0.9639971326633635 0.06849346420437105
4.039857142857143 -0.7858883886225282 0.408967804180977 -0.0004113404434880409 -8.983825395235474e-05 -0.00037913876878842463 0.00018924099326788707 -0.9676522888780262 0.06984037418448366
4.040285714285714 -0.7819439171030438 0.40793135815975917 -0.0005187376315384633 -5.261354313737997e-05 -5.420154114388759e-05 -8.513907684925872e-06 -0.96419839658885 0.0767694779921613
4.0407142857142855 -0.781197266439296 0.42093053241385964 -0.00034347202000541724 -5.2252556569669435e-05 1.994882878724622e-05 -3.6807651590954344e-05 -0.9589296992233549 0.07754495061737975
4.041142857142857 -0.7684192504332221 0.4251212886185415 -0.000500502704960131 2.744940174090104e-05 -1.3822966278104921e-05 -0.0006169760391014289 -0.9686846274213896 0.0847524841384575
4.041571428571428 -0.7669012389716925 0.4325715520614457 3.7470582399286396e-05 0.00011623107997631561 -0.0001986996165098885 -8.022003243756235e-05 -0.9633855590391491 0.08408117298555846
4.042 -0.7638850511007987 0.44297852183057385 -0.00044415912243621065 0.0001745955416980482 2.316845345136116e-07 -9.786011338454569e-05 -0.9645791341168374 0.08914530739340196
4.042428571428571 -0.7588760702081596 0.44570837331002133 -0.0004271631076403043 0.0005154762463366846 5.512855244302545e-05 -5.051901583211346e-05 -0.9586330467397504 0.09292279771846391
4.042857142857143 -0.7590616740154079 0.44224545510374935 -0.0003149990296467216 5.862426454140842e-05 0.0001424458495624625 3.3995860797356865e-05 -0.965483861589133 0.08897642795478905
4.043285714285714 -0.7536274075371692 0.4586329921682576 -0.00010257195109685826 2.794697312767052e-05 3.077688170469054e-05 -0.00017584017077178172 -0.9650764335594098 0.08697244296789611
4.043714285714286 -0.7447564750707001 0.4611666550732739 -0.00043663944811530355 -0.0005358896521131606 0.00010960625237041553 -0.00048263466647364506 -0.9656953635991865 0.08230720204439645
4.044142857142857 -0.7461501690721634 0.4719302738398646 -0.000503072391565806 0.0007159754108825764 0.0002379363740146222 3.679068581139961e-05 -0.9629111079095694 0.096803249047477
