!Created with skrf (http://scikit-rf.org).
# Hz S RI R 50.0 
!freq ReS11 ImS11 ReS21 ImS21 ReS12 ImS12 ReS22 ImS22
4.0 -0.8461820762406564 -0.2518175927001526 0.0003609353201662601 -0.000279195005830342 -0.00019811388602362497 -5.168755174974727e-05 -0.9617757521853668 -0.12989183402385407
4.0004285714285714 -0.8533896785935793 -0.246651453547446 0.00046267271538016517 -0.0004326752275609405 -0.00011702290226523562 3.1534274188172065e-05 -0.9705758620853057 -0.12291373651671404
4.000857142857143 -0.8582227555118044 -0.2358348113479232 0.00012179658166628461 -6.928556487294743e-05 -2.2683645278060266e-05 -0.00042388071035129543 -0.9676303436456158 -0.11515256406289154
4.001285714285714 -0.8512001662409513 -0.22995748993387793 0.00022594832458412446 -0.00020099987072789172 1.359847503720973e-05 -0.00014897812339016627 -0.9648431248459233 -0.1167796965387938
4.001714285714286 -0.8578532929236892 -0.22429327805057717 -0.0001552006023787326 -0.00022747502594506843 0.000362776619895998 1.182578396534714e-05 -0.9653099036795008 -0.12136563299069456
4.002142857142857 -0.8548232738307407 -0.22311589957788658 0.00031267352855028245 -0.0002430528386697461 0.0002399124038940694 -0.00012974473348523937 -0.9650497061560838 -0.11050390621804682
4.002571428571429 -0.8591164496722985 -0.2118706907079934 0.00014175050290541098 -0.00021196527417562951 -0.00027541895134340475 0.00018207782093544416 -0.9674680214787221 -0.1069515819613951
4.003 -0.8630290343622842 -0.2023849354303823 0.0002470680720784295 -0.00025533548201483753 -0.0002331814685346269 -0.00019020548213783458 -0.9698521815279638 -0.10273369033827581
4.003428571428572 -0.8648143724966468 -0.19686393451796752 -1.766382844876568e-05 -0.0006096969168166717 0.0002924969756224775 9.85838257499602e-05 -0.9629706644617615 -0.0986609481635865
4.003857142857143 -0.8623122504422119 -0.19025356484023917 -2.903172450176727e-06 -5.327309865377299e-05 -3.0299860665225374e-05 0.0001327199599254844 -0.9708920132089321 -0.11069725612537763
4.0042857142857144 -0.8739770880091817 -0.18113199181201584 -0.0001303524051041939 -9.904794931442866e-05 7.55280332180419e-06 0.00013120638942100448 -0.9665063331832053 -0.09841363192119347
4.004714285714286 -0.8689290046747203 -0.1745228493908574 0.00012018809903381817 -0.0003776918068084069 -0.00013986705662337313 0.0001573302007126009 -0.9607480593136727 -0.10843698408511582
4.005142857142857 -0.8692603890892681 -0.16457156511715415 0.00014311402192574362 -0.0003382617615681444 -9.293592801499444e-05 -0.00014941169059546345 -0.9684354297731502 -0.09596191813133781
4.005571428571429 -0.871476431208913 -0.15837422058598805 -1.337798579617717e-05 -0.000706117724825492 -4.0381735446842056e-05 8.382840750442934e-05 -0.9603973711525097 -0.09502271499885073
4.006 -0.8731750278501582 -0.15514098356619282 -0.0003129456200973859 -0.0003044722415606409 0.00016093209396845622 0.0001290446682071373 -0.9718186564860504 -0.09345881762902078
4.006428571428572 -0.8728867274609082 -0.1501152841210536 -0.00019336912618769746 -0.0007491203536995646 0.00037567303527305084 8.137206057811543e-05 -0.9693343735356857 -0.09347644834613351
4.006857142857143 -0.8769758653188291 -0.1385333971897932 0.00026653123345264824 -0.00019859693544810938 1.0517025916148196e-05 -0.0002737596699508214 -0.9641087654551428 -0.08555893257204501
4.007285714285715 -0.8802783240954599 -0.13163498784151226 0.00037099523607955895 -0.00026435889631978913 0.0003044618651979761 -2.2869992286067924e-06 -0.9712456832032936 -0.08080630997773171
4.007714285714286 -0.8780994294556831 -0.12556733217544458 -0.0002621446901274454 -0.00021192371131534398 0.00014642925066996583 -0.00038519814676701825 -0.9623331188195898 -0.08187331056964078
4.0081428571428575 -0.8785876092232492 -0.12365478479426452 -0.00024587204488343313 -0.00044767734154888374 4.674137835026819e-05 -0.00015672511469879362 -0.9664548706574796 -0.08643080656707113
4.008571428571429 -0.8822732641781647 -0.1095876856361524 -0.0001129881213372633 -0.0006655157261665306 -0.0001503518293327091 3.6055523601193645e-05 -0.9637087062652283 -0.07841091237016186
4.009 -0.8830427171819207 -0.10386041015051226 -8.324531486555837e-05 -0.00031158397032679264 8.065024661092459e-05 -0.00017871919446810122 -0.9751199532583578 -0.08556997153861297
4.009428571428572 -0.8801359320558413 -0.10112703547603491 -6.760521013987134e-05 -8.454535202529288e-05 0.00020598661726317768 5.266786657620303e-05 -0.9729049026582183 -0.07574538701005269
4.009857142857143 -0.8834202405681735 -0.08874046370366236 -4.106808602803929e-05 -0.00012637770502578103 0.00018277216626921426 0.0003019309198991834 -0.9661494617589655 -0.07101578692760852
4.010285714285715 -0.885620515829027 -0.0825532551054874 -8.964797414917295e-05 -0.0005478953091733565 3.55686170905506e-06 9.229066284054531e-05 -0.9634109368395002 -0.07404154257983994
4.010714285714286 -0.8856013687338177 -0.07657640159104713 -0.00015252859791335162 -0.0005487751892039293 -7.164328557900561e-05 0.0003093570275952584 -0.9683152902491756 -0.07236898779792597
4.011142857142858 -0.8809332982508696 -0.07207147385589273 -0.00036934104892205746 -0.0004410997318952675 0.00021317607055371237 -0.00017115569174190538 -0.9691466656157273 -0.06425351719186724
4.011571428571429 -0.8828701517172959 -0.05916128123107648 6.800872819672685e-05 -0.0005223756025835724 -2.8443118035137042e-05 2.1540869068349244e-05 -0.9705010491211569 -0.06693892491925854
4.012 -0.886899984804467 -0.05510547092258594 0.0002459111067458672 -0.0006374930174394072 0.0005451407579666208 6.70149884934866e-05 -0.9751823623761413 -0.06431927702819233
4.012428571428571 -0.884232812077241 -0.046421887068742125 8.796365229702707e-05 -0.0004916924555073844 -9.831485194056639e-05 0.00039484864606228684 -0.9615499450040778 -0.05547562941898425
4.0128571428571425 -0.8916345258745279 -0.03715082808794903 -0.0002852811636300276 -0.0007076137783063889 -0.00016006403040741844 3.9989979205113634e-05 -0.9649299190006003 -0.06374366702584953
4.013285714285714 -0.8803056119196002 -0.03238333574233371 -0.0002449725398693872 -0.0006602870298436924 -7.247525211781739e-05 1.986309117357049e-05 -0.9632249434430165 -0.05950236475408863
4.013714285714285 -0.8840170802994962 -0.02308172865444499 0.00020407552495702765 -0.00026100273732536204 -0.00018020109719554442 0.0003827972901198439 -0.9765006593173974 -0.05176271944997575
4.014142857142857 -0.8831879518496895 -0.01523214559945373 -0.0004841991093834962 -0.00019199075184783958 -0.0001500649355319101 -0.00015145397193218766 -0.9710577480472673 -0.04738197699290553
4.014571428571428 -0.8840817445076301 -0.01194051755796871 0.00012424733437376066 -0.0006723900019158798 5.124102460644901e-05 -7.223182095360748e-05 -0.9701168744954508 -0.05271505033249636
4.015 -0.8923326946277522 -0.0006037337943428164 -0.0005716989814105063 -0.00047268252650345497 1.822917745136435e-05 0.0002652815562393325 -0.9676608316434687 -0.050338077346443376
4.015428571428571 -0.8876248183521906 0.00970951288072038 -0.00034860569626230133 -0.0002856217793914558 -8.665057888710116e-05 0.00010020332600420662 -0.9741296352995674 -0.04959953454686579
4.015857142857143 -0.8867495552891375 0.016652876069602952 -0.00019762659248510935 -0.00024334421392093453 3.341078595307896e-07 0.0002683532675613672 -0.9710492893879472 -0.04702304611452534
4.016285714285714 -0.8876592644635602 0.02300901715469395 -0.0003862865114901637 -0.00011280503767694349 -0.00037088601758584734 -0.0001275849178294631 -0.9663377343160076 -0.039115288459486745
4.0167142857142855 -0.8853607550635549 0.026889060716146527 -0.00014154782955796966 -0.0005970977284467367 0.0001484944769277075 0.00019715270215127806 -0.9664242680290618 -0.04927035078398447
4.017142857142857 -0.8830991723012873 0.03751577355266022 -8.134281250146178e-05 -0.0007024051961716449 0.00047529559151954605 0.0004048786351944626 -0.9617596168465953 -0.040749706105288774
4.017571428571428 -0.8866078951119525 0.03979609923645843 -0.0002905136009917685 -0.0007446381428079475 -7.261030641851958e-05 -7.726392685178912e-05 -0.9722081764939569 -0.04008092226772696
4.018 -0.8826325111465996 0.047124167183289586 -0.00043572507047843703 -0.00023094657697689337 -0.00024288118500263915 -0.0001484157883984411 -0.9694654000392948 -0.04023007797699903
4.018428571428571 -0.8882249397578916 0.05671289220152599 -0.0005741931922422946 -0.0004736932422555403 7.250807108635777e-05 0.00028705033843156946 -0.9717458037541987 -0.03570315919819804
4.018857142857143 -0.8803096674185814 0.065904096119202 -0.0004256714581184414 -0.0005622371167289655 0.00013085286166040935 0.000260221935056853 -0.9625293362337298 -0.025381732256471515
4.019285714285714 -0.8792873534524894 0.07646569658707439 -1.7130654651507022e-05 -0.00018378482394900458 -5.071289787882581e-05 -0.00012108663066714153 -0.9700670782653517 -0.028351585247908755
4.019714285714286 -0.8824183775549904 0.0836259296856124 4.017830769685798e-05 -9.192248703563687e-05 -7.302342389757502e-05 4.852325227476254e-06 -0.9635089156348762 -0.02871902511910794
4.020142857142857 -0.8816394021646788 0.08406185876310687 -0.0006084341923557159 1.7011198330841896e-05 -3.226903837197932e-05 -7.44777688684378e-06 -0.9682028299006501 -0.023660011952807303
4.0205714285714285 -0.8821958753482408 0.10060226087765886 -0.00043315733269440077 -0.0005339044052188916 -2.476476199725905e-05 0.000110246642647831 -0.9691104975738584 -0.025302766275478977
4.021 -0.879535984000087 0.10176965797370056 -0.000937073947031083 -7.745587015871053e-05 0.00028342104797652467 0.00011542780405832085 -0.9651617921846538 -0.02144675275507888
4.021428571428571 -0.8770551483085604 0.11379433397066428 0.00016710037152859388 -7.490720679121411e-05 4.698719040967121e-05 -0.0003378907737223158 -0.9674048453176065 -0.018342441140600657
4.021857142857143 -0.880787602848547 0.11497425349554093 0.00034888903090599354 -0.0001221820696513173 0.00012560805923625453 -0.0001153486552117216 -0.9670093752828032 -0.01642488671081875
4.022285714285714 -0.8719443691103462 0.11875320533219011 0.0001881604281704027 -0.00045255158606180297 1.350047471854629e-06 -6.148085075599307e-05 -0.9754912368266134 -0.008628444474416318
4.022714285714286 -0.8763019821096215 0.13552332473755724 0.00026289717479069456 5.308460830962146e-05 0.00012118183150678201 0.00038584580182906295 -0.9662686143119502 -0.01407844158817401
4.023142857142857 -0.8732393219388692 0.1418634780390311 -4.6750305745021394e-05 -0.0003062254733734867 2.315678853778053e-05 4.8130824340438766e-05 -0.9689520224664046 -0.006810138981822719
4.023571428571429 -0.8724955790135401 0.14405057224693554 -0.0005096607588911559 -0.00031140655478167716 0.00015561157599172588 1.8939354031531358e-05 -0.9633328821081791 -0.005180122655249615
4.024 -0.8694397814585421 0.15414394934325495 -0.0002607852652443045 -0.0006464225769451436 -1.222350126197505e-05 7.963929051758159e-05 -0.9700179493943695 -0.00789476405718181
4.0244285714285715 -0.8737023191845251 0.15882424217263205 -0.00010720008052898958 -0.000259342186310923 -0.00019288576189766308 0.00012760779746432598 -0.9693793095536377 -0.005253769581883885
4.024857142857143 -0.8726436574504519 0.17151590520372378 -4.483590617210574e-05 -0.0004663570317739432 -5.9967367355820944e-05 -9.834744308219307e-05 -0.9662455906466346 -0.0025528790816969345
4.025285714285714 -0.8724077912786363 0.17807588763334725 -0.0002610688163897385 -0.0003889391676698578 0.00012198244496390032 -0.00016932763131220131 -0.9676531295914255 0.002161058728870637
4.025714285714286 -0.8688513000097164 0.18398904766149454 -0.0004439916721222245 -7.986335077048234e-05 -0.00010896358512890746 0.00018510451260478824 -0.9756251722496077 0.011232876783102426
4.026142857142857 -0.8698626750046891 0.19055730419402023 -0.00017992069760039563 -0.0003547388453430964 -3.51509155248272e-05 -5.1484596790909073e-05 -0.9674735453960188 0.004287131904985943
4.026571428571429 -0.8575393259056425 0.20029626968265316 -0.00048200272193910543 -0.00012065528280120964 -0.00024743246030185215 0.00012065704021466743 -0.9744430141878886 0.007076127984786024
4.027 -0.861363735223631 0.20401954707969444 0.00021952903534145 -0.0001243707237082734 -2.0669814508268e-05 0.0001031045976768683 -0.9713542769175703 0.0055303627765532415
4.027428571428572 -0.864826433910245 0.2068792188059016 -0.00038527790111245305 -5.5168189079128566e-05 -0.00031869956681064544 -0.00011479219927926921 -0.9651897237085184 0.015724819811488554
4.027857142857143 -0.8579163121791337 0.21432236106741756 -0.0003869651163252069 -0.00047383442013018245 4.431781474839505e-05 -2.7740570763513666e-06 -0.9749265551835851 0.009758745179610232
4.0282857142857145 -0.8595643354291328 0.2312520191169109 -0.00027912160448414575 0.00011945706467394935 -0.000236175161651441 0.0003675907738613068 -0.971079516557368 0.021913065554623044
4.028714285714286 -0.8618294593449659 0.22819729095604396 -0.00025420534949196024 -0.00023642062570725623 -0.00014191566998010693 0.00016921689388214734 -0.9695545327979865 0.01294008978956139
4.029142857142857 -0.855822864290689 0.2418596748172312 -0.00012745341474429948 -0.00035155488587987826 -7.122802599987901e-05 -9.297817487089225e-07 -0.9679654190944166 0.02335933062557797
4.029571428571429 -0.8545594490144189 0.24444715059740194 -0.0006567677089063421 9.90701162455597e-05 0.0003285407354395881 -0.0001064632812526724 -0.9629016015989244 0.021534845288960106
4.03 -0.849452968435037 0.2520418590535087 0.0001985144939282613 0.00017773444168255344 2.4680062858102e-05 -2.2241128692347102e-05 -0.9719351439222398 0.03330336974303252
4.030428571428572 -0.8491004110157961 0.262520057825798 -0.0003435719352781496 0.00011213429711700263 0.00012400293260327858 0.00011176302050417179 -0.9702982949951628 0.02733412031587289
4.030857142857143 -0.8498686273624244 0.2652626381240262 -0.00038793830691434826 -0.00017352323868913516 -0.0002902343053978241 -0.00016233441672734283 -0.9719102980323261 0.023092943341565936
4.031285714285715 -0.8432370877680243 0.27492790528939753 -0.000305315504632609 -0.0002442982536837278 -0.0003016524583946542 0.00020559377626701552 -0.9687501751934323 0.03533641335804313
4.031714285714286 -0.8404280932423607 0.2769374045363374 -0.0005962347531666516 -5.62469005541361e-05 6.383526752406722e-05 9.911149229319519e-05 -0.9654364431549207 0.024526633129243743
4.0321428571428575 -0.8365228800083002 0.28762753110698036 -0.0010805823359775158 -0.0001550366136461113 3.719749655377057e-05 0.00019223774562836298 -0.9726122083188671 0.03512970290840616
4.032571428571429 -0.8371255356709237 0.29477615193749296 -0.00025846265479720354 7.702601322862396e-05 -0.00010891564685693699 0.00018331641406953763 -0.9658054314690309 0.04473623411338446
4.033 -0.8364421120819995 0.29998691370137937 -0.0002303514596978444 4.5624409816964634e-05 9.591483163170448e-07 0.00014783486526752162 -0.9644092566415815 0.045660415500191634
4.033428571428572 -0.8395051082010953 0.3099023220122448 -0.00029902262384235264 -0.00040108875509535237 -8.434675254380983e-05 -6.186987478228937e-05 -0.9641695928497234 0.04102018290200419
4.033857142857143 -0.8313460751734363 0.31651088537158845 4.7839341658116634e-05 0.00018690182463764702 -0.00012315934178862569 -0.00018312564516482967 -0.964333428178093 0.04381949929983957
4.034285714285715 -0.8251251004999033 0.3193387725654959 -0.00034681314842170273 -0.0003108610669670003 -0.0001862712550095847 -0.0002029347504594471 -0.965696866472851 0.042038064528240084
4.034714285714286 -0.8191003427963574 0.33314891069858504 -0.0003228742468090026 0.00040419731632069985 -8.049825407000694e-05 0.00011706769216618161 -0.9652191388477442 0.0514341517306007
4.035142857142857 -0.820809698107174 0.33624983214032467 -0.00021849604643750615 -0.00039879462505433533 5.930336346400199e-05 0.000297135911569885 -0.969148926122893 0.05172764522230792
4.035571428571428 -0.8142239308992046 0.34337579373981497 -0.000540532117471773 -0.00016204031408883964 -0.00013869423387306186 -0.0002046913534624602 -0.9652677026392759 0.055911650456851474
4.036 -0.8099880700422426 0.3540557906003029 -0.0001660086824997863 -0.00016471877029656948 0.00028541321174254796 0.00017559740358438715 -0.9689899908130283 0.05710883792990495
4.036428571428571 -0.8190413263135651 0.3520087267254124 -0.0002274292290013695 -0.00013052678918068345 -5.412027481465305e-05 -0.00018298171562855067 -0.9677505105934671 0.05217941549104805
4.0368571428571425 -0.8127575809719343 0.364352117651437 3.124302933865702e-05 -0.0002474305560155201 0.000252235025605505 -3.5499350959928993e-06 -0.9708511612887771 0.05333417056000588
4.037285714285714 -0.804764189461691 0.372800144256921 -0.0007407271579779937 -7.821908529858469e-05 0.0001898543297557062 0.0001068740065425209 -0.9625265407527113 0.05956430375671515
4.037714285714285 -0.8033580157495439 0.3700955222297243 -0.0004908325528093445 -0.0002992119644063859 0.00017752071413799838 0.00022140263497395465 -0.9690626081779307 0.05676326907390095
4.038142857142857 -0.7971149002750607 0.39077335094681553 -0.0006466768999246965 -0.0003762409377083544 0.0001103952074194606 7.477893182953848e-05 -0.9633511251177861 0.0609579820685228
4.038571428571428 -0.7968467565802194 0.3895471605858449 -0.0005268609706845824 0.00011776813731502819 0.0005449352316812114 -2.148866699837864e-05 -0.9606706338284916 0.06632813009404775
4.039 -0.7927718327744945 0.3922852104770882 -0.0003065048540603859 0.0004065310410311435 -0.00014766643960982014 0.0002649300761267546 -0.9606086460037748 0.06287794615803872
4.039428571428571 -0.7861772028096244 0.41189251219891326 -0.00039193777262720676 1.3450155676931566e-05 -8.688757626677658e-05 -0.00013121835249328484 -0.9634928061932188 0.06884537839704762
4.039857142857143 -0.7900352724708882 0.4090522334858916 -0.0005946081095861291 0.00010505778939577219 3.359578379646507e-05 -4.6137672698525385e-05 -0.9712785223624496 0.07169133461823654
4.040285714285714 -0.7854616675536712 0.4104896190845171 1.2318208604710597e-06 -0.0003204020583393332 3.826287192755919e-05 -0.00032311618798171475 -0.9648952533472366 0.07586074658981075
4.0407142857142855 -0.7854385445587628 0.4229832440675057 -0.0005831618958598322 0.0001327057555909901 8.113267610042556e-05 0.00024318055488420728 -0.9589850481150157 0.07736940635129382
4.041142857142857 -0.772979045710245 0.42725867006329327 -0.00047254066838113253 -0.0002382441185233807 -7.978552506941713e-06 -9.614421942390352e-05 -0.9681089599131458 0.08556678042627508
4.041571428571428 -0.7696620129386677 0.43485746001179854 -0.00013648585025327324 0.000287091566498749 -0.0003510495615389055 -0.0002874352510241542 -0.9649406917039329 0.08293688511097824
4.042 -0.7677382923749961 0.4452751906198932 -0.00043870895911487547 0.00026479653007631295 6.447940760315081e-05 -0.00020934987613701545 -0.9617623723567622 0.09106725490553473
4.042428571428571 -0.7625308556967337 0.448505872266575 -0.0004946588881998786 0.0004373066464283109 0.0001736245827295091 -0.00010498108607413812 -0.9602340895635804 0.09151168004637672
4.042857142857143 -0.7622847235982718 0.4455164649670591 -0.0003968028594628445 8.410550286236622e-05 -0.00023262631374577385 0.00028022023237923003 -0.9645155297935766 0.0866437548527846
4.043285714285714 -0.7545662632024405 0.4620910372990614 -0.0008440434037451363 -0.0002571739177130419 -0.00026168468615286216 -0.0004196318174878443 -0.9630861750472827 0.0856991393037467
4.043714285714286 -0.749500210303311 0.4645341134715331 -0.00027564222753864037 -0.0001634833731913376 0.00041813916705318453 -9.478450415996534e-06 -0.9668218483943382 0.08174722951231399
4.044142857142857 -0.7490528679749352 0.4725839603842949 -0.0003820780692149577 9.073870276774925e-05 -0.0002564451576283517 -0.00019132957907209004 -0.9618170742257537 0.09796159279809069
