!Created with skrf (http://scikit-rf.org).
# Hz S RI R 50.0 
!freq ReS11 ImS11 ReS21 ImS21 ReS12 ImS12 ReS22 ImS22
4.0 -0.8475325606798167 -0.2535970858259598 7.564260927075801e-05 -0.000561959755391112 3.588436768765873e-05 9.192290273196402e-05 -0.9642573925263883 -0.13060607304878194
4.0004285714285714 -0.8549738450573844 -0.24612773848901445 -0.0001794874074869988 -0.0006230288197040782 -0.00019833415226831012 0.00018234593358234632 -0.971297453852883 -0.12392435206275965
4.000857142857143 -0.8600964738934155 -0.23619968363733818 -3.4796425074672425e-05 -0.0004033337310146953 0.000482432143304717 0.00017406379581775627 -0.9652992315093994 -0.11658599581268315
4.001285714285714 -0.8526777425780581 -0.23083827133602977 -0.00020787813882506054 -0.000242898094484548 0.00010833642443166989 -1.8133352913985888e-05 -0.9652894269183637 -0.11709845764407908
4.001714285714286 -0.8619962350530216 -0.22303707723413196 9.981811433592996e-05 -0.00023632289224424622 -0.0002761442749557468 -0.0003315019459038391 -0.966211370185728 -0.12063943835964973
4.002142857142857 -0.8590254032343155 -0.22402191666407922 0.00047127127753556153 -0.0005066108798679415 6.321401214962867e-05 -0.00028770007250789276 -0.9645950942866197 -0.11206109614952887
4.002571428571429 -0.8614193155892957 -0.21226308703524516 -0.0003272891451789477 -0.00023652541074855942 -0.0003760762425400813 -3.9203896009455125e-05 -0.9686232917080216 -0.10601662060957391
4.003 -0.8674095126938642 -0.2000151185165409 0.0001312679788573424 -0.00016843795373687595 -0.0003343348749956207 -0.0001633170645530155 -0.9696372462763445 -0.10408575452243288
4.003428571428572 -0.8681191905059537 -0.19859942708440304 -0.0001397640474799761 -9.31195931748689e-05 -2.8667707556310002e-05 -3.8966842922173676e-05 -0.9616641675799308 -0.09742387544887336
4.003857142857143 -0.864693827834706 -0.1884689207732322 0.000358517874375831 -0.0003585574732462294 -7.542040117840806e-05 -1.0433427317773062e-06 -0.9696915839394973 -0.11032346415101035
4.0042857142857144 -0.8752236711673532 -0.18312043856786092 0.00017673370101360222 -0.0004713531985410624 -1.6364198428061943e-05 -0.000148120287768929 -0.9673898415106303 -0.0986545815494936
4.004714285714286 -0.8705505935536835 -0.1736600505509575 0.00010985009705865662 -0.00011371410553317599 -0.00015858616290737664 0.00011351320343469605 -0.9600553933511533 -0.10754183372201753
4.005142857142857 -0.8730524855978713 -0.16356453931035203 2.5426289755438383e-05 -0.0005345267390896421 -0.0001506633110956472 1.6288989447728225e-05 -0.9692998904484144 -0.09500042499123235
4.005571428571429 -0.8741585230239869 -0.15819414646185842 0.0003277226893948718 -0.00028025617271945397 -0.0001277683653821158 2.110600841810225e-05 -0.961351949755514 -0.09559239176284759
4.006 -0.8768664114896776 -0.1531462807062345 8.301707524150848e-05 -0.00037968430734175657 -0.00018869102471066288 -9.78108562022108e-05 -0.9705026167989862 -0.09454670255264347
4.006428571428572 -0.876872267557583 -0.15149347621280082 -0.00031974394408011925 -9.833262594229606e-05 0.0003188673881106726 -7.290688625445674e-05 -0.9675575896439707 -0.09238675987056168
4.006857142857143 -0.8812746313185019 -0.1383319375801348 -0.0002613768047670307 -0.00010872714868254797 2.0266645944119853e-05 -9.761499534342204e-05 -0.9636935698047339 -0.08641260851313708
4.007285714285715 -0.8848249049010769 -0.13076546448156987 0.000371607838008186 -0.00023414396225030477 -0.0001089859214871024 0.00011165347102674502 -0.9692125836836236 -0.08021301185819137
4.007714285714286 -0.880814703297229 -0.12740707991948383 0.00016858742540801214 -0.00012924737559023023 -7.892615297814988e-05 -0.00011286395485234611 -0.9642870067349618 -0.0833027590846051
4.0081428571428575 -0.8823079361985 -0.12253771624647636 -6.493184892894224e-05 -0.0005798221999821441 -5.6303973078191307e-05 2.0450944559821427e-05 -0.968877070928466 -0.08716362365663817
4.008571428571429 -0.88657866263044 -0.1088503113262918 -0.0005209186471405669 -0.0005656376209487792 3.2563510401970886e-06 1.7072977483237085e-05 -0.9639236414522622 -0.07734631568715425
4.009 -0.8867792723737796 -0.10384237650994274 -3.599913717138925e-05 0.00019888627286018744 -0.00030457051039052384 -0.0002154407356255862 -0.974893092669647 -0.08445079732665034
4.009428571428572 -0.8830087533146223 -0.0993013926192785 -0.00014641687104147423 -0.00013422068811486996 -0.00013437493473457027 -5.072866613675103e-05 -0.9772156949692128 -0.07540479021805598
4.009857142857143 -0.8861140390101304 -0.08943841806215988 1.2003526539896133e-05 -0.0007494025803932904 0.00023443978643242067 -0.0002432468886629756 -0.9665441902659374 -0.06975521290933481
4.010285714285715 -0.8888691584443044 -0.08139912633658473 0.0001690532496209972 -0.00021084425803899682 -0.00023875462686357243 0.00012620716864891504 -0.9641428570088459 -0.07224614795877858
4.010714285714286 -0.8879463692931558 -0.07481050711256197 -7.508607871578138e-05 -0.0005852618521962024 1.2788559077466984e-07 -0.00014429242678047987 -0.9707078113350752 -0.07179429103637507
4.011142857142858 -0.8849874168417944 -0.07087070696630943 0.00037688468631485376 -0.0005718696918250769 -8.251617776100138e-08 -1.3576866648632326e-05 -0.9714924864358814 -0.06562047093381408
4.011571428571429 -0.884961713268438 -0.057658570162417065 -5.533887293868071e-05 -2.0779089124866665e-05 -0.00017975115989854107 -4.4069980067878234e-05 -0.9704429349928786 -0.06634758501980609
4.012 -0.887717930126959 -0.054326970417204155 6.686026623071711e-05 -0.00011616701278219783 0.00014263646787781198 0.00021425619578842718 -0.9751108327237077 -0.06383425528846849
4.012428571428571 -0.8858285118496187 -0.04653945898687888 0.0003033404812590685 -0.0002912044261180749 0.00015281779208476092 0.0001517302210452256 -0.9630262123343387 -0.055549267504067794
4.0128571428571425 -0.8937356270591232 -0.03595703548092996 -0.000262157308521965 -0.0004090242459783014 -0.00010351777947106433 -0.00017153359548059035 -0.9647302936286639 -0.06342511427508506
4.013285714285714 -0.8844526242055437 -0.03183128186487557 -2.5577007167753644e-05 -0.00022112579897525417 4.355183114118713e-05 -0.00027701134167551765 -0.9620979663861904 -0.057856371186349245
4.013714285714285 -0.887233950224811 -0.02278849358533199 0.00011272823012445857 -0.0002077013160404887 0.00017255959378079824 -8.257235562915463e-05 -0.9759435116935736 -0.052536261680972036
4.014142857142857 -0.886757571784692 -0.014425295408305103 0.00021632976223825753 -0.00030958993207843557 0.0001255993732738953 -0.00015282821258559505 -0.9710811427850007 -0.04774172053324564
4.014571428571428 -0.8858035535854764 -0.011580702747786506 -0.00034354037809613007 -0.0006269129893216054 -6.073834174289147e-06 -8.450217171326521e-05 -0.9698644258027493 -0.053848143556662
4.015 -0.8949535439847635 0.0007496442976222996 -0.00010774187616053647 -0.000942527391472328 1.4627527508074023e-05 0.00031246062468120897 -0.9642762837570445 -0.05145615904281234
4.015428571428571 -0.8901810246978729 0.010982414060274613 5.569929180528335e-05 -0.00034741059369977997 -6.302233075507633e-05 0.00012891220695768066 -0.9725311818507004 -0.04841726869782544
4.015857142857143 -0.8886985011887478 0.0162812820499935 -0.0002853123980114143 -0.00012674536719860547 -3.592651186183827e-05 -3.5851914433273954e-05 -0.9727531227001831 -0.04517482646976294
4.016285714285714 -0.8901421159975489 0.02314093703870082 -0.00034742103426783303 -0.00021585566235282988 0.00031657215776650314 0.0002822021623086363 -0.9661287100436191 -0.04236593651985155
4.0167142857142855 -0.8884982506373665 0.028910338432435522 0.00010170859756274383 -0.00019590562947419146 -2.8489880672301497e-05 -0.00014778236009106 -0.964400179831722 -0.04919757579720207
4.017142857142857 -0.8859139306495658 0.03767040608957664 -0.00036395551946891564 -0.0008966834502456448 6.310342308046275e-05 -3.323299250169694e-05 -0.9624530395264208 -0.040187258499647424
4.017571428571428 -0.8904895405196325 0.040353164265175226 -0.0004352712754082275 -0.0006173457084514272 -2.936901556999038e-05 0.0001494087126107819 -0.9740618801689244 -0.04006254835771519
4.018 -0.8861380445120078 0.04894925539984382 -0.000592609800002096 -0.00027508994774961437 6.0339076230165856e-05 0.0002034219302412889 -0.9701321176764691 -0.040410760297823256
4.018428571428571 -0.8904398413184923 0.058303003451020824 -0.0003523253819900961 -0.00030375260100543147 -0.00028434906047597317 -0.0001833791598272724 -0.9723174427382394 -0.03313364305419343
4.018857142857143 -0.880384043484641 0.06621593150084545 0.00012678355188100479 -0.0004976888020278695 -4.7739540278232795e-05 -0.00033545305614645705 -0.9603343224931122 -0.027575668769297946
4.019285714285714 -0.8811246445255264 0.0755903155511137 -5.300528798044754e-06 -0.000566406342944382 -0.0004310230003971723 7.971563020202211e-05 -0.9697446871306208 -0.029277648405638033
4.019714285714286 -0.8858809853927672 0.08428236670519088 0.00026604863504907334 5.678150312045306e-05 -0.00022423271434647563 6.465145019569918e-05 -0.9655209334217721 -0.02877905969250215
4.020142857142857 -0.8848079651260025 0.08808787922701808 -0.00010956381365429053 -0.0006161915951814589 -7.503750552043491e-05 7.031591726928755e-05 -0.9680543239941464 -0.022574242595122813
4.0205714285714285 -0.8831881862171215 0.10283434248654993 -0.00019863862788727245 -0.0002651812243657941 0.0003629597114493007 0.00021747464451247472 -0.9675641866427934 -0.026278408576700805
4.021 -0.881740631904228 0.1025911800669068 -0.00037315677392614884 -3.5865603815702214e-05 -5.72964744190499e-05 0.00034492270343344463 -0.9664514796372237 -0.0196599368441054
4.021428571428571 -0.8814253792539957 0.11342498690273034 -9.647211922338894e-05 -0.00035110197170338696 -0.00024120659799356842 -0.00020057521616076348 -0.9693729665713574 -0.01709241441013887
4.021857142857143 -0.8819765169441819 0.11688860808183905 -1.9195426915586573e-05 -1.3978865099025953e-05 8.928980369969049e-05 5.6449532535587054e-05 -0.9671753278013584 -0.016344791264511778
4.022285714285714 -0.8737145257277532 0.11935781817600705 -0.00034281947821594217 -0.00035417317536177344 0.00023531974457898462 -0.00020733527811217818 -0.9734411150853336 -0.01016059274838121
4.022714285714286 -0.8800907733414489 0.1371422698836393 -0.00012764715734549052 -0.00021305812090190662 -3.250053703125974e-05 0.00029497275951636225 -0.966050383354058 -0.013430897593675483
4.023142857142857 -0.8759830163908423 0.14209137639956237 -9.719274301319574e-05 -0.00012101959111337635 -0.00030953320085701154 -1.1938577778058451e-05 -0.9670929822978542 -0.005942716875740447
4.023571428571429 -0.8777910707778541 0.1444915525044721 -6.048618342716508e-05 -0.00044549262271846736 -0.00024185032839846207 0.00031835917277023626 -0.9617601324990788 -0.005209040067279852
4.024 -0.8718105730039365 0.15618885414978806 9.873514898044284e-08 0.0001321421664129656 3.8395267711452345e-05 -0.00016996005231605373 -0.9695191652262138 -0.007388089810100742
4.0244285714285715 -0.8743599494237533 0.1592239085897959 -0.00016464971196497125 -0.000513776562139356 -0.00010556217057198273 -7.021171588186408e-05 -0.9707078386676562 -0.001949308352606127
4.024857142857143 -0.8750727830054942 0.1712547147743572 -0.0005558738291391917 -0.0007137666417835722 -0.00010438607863278407 0.00016518743750067508 -0.9659698537632828 -0.0010859248523810555
4.025285714285714 -0.8743749133237866 0.17851136166427875 -0.0004514589352294746 -0.00021658129583798126 -0.00011283612391391796 6.660950035643337e-05 -0.9668221188287789 0.0026501042960784694
4.025714285714286 -0.8722379929840468 0.18403486928642313 3.69634582161566e-05 -0.00014194824923749412 7.00731850839584e-05 1.559568817565881e-05 -0.977381110905215 0.0067200521456732614
4.026142857142857 -0.8748390346997754 0.1917309392344309 -4.111767911407123e-05 6.321495307316232e-05 -0.00030714264365877997 -1.7063829937777552e-05 -0.9700055723867009 0.0016587437512476403
4.026571428571429 -0.8586465856013802 0.20158177583872186 -0.00040388368304772283 0.00030123439280594857 0.000433053115308954 -2.4193729633270645e-05 -0.9747655281030535 0.006769446930050461
4.027 -0.8624229093943419 0.2075180859834496 -0.0002301155012352019 -0.0004063396218758877 0.0002521454072279364 -2.746150651514913e-05 -0.9690662778042228 0.0054220045752237005
4.027428571428572 -0.8672130758687429 0.20847979210077977 -0.00021442504876440855 -0.000623263922452899 -6.838691957090847e-05 -1.7757621924142488e-05 -0.9649545364185189 0.01642591104122725
4.027857142857143 -0.8624759486936632 0.21629312079982427 -0.000568131143228125 -0.0003625103922133863 -0.00014995363112064802 -0.00028601425043828325 -0.9744069474964772 0.011487987571169976
4.0282857142857145 -0.8596039281036617 0.23115383890453914 -0.0006950491888602559 -0.00020678224089795352 -4.452102750381105e-05 0.00022587307733204035 -0.9697832303394748 0.024808160530661226
4.028714285714286 -0.8644373623430326 0.2303207362611262 -0.0002084180854713523 -0.0004628946035657184 -0.00020445705731203574 -0.00016412270649686974 -0.9710211792726194 0.014553853593019469
4.029142857142857 -0.8590782553206354 0.24325599841040024 -0.0001387657719834109 -0.0004258088602721652 6.067782352706835e-05 -6.799025473259456e-05 -0.9693794959366245 0.023210154694166058
4.029571428571429 -0.8575841202526662 0.24623421628250625 6.92685445559709e-05 4.159193348568693e-05 -0.0002993411243282211 -0.00012545896686519967 -0.9617576602787768 0.021416050846418448
4.03 -0.8514067306601883 0.2527610910873316 -0.00044888479212022275 0.0002303280409040104 -9.882761497277425e-05 0.00014519325871681927 -0.9730919249373036 0.030773487836144125
4.030428571428572 -0.8509328570842435 0.26416540288053836 -0.0004897479599062282 -0.0005078629740824414 -0.0001504956151915047 8.736269645650928e-05 -0.9693899293853735 0.02796865157527947
4.030857142857143 -0.8522688673224293 0.2668964930491071 -0.0001060524451750623 -0.0007589627305975035 -9.241866588890315e-05 -6.196359695065777e-05 -0.9700059897510577 0.02259323354966997
4.031285714285715 -0.8446139572676379 0.27532952120875115 -0.00025769532056130185 -0.00024213517106501717 0.0002755459171935474 0.00013709866490891758 -0.9690269692847377 0.03519661992934922
4.031714285714286 -0.841544172454423 0.2777923109905674 -0.0005155810751795049 -0.0002389870920524355 -0.0002761865734188298 -4.600063143902321e-06 -0.9653802826118848 0.02583844627192863
4.0321428571428575 -0.8387277634441169 0.2889625162265224 -0.0005636069355898214 -0.000726245797783081 0.0002522890701561139 7.713262269440631e-05 -0.9736679230664541 0.03432583620036823
4.032571428571429 -0.8384422888401726 0.29566992546556126 -3.172356002270292e-05 -2.580563384457188e-05 -0.0002745592963972744 -8.948764784463623e-05 -0.9658175730269432 0.04422009461382542
4.033 -0.8386814822575732 0.30328884534306644 -0.00040619557134411236 -0.000595618051319086 -0.0001374813413454118 7.642027401472761e-06 -0.9651614485326218 0.04496903943749252
4.033428571428572 -0.8422349051928057 0.31096646927995714 -0.0006538371068872273 -0.00015357064694721144 0.00012126270414378455 0.00011911808364368161 -0.9642209708163765 0.039730804188451825
4.033857142857143 -0.833996385864251 0.3179544794115069 1.2126303010542434e-05 -4.082332461735546e-05 0.000190868085216381 0.00025386881476435427 -0.962503503423197 0.04477249954586605
4.034285714285715 -0.82619165091171 0.32051803979262894 -0.0004343935872692489 -0.0003535929247783065 -7.536787748115262e-05 0.00032007202105100655 -0.9673824230301525 0.04371727389118505
4.034714285714286 -0.819719544003963 0.3347220261665083 -7.342232043333285e-05 -0.000529348170822298 0.0002955872783949544 -0.000269561830840589 -0.9672415708084889 0.04956917343734546
4.035142857142857 -0.8225560357058921 0.33788905130202956 -0.0004704067464645365 -1.5066464001660302e-05 -0.0002835239673160389 4.912036374078421e-05 -0.9690263013634827 0.051840966105151126
4.035571428571428 -0.8165537657976438 0.34525494432842824 -0.0004316619533597107 6.213604559338266e-05 -0.00021890843040419563 0.00011961851230248027 -0.9665779874198266 0.05641254631709991
4.036 -0.8137303400064676 0.35636638528735376 -6.140352387635745e-05 0.00015686501101406313 -0.00017803051793908014 0.0001332083324284266 -0.9693176561679057 0.055423742334143246
4.036428571428571 -0.8222086661547046 0.353491513245586 -0.000186744161751864 -0.00017089891856261866 -8.211123877648147e-05 0.0001556109262355182 -0.9693548855997255 0.05148318101789246
4.0368571428571425 -0.8147171959406757 0.36641863912063755 -0.00027556942509214007 -5.069449440583506e-05 9.706218244092066e-05 -5.41330678154628e-05 -0.9708580092831016 0.05591523419866446
4.037285714285714 -0.8060171081287161 0.3720422871564287 -0.0007007251831054448 6.47154230895742e-05 -0.00016671618726075426 -0.00012365699402099348 -0.9635822181752474 0.05776320627081044
4.037714285714285 -0.803165946709771 0.37195644250074306 -0.00026111425739921203 4.8662750082771607e-05 -1.628632492803236e-05 -0.00012817960434818163 -0.9701602833099039 0.05686699012803716
4.038142857142857 -0.7986455381384666 0.3942902323124116 -0.0003722918761438549 4.300925801021235e-05 -3.399318338114327e-05 0.00012103761732396307 -0.9643004523481891 0.06094394107177368
4.038571428571428 -0.8015207072756053 0.3915063028745668 -0.00046644645667846964 0.00010521633785915499 -0.00010217357289234452 -0.0001827627488092741 -0.9593743513229097 0.06706510920174226
4.039 -0.7948454138785673 0.39455014970249214 -1.6881497389959403e-05 0.0002862379643662344 7.266870017230679e-05 5.916114977050243e-05 -0.9594954742412842 0.0646848136576075
4.039428571428571 -0.7904225565729741 0.41392601105904964 -0.0003440432480150668 -0.00024369395235919504 0.0004627732990503322 -0.00034797008702143196 -0.9638606359278236 0.06862757438966913
4.039857142857143 -0.7924840325979893 0.41131249374929146 -0.0003540269615407115 -0.0002029429712873217 0.0003080249731901088 8.55934746680253e-05 -0.971151480208715 0.06972278974762403
4.040285714285714 -0.78664582070421 0.411461741158597 -0.0007378643227540066 -0.00023750158928698874 -7.773100814078558e-05 -0.00016879531315613106 -0.9650054948513388 0.07354137538089893
4.0407142857142855 -0.7884447309243555 0.4246814986351208 -0.00017519412335273036 0.0003368695419387244 0.0003197201233468806 0.00018606201119635008 -0.9598789669020279 0.07613820080379224
4.041142857142857 -0.7728955275103127 0.4293633058085287 -0.0005196710048781447 -4.694053423297808e-05 -1.4515809255999012e-05 -0.0003394915554208985 -0.9702547477440429 0.08462624760890734
4.041571428571428 -0.7725379973887787 0.4364198248822499 -0.0004984693624971289 6.876294994100951e-06 -5.9009538405379684e-05 0.00016259060621396954 -0.9650331482578076 0.0835996312978954
4.042 -0.7710211114389625 0.447307983625408 -0.0003187427148262075 0.00013248752289385713 2.2682111904987166e-05 0.0002045330731353122 -0.9628417957705173 0.08888407744660927
4.042428571428571 -0.7625580061061148 0.45182961461325344 -0.0006708168221172809 5.9982096930643656e-05 -0.0002391804583534074 -6.125386705758588e-05 -0.9617135672222171 0.08966007688913594
4.042857142857143 -0.7630677797908308 0.44635293545298677 -0.0001193486205707525 0.00012073651505508412 0.0002297368597051106 -1.5793424089782934e-05 -0.9645055483879132 0.08741751941506218
4.043285714285714 -0.7584135159744609 0.46414989739997525 -0.00046728435285992996 0.0005277768622833407 -5.657947737640064e-05 -0.00017616625489368098 -0.964538700475158 0.0860627332618971
4.043714285714286 -0.7513426897308012 0.4660583862988702 -0.00028316923912602296 0.00015594685482872006 -0.0002656133449892659 -1.239922681580358e-05 -0.9664958477078321 0.08219460144602338
4.044142857142857 -0.7502316395471946 0.4767047824854839 -0.00028399795908641117 -1.0659250002741903e-05 0.00021540624572335534 -7.818342920058163e-05 -0.9617253850871608 0.09686513517917104
