!Created with skrf (http://scikit-rf.org).
# Hz S RI R 50.0 
!freq ReS11 ImS11 ReS21 ImS21 ReS12 ImS12 ReS22 ImS22
4.0 -0.6471686881464467 0.47775484418880987 -0.0004695208137766606 0.00012347054959891283 -0.0004882519804081027 0.00012864902366497438 -0.9632901483633581 -0.12887796613858693
4.0004285714285714 -0.6458648608461658 0.4869251680510836 -0.0006619190878638119 0.0002484381599601278 -0.00033121429969822607 0.00041457194418438755 -0.9720505847942345 -0.12195304257745865
4.000857142857143 -0.63915228822267 0.4961375234187851 -0.0004006602909501768 0.0005038443090251185 -0.00044711736227440077 0.0002689602012469063 -0.9679739604536122 -0.11618790325730033
4.001285714285714 -0.6308157810439821 0.4958258048985032 -0.0003587968829030871 0.0003948703445566821 -0.000622609382480268 0.00028411599984774863 -0.9655175542914212 -0.11684638851203555
4.001714285714286 -0.6284627506981778 0.5047070454429131 -0.0001682547368195314 0.0005160393554962712 -0.00035130360781896684 8.075946517852744e-05 -0.9649798815726285 -0.11985883136964132
4.002142857142857 -0.6299460043226917 0.5041601734188892 -0.00043181073985299845 0.0002707963195681888 -0.0005389777060332302 0.0004273906018316679 -0.9649399544647042 -0.1109625701503212
4.002571428571429 -0.6203704156580265 0.5118005725134177 -0.0005058017764861037 0.0001570807551837468 -0.00048221135783098985 0.00047588337485346985 -0.9698588831947851 -0.10551394904751239
4.003 -0.6124029495289705 0.5237030130919584 0.00011144080314452348 0.0005952671400481652 -0.000345029785216273 0.0008758970244661393 -0.968268218911722 -0.10481880411147965
4.003428571428572 -0.610371041106436 0.5292292070415748 -0.00045448133061482665 0.0005101832703347743 -0.0004488037716744885 0.00030608149574417947 -0.9620948970442648 -0.09747643435679414
4.003857142857143 -0.6020118713801138 0.5276448793180232 -0.00040221375758633547 0.0003494763754326242 -0.0002808783309996517 0.0004585558654016099 -0.9717579016255504 -0.1102175157169029
4.0042857142857144 -0.6024232035034979 0.5428995907158227 -0.00018196382473696448 0.0006385724788469341 -0.0002949567721972638 0.0004893961015309851 -0.9655575603514425 -0.09849085759451683
4.004714285714286 -0.5908921371178687 0.5459338014798835 -9.997997627456905e-05 0.0007137045201319177 -0.00055082749426308 0.0004166197136358341 -0.9593266748698656 -0.10461144447236573
4.005142857142857 -0.5837202467695829 0.5505161649653377 -0.0002695014057962469 0.0004757178099993322 -0.00039212901576120756 0.0008935957407610371 -0.9674981442389315 -0.09460270838311347
4.005571428571429 -0.5796804532700618 0.5535188757970347 -0.0005060721372589891 0.0009823463352227257 -0.00035080677922045737 0.0005961717945797324 -0.959268087557387 -0.09639975763595196
4.006 -0.5791200663182912 0.5607373337046216 0.0001152062753888486 0.0007369897782495994 -0.00022185427544434445 0.0005467445873499437 -0.970127523847021 -0.09366024196148623
4.006428571428572 -0.5762101123457075 0.562546314331653 -7.425923971354846e-05 0.0006333484964527588 -0.00024899767657443687 0.0005077752428497905 -0.9675277261330725 -0.09118753627275687
4.006857142857143 -0.5665054278298386 0.5730959245597318 -0.0003604303369554907 0.0006477444142433361 -0.00034811935993392135 0.0006992593528983028 -0.964258647330687 -0.08717601854714603
4.007285714285715 -0.5600938758684219 0.5796853626740172 -0.00021237022099831682 0.0005471710853005102 -0.00010686964921899296 0.0007585762486503509 -0.9683852083073533 -0.08036316187002687
4.007714285714286 -0.5563293883659546 0.5807630278279691 -0.0003283979913697894 0.00036095979668536123 -0.0002779026978117825 0.000516914193684939 -0.9624518730577906 -0.08226429540033865
4.0081428571428575 -0.5536142124898195 0.582983208462379 -0.0001502551122497441 0.0006916685289575665 -0.0002409684188633727 0.0008658404670038902 -0.9689775448733408 -0.08594382539421913
4.008571428571429 -0.5429029276219741 0.5956092635685565 -4.775352538950025e-05 0.0006218486224157472 -0.0003065595079218897 0.0005429388760416809 -0.9634569186598044 -0.07857931993128543
4.009 -0.5376455512068479 0.5984142798128115 -0.00024493949462473744 0.0002802661755567953 -0.00013891843509777592 0.0006708323662175984 -0.9749080159284426 -0.0831414234798775
4.009428571428572 -0.5378837814461622 0.5986085160542006 0.00011610082508403472 0.0004836196607454614 -0.0003519775267426492 0.0007492150599669578 -0.9753347712387959 -0.07647468708908352
4.009857142857143 -0.5269655357978754 0.6086724642902999 -0.0005852788660903771 0.0003189894246178224 -8.855831384373343e-05 0.0008254502851953125 -0.9674823926335319 -0.06841325381472714
4.010285714285715 -0.5229327779538112 0.6148007829820634 -3.4713350035702495e-05 0.0008180809747571413 -0.00024337475180972732 0.0009348859327834067 -0.9646318688871852 -0.07287031575487353
4.010714285714286 -0.5151209950275726 0.6162352806830451 -5.577429649974899e-06 0.0009264658980091692 -0.0003017941852314379 0.0009165521189774853 -0.9696498195822179 -0.07072024695848005
4.011142857142858 -0.5092433960621092 0.616243637280279 -0.00022240371705205944 0.0008142356618076694 -0.00033673313129559384 0.0007942689577581484 -0.9692550426833211 -0.0648069650784751
4.011571428571429 -0.49675029992311764 0.6216944577582303 -3.226121114398852e-05 0.0008052896142020787 0.00014419928923326897 0.0007153097082348362 -0.9705321908660554 -0.06422864213615923
4.012 -0.4971183839832609 0.6299910729060479 -0.00017258036674962178 0.0007479993604062558 -0.00024155874969348552 0.0006005253281649446 -0.9754413904884045 -0.062180675911884184
4.012428571428571 -0.48787550474005287 0.6343186924538076 4.136882640819359e-05 0.0007031506361269596 -0.0003507608632071998 0.0005943130405181378 -0.9622594761379665 -0.054798237772959744
4.0128571428571425 -0.4841863694950203 0.640982800314916 -0.000396785089869106 0.0005766182447388309 8.587772151538234e-05 0.0009630593181498207 -0.9643749966893563 -0.061105844685279964
4.013285714285714 -0.4748687764197144 0.6360938572706984 -0.0005007151726113387 0.0006589530691304334 -0.00019308381407108112 0.000946550265648796 -0.9628509095066731 -0.057125258337582495
4.013714285714285 -0.4664514263189971 0.643919649553239 -0.00046112967070019987 0.0003972921786412917 0.00023621690858795677 0.0006780253504934409 -0.9751079568273032 -0.05049815951632466
4.014142857142857 -0.46096325557965695 0.6497868428458805 -0.0006914360085034203 0.0004546879184192757 -0.0001550642126445298 0.0006794326728342356 -0.9715091235630074 -0.047472112306775074
4.014571428571428 -0.4585394216369707 0.6494527499087379 -0.0003436372396984992 0.0003523643926228983 0.00034683724927198734 0.0007229499574928206 -0.9694017171315914 -0.051755908456027074
4.015 -0.45109926886974794 0.6667520449019263 -0.00029748706502116036 0.0006312677144273011 -0.0003095538124732553 0.0005809724417487757 -0.964752108245154 -0.05071015270938951
4.015428571428571 -0.4397996825939141 0.6681842607571465 5.4349001393512914e-05 0.0008820211817130751 0.00021125656290808077 0.0005276075357089802 -0.9704693785849597 -0.047793889874935484
4.015857142857143 -0.4331168064984067 0.6686882923630102 7.381278456229667e-05 0.0006290715602275734 0.0002641571951682319 0.0009244819004916282 -0.9697546980563239 -0.04568971645434368
4.016285714285714 -0.4288225198051322 0.6720595142967553 -0.00010510556277306496 0.0007668958906993319 -3.423562497046793e-05 0.0008809785441522567 -0.9661223571641181 -0.04030190888919047
4.0167142857142855 -0.4208077060633142 0.675051912106916 -0.00042140612584484386 0.0008150843652734049 0.00020780093779090484 0.0005672781226325399 -0.96621018150036 -0.04841104667491229
4.017142857142857 -0.41192576362632294 0.6765392149710847 -0.00013223587890796406 0.0006790093072615372 0.00013388524998615613 0.0007725117659503723 -0.9630978458529996 -0.03862461504880663
4.017571428571428 -0.4103445888422491 0.6848333244958403 -0.0003012334141647047 0.0010307386376036689 8.203519415681351e-05 0.000803801941060858 -0.972692569419405 -0.03918812722371421
4.018 -0.40207525299166724 0.6822470635174728 -1.3697370311809284e-05 0.0007908968288514965 8.951670930276212e-05 0.00044905456428938714 -0.9693218734445354 -0.039384043894079034
4.018428571428571 -0.3952308950136922 0.6905310597019813 -6.315247835559707e-05 0.0009513431639601362 -0.0002788241937647885 0.0009299026196224568 -0.9710099668471706 -0.03376242547399292
4.018857142857143 -0.38636544304324166 0.6899473781590117 0.0002394949991313104 0.0009022300363539743 0.00012269860710041304 0.0006776570785623953 -0.9613001881429881 -0.026197756795293212
4.019285714285714 -0.37392814151728937 0.6930702283376297 0.00017671142745035652 0.0003503172253406859 0.00015094577119013382 0.0008144364230338904 -0.9681346320831895 -0.027002661278497687
4.019714285714286 -0.3698848485800474 0.702123317111286 2.3706026785049313e-05 0.0012008679055741953 -3.211469760716016e-05 0.0006296071235329718 -0.9647677217924332 -0.027405783129845023
4.020142857142857 -0.36726811358094646 0.7032997935353236 -4.4379307274365786e-05 0.001022464852916238 0.0004247417335754616 0.000676916164174254 -0.9677642917059337 -0.02452064883774051
4.0205714285714285 -0.35219214486117956 0.7114723909797888 4.3444415910346744e-05 0.00027425777288979386 0.00012313394692154943 0.0009629425217824758 -0.9698688311760565 -0.025111799776561618
4.021 -0.3541645182896122 0.7080827261108537 0.00022876511342578067 0.0007900100529730412 0.00022793301044377886 0.0009270256630302662 -0.9654327343816933 -0.01799486607888609
4.021428571428571 -0.34246553831350424 0.7101867045585805 -0.00011902266138979021 0.0010128931266308613 0.000247935068254161 0.0007147961383192602 -0.9688023285540202 -0.01940420252070388
4.021857142857143 -0.3410623458857521 0.7163081566650654 0.0004848304483890704 0.0007976786452353685 0.00029566331650195165 0.001002592768749688 -0.9677412642320585 -0.014350122720802518
4.022285714285714 -0.330237132421536 0.7112752889059655 0.00029216456335534645 0.0006139099252307647 0.00013606642890168718 0.00085257524943065 -0.9752757184258636 -0.007361981899746826
4.022714285714286 -0.32007702316514286 0.7258417292494513 0.00017142293436842406 0.0008419915235127803 9.166150346141985e-05 0.0007894630301788875 -0.964866955703876 -0.011869465094263324
4.023142857142857 -0.31263185119311004 0.7235996941634281 0.00042526758257740467 0.000700740529072558 0.0002457627555240162 0.00048255412716514663 -0.9685353250973542 -0.0063577056702246665
4.023571428571429 -0.30986651605740995 0.7236468797657817 0.0005108106588962872 0.0012102529588616713 0.0006037619849119159 0.0004000203331403681 -0.9621286628308955 -0.0031664809266534534
4.024 -0.2987829007375016 0.7248747670326721 0.0005955181155561942 0.0007189598627436499 0.00018028014979310032 0.0009749293398288369 -0.9719331958426797 -0.005199137281198726
4.0244285714285715 -0.2942359872326171 0.7319406149769281 0.00032632515375610407 0.0006779695858878448 0.00021619675523836367 0.0008834790866682137 -0.9699687760143924 -0.0015084958117946084
4.024857142857143 -0.2848692368573102 0.7359830624958049 0.0005302607181985955 0.0009974233868463825 0.0004341963350558126 0.0007606301601375862 -0.9669573930386635 -0.0011754717521654193
4.025285714285714 -0.2770093852627966 0.7425730597303123 0.00031767355307935996 0.00048553122070778054 0.00038222315580535376 0.00041211317308080726 -0.9679585174955092 0.004708717491878893
4.025714285714286 -0.2676067551340713 0.7403942069483158 0.0006507929372079643 0.0007234106020979967 0.00047303066630218974 0.0008992439298065089 -0.9754223767449021 0.010127874560291114
4.026142857142857 -0.2655142476139744 0.7476311802141784 4.1733375973945135e-05 0.0006591745680172767 0.00019924425062032414 0.0008833723432302974 -0.9687351683959868 0.004465927330198808
4.026571428571429 -0.2515846213311555 0.7395059314460709 0.0003276472590393413 0.0008694982184049014 0.00036817610183836614 0.0006774989151348684 -0.9723413134436523 0.010581561918826924
4.027 -0.24626077425360188 0.7462286335783063 0.00025074836735961307 0.0007606701856153489 0.0005434503825742629 0.0010780817088595009 -0.9697882852159567 0.007372824166152999
4.027428571428572 -0.2464426239290958 0.7515506495837538 0.0001626989545635963 0.0008439620815090347 0.0003472837910746797 0.0007194085810161406 -0.9656870149910121 0.018270949835689377
4.027857142857143 -0.23644246086373963 0.7486456782698879 0.00040729520953931196 0.0006687081710063824 0.00032316535104037975 0.0009903004125212402 -0.9743648271863775 0.012513373608907597
4.0282857142857145 -0.22104608766196282 0.7548834698083016 0.0006964430179291946 0.000992712289132199 0.0006045897171708395 0.0006411497398996099 -0.972708511997842 0.021963132741285044
4.028714285714286 -0.22488013717742392 0.7595809511883621 0.00044366225794339103 0.0010142213139438844 0.0005926569238587833 0.0010168950243044004 -0.9683645413669384 0.015842905446565744
4.029142857142857 -0.20935033827648775 0.7587004391976697 0.0006495751060893516 0.0009838734616102105 0.0006790377699928231 0.001029702059948085 -0.9692492487203996 0.024368789555320014
4.029571428571429 -0.20580128013857385 0.7589534940018267 0.000630083472295349 0.0007598881837841588 0.0008273266683743853 0.0005309103279720703 -0.9630421230436916 0.02230717302045861
4.03 -0.19839202207792087 0.7581606774446826 0.0006281705680854963 0.00041222220146755435 0.0005039906291002884 0.000685612236409812 -0.9723335177383926 0.03399781845817423
4.030428571428572 -0.18716216787870912 0.7593563405512946 0.0005463603180951475 0.0009971600520906447 0.0007365230754175029 0.0004895700898311352 -0.9692510940553514 0.029035104233801085
4.030857142857143 -0.18510693687687224 0.764175805019885 0.00040146403661436733 0.0009487679797481913 0.0006707583522151291 0.00038674169651574565 -0.9727484785754087 0.021604502331117607
4.031285714285715 -0.17543776980921585 0.7628825150310288 0.0004145238419182664 0.00081415215850789 0.0004716822523352846 0.0008535071101886621 -0.968002082955084 0.035225962895284034
4.031714285714286 -0.1699316231409849 0.7610989672740008 0.0006373259034591767 0.0007301198829766395 0.0006741859585347819 0.000849080425297696 -0.9667010864466499 0.024421071433530325
4.0321428571428575 -0.16015103900578134 0.7615942088107501 0.0008601583279623025 0.0007846856596211494 0.0005743372437543465 0.0009230857105191865 -0.972957772263727 0.03542748006308345
4.032571428571429 -0.15034549478723835 0.7664543651830746 0.0010809600236095624 0.0006616722261954765 0.0006148789165160692 0.00036478868906590905 -0.9660557283121144 0.04418877736408098
4.033 -0.144906361071999 0.7683491231054741 0.0009247351542022973 0.0006057000725003891 0.00022178485830710658 0.0008334992944577391 -0.9660055519314867 0.04598331754530885
4.033428571428572 -0.13911096425884859 0.7751202410682893 0.0002285359739248086 0.0005706603138111581 0.0006325366434549105 0.0005456096636811787 -0.9629497513283397 0.040641926909566625
4.033857142857143 -0.12802100731121488 0.7725610040584391 0.0007831601541814045 0.0005863215066023937 0.0005966230456658722 0.0008370483117620874 -0.9630534974863272 0.04380111298184994
4.034285714285715 -0.12183674008555771 0.7671143313227768 0.0011453502160964212 0.0005293741099404339 0.0006905198293696975 0.00035046121655199014 -0.965820923971709 0.042001908343738494
4.034714285714286 -0.10842667408463923 0.7681013969230743 0.0009135744671490532 0.0005153741038749448 0.0010204125500582217 0.0009367880677185468 -0.967593348998492 0.05126575449564466
4.035142857142857 -0.10386299749940422 0.7730857488333689 0.0006761148074845383 0.0002830556504233135 0.0010979301270290839 0.0007251224814391075 -0.9703949472440379 0.05163711760786195
4.035571428571428 -0.0950364999545028 0.7677324212034257 0.000648111252059177 0.0004740416931577926 0.00042012828468052343 0.00085775965608072 -0.9684941778094076 0.05659615840818964
4.036 -0.08429121007280047 0.7694974081335394 0.0007665165698023081 0.0005435291452489592 0.0010224716008860994 0.0005908497977134031 -0.9702448467030157 0.05695420076603795
4.036428571428571 -0.08566538628453067 0.7784522265571374 0.000994815786167824 0.0005218712539441924 0.0009325244534169639 0.0006840644676813647 -0.9687379795107061 0.05385488731683888
4.0368571428571425 -0.07306482365304598 0.7771416147638153 0.0004979933253630442 0.0009425142208342534 0.000867473971789398 0.0005080702405666504 -0.9683886242643729 0.056451132452322
4.037285714285714 -0.06345464353997492 0.7724429616462343 0.0010478731162091252 0.0002580762587525956 0.0007844297279239958 0.00048376119985908016 -0.9624785106699683 0.06047753896278018
4.037714285714285 -0.06244002579506854 0.7725304815014646 0.0009071661165794636 0.0004871594653371444 0.0011450869762840957 0.0006778616927296001 -0.9696504919563321 0.05818295222894161
4.038142857142857 -0.04252210996842283 0.7751515250357289 0.0006048342341740372 0.00016245753961013868 0.0010257927980040459 0.0004895485509587158 -0.9640315402452894 0.06394480625417052
4.038571428571428 -0.04121604271749286 0.7777025567253711 0.0009102876423396077 -0.0001383191896510296 0.0012781576018758769 0.0008151773346945086 -0.9621462620375704 0.06698673919201026
4.039 -0.03876520603880068 0.7764925909809931 0.0009198230097207374 0.0005679433681947489 0.0010194136666097225 0.0006558611943205504 -0.9583118485202041 0.06421457598679986
4.039428571428571 -0.020773957592810328 0.7745119601412647 0.0014680910946683987 0.0007576987096487779 0.0007938915111580945 0.00034714860882643244 -0.9634943942789432 0.07021322368548544
4.039857142857143 -0.01899391646216249 0.7782852262413857 0.0009264401817085841 0.00024175244104080525 0.0009294627520069541 0.00038338063042047624 -0.9725837887191442 0.07189691715972055
4.040285714285714 -0.017662667937997395 0.7759068895652818 0.0008114518050455006 0.0008336311700640964 0.0011765409321718733 0.00047214029139803755 -0.9633532235515856 0.07543994399202196
4.0407142857142855 -0.00381408559717828 0.777942879367539 0.0011054078094644118 0.00043237952421579706 0.000905886182438596 0.0005516408636197016 -0.9583588838315129 0.07722608979505302
4.041142857142857 0.004262579399149855 0.7704148818473939 0.0012892904197374917 0.00093967802927384 0.0010305293076291874 0.0002664704175224206 -0.96677652836437 0.08453362730256968
4.041571428571428 0.013394916276121476 0.7698541486826449 0.0008537247374542788 0.0003384541492938072 0.0012972322691587876 -8.329585312544901e-06 -0.9653400941117833 0.0844323276502749
4.042 0.020557067939093863 0.7728042701616209 0.0007777091868995804 0.00016220235191615238 0.0009643661134521786 0.0001803787182203392 -0.9622711348424118 0.0906219309824058
4.042428571428571 0.02811243844103225 0.7708228747729254 0.000762839190207996 9.495810007998774e-05 0.0011381314711962189 0.000334306089237236 -0.9586255206757542 0.09253370038823902
4.042857142857143 0.025290829926531543 0.7706108565164673 0.000924185833953264 0.00013102700422945343 0.0013466174542258909 0.00013350582333658838 -0.966334390637089 0.08874738548960366
4.043285714285714 0.045753975053183654 0.7690314223472224 0.0014529564798996832 4.9373950037402605e-05 0.0008259894057537562 0.0001528755284588442 -0.9645298374422379 0.08705870774024968
4.043714285714286 0.04729289474648764 0.7671288787139925 0.0008637707049567907 0.000566153753399122 0.0012994010512862352 0.00013527450204742865 -0.9668543102534275 0.08259225441635877
4.044142857142857 0.060781622148719495 0.7679950604204917 0.0013201579419920486 0.000586649436132942 0.001004019014068296 0.00017421503934759555 -0.963900571141912 0.09796945398251848
4.0445714285714285 0.06581271176686079 0.7682410647385188 0.0011444146391236445 0.000617669387530557 0.000680585438074887 1.3875812865193777e-05 -0.9636058074498569 0.09587696196646811
4.045 0.07338541530441509 0.7650752198283545 0.0012992040503303445 0.0005246206119976781 0.0008312701699258174 0.0002055454268844357 -0.9686384834811224 0.10280639452604699
