!Created with skrf (http://scikit-rf.org).
# Hz S RI R 50.0 
!freq ReS11 ImS11 ReS21 ImS21 ReS12 ImS12 ReS22 ImS22
4.0 -0.8309499255307775 -0.2554093591570239 6.792558455470328e-05 -0.0002482195170870365 0.00010848330933029059 0.00022223347063643763 -0.9636363988464112 -0.12994769339090076
4.0004285714285714 -0.8379691817426165 -0.25009152263661516 -0.00010698555221400646 -0.0006661595098047253 0.00024794329394142614 4.526460482101638e-05 -0.971071879211016 -0.12325570307256903
4.000857142857143 -0.842108814403792 -0.23993169652821195 -0.0005079444267082892 -0.00030370318257109296 -0.0004063110312673442 8.79873421646706e-05 -0.9663548850512745 -0.11632359641158344
4.001285714285714 -0.8370662347969982 -0.2331061438071101 -0.00044724581776007285 -0.00038832571155467246 0.00014677770728924652 -7.07918410816743e-05 -0.963582844279563 -0.11649781964802797
4.001714285714286 -0.8427320321630628 -0.22643218480175684 -0.00024623881346754373 -0.00044901122540113637 0.0003205324507175392 0.00015354635453467919 -0.9673112327788181 -0.1225848381312983
4.002142857142857 -0.8421154513435934 -0.22585643941177846 -0.0004938815909642489 -0.0005051203467032893 7.32724780679254e-05 0.0002079430823632626 -0.9671587986029959 -0.11204732747341602
4.002571428571429 -0.844527777505978 -0.2168284435941034 -0.0004663101568621166 -0.0005403073723566602 -0.00010404618733945505 -0.00034768951821412725 -0.9711029032446119 -0.10691780552355812
4.003 -0.8496980740316629 -0.20381729712635696 -1.9123793403886745e-05 -0.0005795456914434649 -3.0286185598355707e-06 -0.00012834879519500075 -0.9688291961522691 -0.10639088886737352
4.003428571428572 -0.850489304535542 -0.20190902932504992 -0.00042225453177630447 -0.0003915873705780302 -7.254455991681883e-05 -8.348532218795855e-06 -0.962181081853902 -0.09943692169156162
4.003857142857143 -0.8465989460563577 -0.19377787009799238 3.6282572146584656e-05 -0.0007244197407801513 -5.5006087218210635e-05 0.00013360028381617677 -0.9731176693132223 -0.1112749277448131
4.0042857142857144 -0.8594795317736648 -0.18657602923681216 -0.00037258712543999483 -0.0005069239974194693 -7.118451373579392e-05 0.00017189224631972223 -0.9680216651825072 -0.09956237187451109
4.004714285714286 -0.853999274673697 -0.17691662215207982 -0.0005544159075982303 -0.0004777489532794638 5.9102178768601015e-05 7.34602443310377e-05 -0.96003100251679 -0.10834066698337613
4.005142857142857 -0.855917710777571 -0.16906035288592103 -0.00043006101874344823 -0.00020685084734092018 0.0003627474312027821 -0.000173375478158194 -0.9676519566271788 -0.09592723734655798
4.005571428571429 -0.8577032509077468 -0.1632886328140342 -0.00036079099916496007 -0.0003881814131111038 0.0001705068595937141 0.00014519097287979404 -0.9589203854488958 -0.09466427714084852
4.006 -0.8603640902879685 -0.15961813133302244 -8.840330815570831e-05 -0.0006071835439588431 0.00012867688039853854 0.0001809618440128395 -0.9703702567288229 -0.09445466546060775
4.006428571428572 -0.8594399434881885 -0.15482398691227658 1.8788012901569794e-05 -0.0003532285096295199 0.00015748695670559363 -9.732822522105426e-05 -0.9685748029623251 -0.0941199446575571
4.006857142857143 -0.8639129842340805 -0.1432844402755386 -0.00033008657144546175 -0.00037510664320158905 -4.216567608109895e-06 -0.00036534511629368914 -0.9637748035136174 -0.08561241580535921
4.007285714285715 -0.8655328960789925 -0.13676542560627142 -0.00013677588204793686 -0.0003281830954587037 -0.00011821505853674664 -3.7097920468416556e-05 -0.9693968200939961 -0.0803106607459322
4.007714285714286 -0.8632535350165353 -0.13137878658893462 -0.00014409890834545823 -0.00023028839008405687 7.967223071899503e-05 4.498780258940169e-06 -0.9616883479528683 -0.08499994414508726
4.0081428571428575 -0.8657573883122351 -0.1285504252905875 -0.00039871251311370323 -0.0006664596847738757 0.00019862455407458998 6.931909828828012e-05 -0.9677025338511887 -0.08831560182821882
4.008571428571429 -0.8677761320858552 -0.1140980651858877 -0.00048186285175125736 -0.00025962109267621547 -3.705475147699001e-05 -6.170298979811242e-05 -0.964227667659406 -0.07730619092002411
4.009 -0.8699965563992661 -0.1084137616640274 -0.00030191147523134 -4.0536936173669937e-05 -3.467185055043177e-05 8.109424371629311e-05 -0.9744718382892411 -0.08535302285546094
4.009428571428572 -0.8663829085650874 -0.10562574403073688 -0.000435367391270782 -0.00022123583848690726 0.00019219297374814914 -1.8512900396083147e-05 -0.975988730379661 -0.07442298426447005
4.009857142857143 -0.8691425141731061 -0.09462347201959641 -0.00012779589170485301 4.892281829337531e-05 0.0001545431865605158 0.00016390234795864457 -0.9681896606809782 -0.07109033222560765
4.010285714285715 -0.8717020975473955 -0.08781129631362607 -0.0001835210391785566 1.0028320926229194e-05 -0.00010531928756942785 0.00016434010085935978 -0.9650238781172491 -0.07257223316539614
4.010714285714286 -0.8714140362524567 -0.08113681334288131 -0.0002533905350334002 -0.0001512469734616106 0.00015116771250010648 -7.593123220732185e-05 -0.9700092976142635 -0.07019237368147521
4.011142857142858 -0.8676623081447363 -0.07904735006480709 -0.00012420549766099142 -0.0005701993341827371 5.026464482649448e-05 0.0002536611502318263 -0.9687990456427703 -0.06328384764308881
4.011571428571429 -0.8687578076616579 -0.0643005053724859 -0.0003323349310327145 0.0002072782143827926 0.0001696200699099189 -3.1789033104393396e-05 -0.9710329882558376 -0.06664101362431446
4.012 -0.8717992320417239 -0.060999756872622254 4.82785210289058e-06 -0.0005289003990366158 2.5815466054932344e-05 -5.095265737686405e-05 -0.9751156684376031 -0.06287490257688254
4.012428571428571 -0.8723076937696229 -0.052212370946571364 -0.00017889004655577631 -0.00014829605638862252 0.0003355465785952485 -0.00013463975268135985 -0.9636153211277466 -0.0558203489660205
4.0128571428571425 -0.8779661225459372 -0.04253589262160666 -0.00015922213976429092 -5.826147845231859e-05 0.00011552770231418411 -0.00019324043923009377 -0.9647218764639874 -0.06555317438052442
4.013285714285714 -0.8670136765309654 -0.038747904814646544 -0.00045105328846103195 0.00013643543197216823 1.6472521715296955e-05 -9.117198873391854e-05 -0.9626253368214008 -0.06031230582290872
4.013714285714285 -0.8704426486119143 -0.03025197578644766 -0.0009764814949168244 -0.00030541732963140403 -5.528597382108952e-05 0.00012641259759515935 -0.9763093354245805 -0.05269263645752168
4.014142857142857 -0.8706951262653029 -0.020431122415373086 -0.00044830639631615387 -1.4753380570304199e-05 0.00018451329708739147 9.217084850401271e-07 -0.9720322418190804 -0.045962132909366925
4.014571428571428 -0.8686642172904523 -0.017640366701009772 -0.0002688322854059978 -0.00045631762639323446 -0.00014951876812991147 0.00022215466075236592 -0.9693476416167156 -0.052902937610144474
4.015 -0.8793702653122577 -0.007551176629775296 -0.00048010870069083384 -0.0002158209351414719 7.848740638671898e-05 -4.639008796418044e-05 -0.9636442726262029 -0.05151185434579101
4.015428571428571 -0.8749613660506659 0.002986203468702241 -0.0008441540648212978 -0.0001194343454723608 0.0002985500982357505 7.471928905159077e-05 -0.9726262991078891 -0.05059218238165789
4.015857142857143 -0.8730170346947017 0.009786365035326936 -0.00032874328256674186 -0.0005156738662544412 -4.341395922834985e-05 0.00010610973141445593 -0.9711180296215729 -0.0467582192773765
4.016285714285714 -0.874264619402188 0.016795691607589473 -0.00042081434225449215 -0.00036074291201487285 0.00012376661950612756 -0.00024768875547050487 -0.9659658636767791 -0.044178914752230646
4.0167142857142855 -0.871937876918776 0.021756729476928784 -0.00032188995563471595 -0.00037481761427477785 0.0001554450359383609 0.00019158501637123773 -0.9672935275138407 -0.049334761967562674
4.017142857142857 -0.8706623703829144 0.031674897127105694 -0.00036754078881715355 -0.0004105778679699376 -8.80546689066466e-05 5.967713116369946e-05 -0.9619492297723098 -0.03959868582011547
4.017571428571428 -0.8751942553258261 0.03414263797768515 -0.0004395068143028605 -0.00020073010878137538 -0.00012079479263918935 -0.00045420838367931304 -0.9728363241196784 -0.042208423799756485
4.018 -0.8718947806241486 0.04134069649341134 -7.156027278976295e-05 -4.4934577744035115e-05 -0.000168319492987303 9.468951514911349e-05 -0.9699086492169179 -0.03979371317866739
4.018428571428571 -0.875040694559054 0.04917312146757934 -0.0005833898410698953 -0.00013241153388409086 3.257202087684524e-08 -9.96358113340806e-05 -0.9712080013277153 -0.033432133249244614
4.018857142857143 -0.8676929744949404 0.058651128679944875 -0.0008761954077422143 -0.00023746086016006 0.0001574026075609423 -4.388787931068789e-05 -0.9624033498728137 -0.026455086452722612
4.019285714285714 -0.8654307898305963 0.06799360658597212 -0.000826308721074969 -0.00013085649453615554 7.347087118102646e-05 -0.0002568586379741742 -0.9699366504336486 -0.028395877444814834
4.019714285714286 -0.8703767712104963 0.07560753801035332 -9.200724106313851e-05 -0.0003640344420665377 -0.00035080515397267927 3.531778289054055e-05 -0.9641954382063553 -0.02852752753252144
4.020142857142857 -0.8700101830468022 0.07854948173340044 -0.0011450478549275087 7.701595368227721e-05 -0.00028856025384588126 4.524015661736618e-05 -0.9679961947268941 -0.02348391384958235
4.0205714285714285 -0.8689591704456283 0.09460514015233323 -0.00019472415653162904 -0.0005787703996242697 -5.0451808929909835e-05 -0.0001757998079536227 -0.9682919129298462 -0.026713708653879016
4.021 -0.8658781337293368 0.09179530341664732 -0.00037280398543693296 -0.0005159498129759324 5.215056241053055e-05 0.00016994216797694894 -0.9663411217895679 -0.021096836455610845
4.021428571428571 -0.8656059635808393 0.1057112330539223 -0.00044247458304127617 -0.0001361536361554057 0.00022249050058064125 -0.00017125624946241278 -0.9683395424690096 -0.019980268457438017
4.021857142857143 -0.8669593958266113 0.10825881993922437 -0.0004032106371954134 -7.506982499607633e-05 5.475599260570595e-05 -9.983907406278691e-05 -0.9668346055307714 -0.015875271742095607
4.022285714285714 -0.8581279500398284 0.11243133670995532 -0.0005467637648392108 -2.9359168721462773e-05 -2.4479040364421153e-05 5.6718811499194503e-05 -0.9757931877319335 -0.010175809622515724
4.022714285714286 -0.866969451273923 0.12810863589528537 -0.0005329823464299117 -0.00015442392198590222 -0.00015028913137719765 3.476715139433499e-05 -0.9642226077435562 -0.015731629383589196
4.023142857142857 -0.8613557871618068 0.1339586222063909 -0.00037693243169569846 8.204801211972292e-05 -0.00030039364733627246 0.00024376537922871203 -0.9677034027922747 -0.009791157780333874
4.023571428571429 -0.8625820306208042 0.13428928282406127 -0.000560373823558077 -0.00012348759947728143 0.00013615604405617525 0.0004112964756463332 -0.9630031972139936 -0.005418879593630325
4.024 -0.8556970496642374 0.146020639095252 -0.0004711986514114177 8.164792262587054e-06 0.000125877216912952 3.5303103281334606e-05 -0.9722086031427845 -0.006441029284337694
4.0244285714285715 -0.8595065458362877 0.14915049927075077 5.597413585017258e-05 -0.00017674022695089603 -6.899143169526296e-05 -0.00035020543999390624 -0.9702864815297345 -0.003911739684129393
4.024857142857143 -0.8612672786039083 0.161414745940921 -0.0005399760100142178 -0.0002495281178599724 -0.00022174198381247505 -1.5382026316423148e-05 -0.9676108289641403 1.6773222226964773e-05
4.025285714285714 -0.858688619074141 0.169298933232242 -0.0007675884765790899 -0.0005141453013149373 9.077890158709028e-05 0.0005859570837849913 -0.9658973864738392 0.003111429329620962
4.025714285714286 -0.8558553192400129 0.17542602432114698 -0.0005457360077666482 -0.0001341506858612474 9.073098947335675e-05 -0.00013471720102270593 -0.9764065216257238 0.007408171533554
4.026142857142857 -0.8608813052690525 0.18066555105903476 -0.00048234901084946 0.0003725657385092631 5.251881107297453e-05 -7.929861947913997e-05 -0.9690026103155296 0.0018000608086426921
4.026571428571429 -0.8439637330364105 0.19120354712653193 -0.0004115300960397504 -0.00017998473041986657 -4.930599366156692e-05 -7.354477053477456e-05 -0.9748462482843372 0.009108575413890777
4.027 -0.8505965632427687 0.19507283956721186 -0.00040211341753322214 0.00031839393857421936 0.00031340567600257103 -3.47106499959496e-06 -0.968592386582243 0.0038024753717772405
4.027428571428572 -0.8529116274117907 0.19935243478884565 -0.0002696089571123887 0.00020484449505219374 -0.0002557805170752138 0.00019723209355112882 -0.9672433870037737 0.016569596909010133
4.027857142857143 -0.8471093465708771 0.20530733863173017 -0.0006357020857453671 -8.68631202568113e-06 -3.1137286089815836e-05 -5.515958885104983e-05 -0.9749423153433343 0.012221128928803537
4.0282857142857145 -0.846359830637262 0.22135543200217944 -0.0004893678046012575 -0.00014908082784245559 8.649483383186711e-05 -3.519965760516432e-05 -0.971715715838216 0.021011660920207186
4.028714285714286 -0.8503236143501798 0.21917461618011874 -0.0004990341570740266 -3.567351558616369e-05 9.076434238466608e-05 -0.0001328940071044533 -0.9680422814993193 0.014076020780930636
4.029142857142857 -0.8438912098254143 0.23329526617444632 -0.0003442303988003519 0.00015763015414921655 0.0004538549182325654 -2.9399743054857923e-05 -0.9700723725582739 0.023816443189312222
4.029571428571429 -0.8431603156687071 0.2361183535307654 -0.000331659566348362 0.00030176070189836683 0.00017473107552959928 3.086736727781263e-07 -0.9642624564904766 0.019870392275746534
4.03 -0.8380721626558831 0.24273344253191734 -0.0003517942715064616 -0.00010331011214727263 0.00023673244257311644 -3.159346910820753e-05 -0.9731246965483363 0.03224376373035289
4.030428571428572 -0.8355249804158957 0.2519632445580276 -0.0006174803057291101 -1.60142306082359e-05 4.8709368439983835e-05 -7.295875644961489e-05 -0.9699225745027902 0.02862280065989325
4.030857142857143 -0.8376476787041074 0.25632968631127884 -0.0008831531035479714 -3.0527946102101496e-05 -6.336474068219925e-05 0.00011015698652175503 -0.9720326471901921 0.020053299448018706
4.031285714285715 -0.8325378542586349 0.2652829080446689 -0.0007380896048277789 0.00010871878846879954 -0.000158356200984566 -0.00013131155441911216 -0.9672480795178015 0.035538151659736096
4.031714285714286 -0.8269581069014004 0.2668809902171248 -0.00034361752758194997 -6.471137952633265e-07 4.888299427590518e-05 -0.0002686242582406461 -0.9656900136637324 0.024235735181503005
4.0321428571428575 -0.8234723220996534 0.2762237388550212 -0.0009258852697014197 0.00020558665963043413 0.00019874300207788634 0.0001437609215018152 -0.9733831824085648 0.03573292542492054
4.032571428571429 -0.8241521915620829 0.28447147032545816 -0.0005307110007841473 9.119544832750064e-05 -0.0001868955516816484 5.3709802081718294e-05 -0.9679193532835674 0.04434643311358056
4.033 -0.8240689779903657 0.2903597429976327 -0.0003696701342589339 -0.0004250574753894871 0.00010332673579918443 -0.00012556252060091452 -0.9637738688316697 0.04385738688541621
4.033428571428572 -0.8275431720277432 0.29744351826354587 -0.0007069048902102232 1.699082956142155e-05 2.0379637934688587e-05 -1.7708811223234682e-05 -0.9634401836681853 0.03891768034231638
4.033857142857143 -0.8210385905940023 0.3060061739046716 -0.0005199819984577428 -0.0001680518463437988 -3.23395301861234e-05 -0.00011455120115192232 -0.962932520853332 0.04470323853212786
4.034285714285715 -0.8136553673227526 0.3093560283429494 -0.0005800419378472369 0.0001535815389429994 -2.885840539476946e-05 0.00012876807718620082 -0.9672845334735843 0.040948688083312874
4.034714285714286 -0.8062645637880677 0.3231549740855949 -0.0006407776268227967 0.00038361276491294995 0.00022266095188280854 -0.0004349588256895993 -0.9666573625768048 0.05191699967400378
4.035142857142857 -0.8101086760671925 0.3252892786300463 -0.0006749975147416021 0.00022638797792667834 5.545308174504267e-05 0.00011761495360323133 -0.9686692929510454 0.05146770181981165
4.035571428571428 -0.8024340438079803 0.33350773103929476 -0.0009463588233044834 -0.00016557209040307633 0.00010614130052651247 3.8466080326893677e-05 -0.9662683057542986 0.056662693898969656
4.036 -0.7995605683066911 0.342750760686132 -0.0005977269294790328 0.0004372710948443535 -6.383605333503947e-05 0.00013977576987846715 -0.9688809938970789 0.056232607573961035
4.036428571428571 -0.8080689367706873 0.3400961295786997 -0.0005737049015041657 0.00015157517590446622 5.3636565640212165e-05 -7.102672799237573e-05 -0.9683309331774673 0.05078735162653423
4.0368571428571425 -0.8012486899287597 0.35429873133814466 -9.587858893399068e-05 0.0004096063723966048 0.00027109781208416075 -0.00011032630897804294 -0.970870786647133 0.052913396228276156
4.037285714285714 -0.7934375168736153 0.35924782224917334 -0.000521180650236112 4.271623139740803e-05 -0.00028495834704680094 -9.385576537667844e-06 -0.9621480404411759 0.05841497925180836
4.037714285714285 -0.7918630890351512 0.36093269685319085 -0.0009681718313518269 0.0003648695368703362 -5.773632395368374e-05 0.00010508523524666063 -0.9705489133940953 0.055758625365412824
4.038142857142857 -0.7885686481932133 0.3795707720928323 -0.0003007469986297746 0.00032140337854882813 -7.187055035135325e-05 -1.811263251743543e-05 -0.963162995504345 0.06232749976310524
4.038571428571428 -0.7885277981128621 0.3783722808668842 -0.0004378298176487642 2.57252378534742e-05 -9.653859397414983e-05 0.00017159933646501848 -0.9586174977428781 0.06571234711216682
4.039 -0.78367670761688 0.38147270463377303 -0.0001945131102640291 4.954346234490095e-05 0.0003139602540444831 -3.6001955688375276e-05 -0.9583192749143079 0.06459865765946858
4.039428571428571 -0.7740326657051498 0.40073205664621975 -0.0006664862950914096 0.0005603850605866129 0.0001947541266380128 1.8561831293082086e-06 -0.962807079772989 0.06793850469807516
4.039857142857143 -0.7796813123354095 0.3976486275426656 -9.523815008601576e-05 0.00036217510904902443 2.560415791313852e-05 -7.970120377075641e-07 -0.9695497242080426 0.06963237037402073
4.040285714285714 -0.7754386301813706 0.3984472502935428 -0.0005309191001614186 -0.00034577742598596777 0.00027338893658562693 -9.855882985627136e-05 -0.9639931656589772 0.07539157942759106
4.0407142857142855 -0.775364784229014 0.41036317751426665 -0.0006734653374478319 0.0005174049323167095 0.0002539863611167442 -0.0002350313642432139 -0.9605888557963757 0.07599911179258242
4.041142857142857 -0.762721626496647 0.41653737671204527 -0.0005904938851259033 0.00021472305389853342 0.00018393783733549593 0.0005078175539785454 -0.9710425773081837 0.08638175270316585
4.041571428571428 -0.7615443200655152 0.42347546734544134 -0.00016752769735046543 0.00048506388540927995 -4.8435451954237164e-05 5.826242510379956e-05 -0.9662622132403528 0.08267568967519724
4.042 -0.7581501096535709 0.4323389956788412 -0.0001606394025653385 -8.41530504193774e-06 -0.00010667549481447628 1.5420973975132985e-05 -0.9639930448437533 0.08989926296960452
4.042428571428571 -0.7543447142134964 0.4379667547004633 -0.000305212351712135 9.35046923518899e-05 6.706825113047627e-05 -7.985331764702435e-05 -0.9600744543453653 0.09155426674261243
4.042857142857143 -0.752219638706078 0.43379782406746814 -0.0006489997539748667 -3.156095174769148e-05 8.839572959406346e-05 -0.00017322540693094892 -0.9656962824373514 0.08760483689250369
4.043285714285714 -0.7486899101418069 0.44971483531906553 -0.0007314607413053143 0.0002734143703785982 -8.300551676923095e-05 -0.0001703467645234426 -0.9642987376779594 0.08358068439691071
4.043714285714286 -0.7402988771844088 0.45209068035545935 5.455570068092946e-05 -0.00026994594239188404 0.0001854012153984778 2.1287006790295815e-05 -0.9665667681096287 0.083121069556831
4.044142857142857 -0.7405489737585086 0.46016021762501513 -0.0006089197725741798 0.0008035748191175491 -1.9538624590797527e-05 -0.00051985429548025 -0.962364818149639 0.09693018225284603
