!Created with skrf (http://scikit-rf.org).
# Hz S RI R 50.0 
!freq ReS11 ImS11 ReS21 ImS21 ReS12 ImS12 ReS22 ImS22
4.0 -0.8477996264777403 -0.2524667213497526 -1.1387041762249506e-05 -0.0002485933272705336 0.00011543103903118765 0.00011372367391210304 -0.9644502118163206 -0.13027196208955166
4.0004285714285714 -0.8554817914476872 -0.24793937390189588 0.00016796016793552197 -0.00040606224343019495 8.769030308168568e-05 0.00012638763799194443 -0.9707840903142066 -0.12263327202231818
4.000857142857143 -0.8591113255537328 -0.23560914500236743 0.0002723078342719053 -0.000214780974314091 7.569821467830255e-05 -7.816141328825721e-05 -0.9669770539437959 -0.11823480067748313
4.001285714285714 -0.8541232967618698 -0.230840189254317 8.727880932086717e-05 -0.00015108652344368335 -0.00022152709738431725 -8.871585789509236e-05 -0.9651817118667495 -0.11896425242367033
4.001714285714286 -0.8608046045940715 -0.22436937422698514 0.00016969333245758474 -0.00020745651694080617 -9.385217822378201e-05 0.0001708406377314679 -0.9658847580110994 -0.12283896790618794
4.002142857142857 -0.8584613065548219 -0.2222648996061767 8.960745098917848e-06 -5.636900949567304e-05 0.0003011273117512471 0.00011661824706784821 -0.9647725449593282 -0.11135681859415959
4.002571428571429 -0.862100409017563 -0.21142918794805232 0.0003316614898643162 -0.00018080043223899642 0.00043506483259917 5.782174281724221e-05 -0.9697667054969042 -0.10778740970050313
4.003 -0.8660651146599682 -0.2015645446744937 -5.238740277394498e-05 -0.0005270536396377936 9.501438258219799e-05 1.181064583967603e-05 -0.9694192101903217 -0.10505237341713358
4.003428571428572 -0.8687517017695503 -0.1974203444629564 -9.505333553880804e-05 -0.00031436002623062696 -0.00016992798727621258 0.0001829271268297674 -0.9621280137089963 -0.10030773003337061
4.003857142857143 -0.8655669467191887 -0.1895324887435905 -5.403792843685251e-05 -0.0002888396186370877 0.00018161712168391226 -0.00032732107050316656 -0.9710643252880469 -0.11167661816389574
4.0042857142857144 -0.8759423138479911 -0.184058457358285 -0.00015504345090305215 -0.00026088033009593925 0.0001839740199243023 0.00011033431783397269 -0.9661944342787367 -0.1000014152962362
4.004714285714286 -0.8704707208386886 -0.17320297804731066 0.00021892182172469183 -0.00014994861927400654 -0.00013399316259812453 -9.145902124269876e-05 -0.960215713573116 -0.1081140962516644
4.005142857142857 -0.8738909975615093 -0.16479182523746075 0.00025727574235298215 -0.00017295151851961274 4.694122898181101e-05 0.00022666582262320003 -0.9682823123227062 -0.0960620120809076
4.005571428571429 -0.8741194355732265 -0.15936003634464976 -0.00022395599044574817 -0.00048612460023065836 0.00015531774790619426 -1.6187814749489676e-05 -0.9596130230059582 -0.09658502468387298
4.006 -0.8776417602965308 -0.15571546203855885 0.0003301717937531673 -0.00031549510947090944 8.145718709498156e-05 4.4654060404191065e-05 -0.9704646578943124 -0.09531863142477366
4.006428571428572 -0.8766356937966842 -0.15000245400813095 -3.21366374770794e-05 -0.0005197166471449189 -0.0003478290826913991 -5.97465587135576e-05 -0.9672011878704174 -0.09364132817790707
4.006857142857143 -0.8804659380535671 -0.13905255882325412 0.00030849908354198876 -0.0005295686708443386 -0.0001717847475315757 -0.00011204610853118432 -0.9644462968176232 -0.08541147242529623
4.007285714285715 -0.8833239770457587 -0.13027971722486084 9.317424042910519e-06 -0.0001304053661037914 -0.00015007754886375653 2.1897240913392985e-05 -0.9690676172232113 -0.08025328828700413
4.007714285714286 -0.880455302507231 -0.12626441568370902 0.00013335731447369656 -0.0006271836918681526 0.00020397499469408952 -6.255030179411216e-05 -0.9632788391798007 -0.08327463777147291
4.0081428571428575 -0.8825093187778805 -0.12385066395174694 -7.811642967016572e-05 6.410008626910965e-05 7.966306369936487e-05 0.00023685775772881897 -0.9680394183120293 -0.08776393051502922
4.008571428571429 -0.8839321225465306 -0.1086975309454492 -0.0001427654256655211 -0.0001503758227805782 -0.00018473055351083388 0.00010416017489835584 -0.9642170574250771 -0.07896065758830886
4.009 -0.8854817556460963 -0.10477431665611148 6.4609975744434e-05 -0.00011700452071706317 -7.191722794283745e-05 7.507296317637197e-05 -0.9753343805480037 -0.08574522707192579
4.009428571428572 -0.8842039450648205 -0.10204768910977613 -0.00019190815624848913 -0.0005853069247706851 -4.3865890863308325e-06 -0.00011671442244156943 -0.9791776995760645 -0.07600106039306732
4.009857142857143 -0.8858276886120419 -0.0882381238386771 -0.0005477936480902004 -0.0004615366823883319 0.00022910346310904724 -0.00017387234456946545 -0.969325842216765 -0.07076191947917802
4.010285714285715 -0.8887005086132005 -0.08308845730076245 0.00027730371110900844 -0.00019857678780061717 -3.2691483381817106e-05 0.0001655862952302259 -0.9646836249141604 -0.07422371544275311
4.010714285714286 -0.888802173285988 -0.07683316004935888 1.3331521303897373e-05 1.4125410111100203e-05 -0.00019911677383437375 0.0003297904112395904 -0.9697715863662213 -0.07232179459465583
4.011142857142858 -0.8834148115513748 -0.07271425959809007 -9.445767877258525e-05 -0.0006881682077625658 0.00019547466290903374 6.151217988536534e-06 -0.9690985612092566 -0.06566017148900173
4.011571428571429 -0.8846097592924493 -0.05988721164040124 -0.0003827379933090999 -0.00020544852409614802 0.0002589855322977105 -8.390481187597696e-05 -0.9715692203632836 -0.06775456505946813
4.012 -0.8893467083517221 -0.05614555937723278 0.00021145648401545898 -7.479926739598627e-05 8.836839410837654e-05 4.277068760641796e-05 -0.9755061015928801 -0.06366468722631592
4.012428571428571 -0.8871258771311537 -0.04638052123382614 0.00013218550528799097 -0.0003486992559077427 -0.00013218011756762637 -1.9614035688160745e-06 -0.9621548776165084 -0.05621893678349817
4.0128571428571425 -0.8943985764781809 -0.03801779180083249 -4.570787134607334e-05 -0.00012835214162691013 -3.500873597507993e-05 -0.0002500365316917463 -0.9651717867828088 -0.06462494907531004
4.013285714285714 -0.8849737768644257 -0.03191891023438889 5.677521792417949e-06 -0.000632553987779186 6.7287466254258285e-06 -6.167032665502963e-05 -0.963318977697865 -0.05768301922248275
4.013714285714285 -0.886496424895332 -0.022957225239638057 0.00011873230804977367 -0.0005676486489924995 -0.00022329792104832784 0.00032628190070432605 -0.976487595326765 -0.05129650136242602
4.014142857142857 -0.8875019566980756 -0.013890363071556546 -5.161007578259908e-06 -0.0003975520522558716 0.0001445885081072047 -6.201415128904841e-05 -0.9704181238313302 -0.04732594323524664
4.014571428571428 -0.8868462138813239 -0.014410409182031018 0.00015663074948168266 -0.00020100710041048286 0.0002811765242827504 3.4984281789094956e-05 -0.9700399654447349 -0.052678275950616665
4.015 -0.8963602193614556 0.00021000692735773083 0.0002046677752621776 -0.000643047415065313 -0.00023719560864138157 -0.0001274774541158127 -0.9653282990275297 -0.05062469324686321
4.015428571428571 -0.8926980132013169 0.01185780101390278 0.00019783639572035534 -0.0003655690226733829 0.00018628212610307884 -0.00013167865776958596 -0.9715557327469705 -0.05058094423048987
4.015857142857143 -0.8903540949317882 0.016358389580658796 -0.000521202491967342 -0.00014656983599310565 -5.16538114208819e-05 0.0001528526779560517 -0.9710004743029429 -0.04833468296533311
4.016285714285714 -0.8890831580968248 0.021650363873987895 0.0001523397192156003 -0.0004983090118423808 -0.00020887270471724235 0.00010596777899441215 -0.9663602695600686 -0.04271396158629789
4.0167142857142855 -0.8901011348143356 0.027775732651492063 -0.00016222866561190247 -0.00012269019264679975 -4.346545212761314e-05 -0.00012803565902374189 -0.9647304116119156 -0.04976647978759507
4.017142857142857 -0.8862124405369309 0.036564949771801004 -1.911690283492931e-05 -0.0001500209522017967 -3.931481760367238e-05 0.00013433266214365886 -0.9623720208599994 -0.038059430553401885
4.017571428571428 -0.8911815210117353 0.04178102873542291 7.531115123391515e-05 -0.00018612323106768124 -0.00021400487884697345 0.00030425716833300037 -0.9718250903155284 -0.04075942398523104
4.018 -0.8861139824670383 0.04705605053222769 -1.8368644858954657e-05 0.00032273274645770207 0.00026556346521518096 0.00019217175083664976 -0.9688319815872125 -0.040595291595218574
4.018428571428571 -0.8925515334767508 0.05718314587676706 -0.000624462512419928 -0.00015447577131105225 3.0657448490359123e-05 -0.00011993098003902161 -0.9690302692878003 -0.03351952586602332
4.018857142857143 -0.8830913615740665 0.0652060687915956 -0.0004650496938741855 7.421908309534193e-05 3.5142759616815355e-05 -0.00011419791076409845 -0.9624019830146533 -0.02636519718830945
4.019285714285714 -0.8818978747830929 0.07724963439693158 -0.0003310203078893744 -3.1985619780345155e-05 0.00020117651966785087 0.0002321305919433885 -0.9726010787527589 -0.029462495155346113
4.019714285714286 -0.8886147731536834 0.08151992091448987 -9.652410651162703e-05 0.00014818764465332712 0.00015695927375255838 0.0002747591245734776 -0.9633934976603095 -0.02748036088384783
4.020142857142857 -0.8861538468316764 0.087324397143319 8.31821881930449e-05 -8.085836797533971e-05 -9.847939858088683e-05 0.0002688638727002406 -0.9689467229876442 -0.02491778596258216
4.0205714285714285 -0.8848752723361537 0.10200324991224638 -0.00020304059684837103 -0.00014717386396977775 -9.657544645165775e-05 8.193393959377002e-05 -0.9676320201825056 -0.02678542689500081
4.021 -0.8824733094118095 0.09973157274655593 -6.982328305925221e-05 -0.00018269654092417726 -2.6326530516163618e-05 -0.0002675832223404392 -0.9654472257920452 -0.02205187928928004
4.021428571428571 -0.8796231172561109 0.11375702151861623 -0.00037248747946362236 -1.8719346597360575e-05 -0.00015578382177311337 0.0003093940006544329 -0.9692040611863463 -0.020592987923049057
4.021857142857143 -0.8837135333402877 0.11625780776035521 -1.6656547171404683e-05 -0.0006830890250061366 -6.250140247804327e-05 0.00012127118548688896 -0.9666869057968306 -0.01660989594976333
4.022285714285714 -0.8745227151149829 0.12124148518396002 -0.00045210812616777523 -7.506743245233772e-05 -0.00010283377816488483 -4.428880315374206e-05 -0.9755253453134655 -0.010528117840810192
4.022714285714286 -0.8798136375918854 0.13617379074693844 0.00024488931193898097 -0.0004096970942412884 -0.00015283295454462665 0.00013280230873606287 -0.9657135130502438 -0.013410688612139886
4.023142857142857 -0.8764861159987593 0.14035655451720688 -0.00024439696225474455 -0.0005257744044476139 -0.00019510247970589057 6.09898119262707e-06 -0.9665563084561924 -0.00872405522829038
4.023571428571429 -0.8781108628151102 0.14286978223727914 -2.6162049923782645e-05 -0.00022253463613448212 -6.566349343477108e-05 -0.00014289052520751264 -0.9629590807616261 -0.004732311731957539
4.024 -0.872197293989655 0.15447500996797975 9.99116577883403e-05 -9.775219728382431e-05 -7.167734876827534e-05 7.849544700795235e-06 -0.9715100175066637 -0.010221289509652856
4.0244285714285715 -0.8777261079706903 0.15957432006090685 6.487945266009166e-05 -0.0001790492923777476 -1.5227231639922265e-05 6.614059099018383e-05 -0.9694521772563024 -0.003378673126137657
4.024857142857143 -0.8738131178558031 0.16968841332812692 -0.00029931137603083236 -0.0002869353449515148 2.3907975724596366e-06 -0.00013202956777605692 -0.9681601261892286 -0.0013546023067424779
4.025285714285714 -0.8719919287627952 0.17775693565173903 -3.498109014807796e-05 0.0001357198748741038 0.00020688414872471354 8.105909173938562e-05 -0.9657320231862904 0.0032858381235322943
4.025714285714286 -0.8699246222245374 0.18689811486932253 7.757973569323848e-06 -0.0003207453306997422 -0.0002128696102717904 3.7072881720049444e-05 -0.9763315274800987 0.007444673611545509
4.026142857142857 -0.8731055576109881 0.1905971717456608 -0.00029342573994068033 -0.00042267159998910544 5.397219170347793e-05 -0.00010242839915046476 -0.9697828457542614 0.0026352867259063716
4.026571428571429 -0.8585233158304852 0.19920570839666843 -0.00031922649914814565 -0.0004314188608354845 -0.00017065825524097708 4.5899855563958285e-05 -0.9749686185714995 0.007022623991418564
4.027 -0.8631646564969755 0.2050614589074974 -0.0002564794221372469 -0.0003944593198273831 0.0001926081011051371 8.234824428877688e-05 -0.9692684348188376 0.003857399008547324
4.027428571428572 -0.8687656175979324 0.20851266511971264 -0.00031671472055510175 -0.000393408931775007 -5.209243699646045e-05 0.00010993462759130126 -0.9658209158283395 0.017329657741713557
4.027857142857143 -0.8611872369467162 0.21569355212078783 8.251545799506263e-05 -3.286945114486368e-05 -0.00011843656428331799 -0.0002175771780309494 -0.972814053869414 0.011072629670293672
4.0282857142857145 -0.8616301884994892 0.2319593569724814 -0.00038110324635282533 -0.0002531406769236258 4.62342546839063e-05 2.3609797369150295e-05 -0.9713217471909052 0.02064973310132134
4.028714285714286 -0.865788504684597 0.22816616575214654 -0.0005351938026022921 8.393269071541331e-05 0.00014891311797592165 -0.0003682955509745835 -0.9701425897965584 0.014615513446256324
4.029142857142857 -0.8592219815074333 0.244018021976486 -0.0001900496274249965 1.2096244553997171e-05 -0.00015008770935243733 0.00025470618619482675 -0.9676250226410181 0.023293721472877903
4.029571428571429 -0.8576334076920955 0.24570022713407674 -0.0002260805561184524 4.738549731263549e-05 9.63349925551628e-05 -5.971249890160823e-05 -0.9659375463672323 0.02004396205770551
4.03 -0.8522848887693784 0.2513975890183334 -0.00011205441422691669 -0.0002887759098119208 -4.756617883303007e-05 -0.0004169372019086692 -0.9707691364969355 0.03271319573917275
4.030428571428572 -0.8511227555796284 0.2626136808004401 -0.0004952962172818411 6.902050655055265e-08 -4.525078350517814e-05 -0.00020671572631562285 -0.9694801436327026 0.0254968729703986
4.030857142857143 -0.8536180518237407 0.2669084456964817 -0.0006642156906887467 -0.00015311997585075123 0.000121738231388442 5.265466901161574e-05 -0.9724059177225095 0.02341297578610882
4.031285714285715 -0.8461399533975761 0.27607675968386064 -0.000453556050616335 -0.00012455023474634212 -0.00016624560878381788 -0.00016535444090826226 -0.9691599606473604 0.0334134428466251
4.031714285714286 -0.842321937311759 0.27720939331993094 -0.00018414566955456937 6.672306036284143e-05 8.08652165268178e-05 0.00011516461954406382 -0.9638985209153212 0.024256613388552496
4.0321428571428575 -0.8370778173312604 0.2890107891506473 -0.0005077776050359297 -0.0002488415828380419 1.6291744068351377e-05 0.00011729973883522681 -0.9725829181392012 0.0349590467070716
4.032571428571429 -0.839968254040142 0.29558491460335323 -0.0005416219030381086 6.601358144358063e-05 -0.00033094721080981665 -1.2231282191326486e-05 -0.9664854777129452 0.042559752634507744
4.033 -0.8368883544042457 0.30258378461713853 -7.125774573261696e-05 -0.00044999765984595467 0.00015567270788941422 -0.0002517334929846012 -0.9660429387895156 0.04557112532778878
4.033428571428572 -0.841790023876989 0.30955073138188965 -0.0004196050544310379 -0.00035400740931013623 0.00017374764209222263 0.00016376906008927 -0.9621148756564258 0.03821891279380721
4.033857142857143 -0.8343190874591497 0.3174657421734138 -0.00044987344184764603 1.6406119609522975e-05 -2.614144851095316e-05 0.00018987566697538111 -0.9630804405386865 0.04461077276599444
4.034285714285715 -0.8273234786965936 0.3213509638239262 -0.0002984192108551823 0.0002441375846940873 0.00029605334983122606 -0.0003533135085715021 -0.9678857633337228 0.04326272222117212
4.034714285714286 -0.820641863646989 0.33418826056207873 -6.398606302993515e-05 -8.487570027076777e-05 8.879516545274175e-05 3.1510086581585123e-06 -0.9654855498162783 0.051635935500275884
4.035142857142857 -0.8230634058512758 0.33820409392399065 -0.0006326216764286477 -0.00038433655224770404 -0.0003337668408009426 -0.00011252970420593547 -0.9678100259261162 0.05033968255653268
4.035571428571428 -0.816458601959905 0.34455422119179163 -0.0004931721632003906 5.753696100234646e-05 6.71882344213944e-05 -2.7026051377065293e-05 -0.9674609955201272 0.05742185389357369
4.036 -0.8133719185726931 0.35405139398709534 -0.00014268203240177672 0.00017289965503505114 0.00027564444022400766 8.247305146761052e-05 -0.9710692619878508 0.05481332447529927
4.036428571428571 -0.8212467516222588 0.35228060873505823 -0.0003947186789013062 -0.0004921775915747358 -4.2399947966341565e-05 -7.982837347361026e-05 -0.9681880284804385 0.05211391335906875
4.0368571428571425 -0.8151829283882343 0.3648741810913395 -0.0003559321339772859 -0.00018313162084129724 1.2381580749484853e-06 0.00021252323936070224 -0.9711503761281965 0.05376566405803285
4.037285714285714 -0.8066629039807119 0.37114643006065423 -6.181818793244e-05 0.000286451976796692 8.918693439763293e-05 -0.00032220017191183337 -0.9625870386203931 0.057477471740828824
4.037714285714285 -0.8043981085965015 0.37255426482398296 2.281911375151248e-05 -3.8323917593457806e-05 3.45144946051641e-05 -0.00034616046842521824 -0.9709628237662081 0.05555836658934877
4.038142857142857 -0.799314420140605 0.3910285832367 6.596764936878304e-05 -0.00017252389816205867 0.0002922086561062792 1.529727998177628e-05 -0.9638232961938741 0.06122428153732643
4.038571428571428 -0.8003493804984154 0.3914358685330023 -0.0008471008370795121 -0.0003373001027018028 -0.00018266462975445472 0.00018780962390078286 -0.9598790653535573 0.06520401717852295
4.039 -0.7960402745659861 0.39454390929008376 -0.0003499331919388466 -6.947523810615405e-05 6.298943649582981e-05 -0.0002575054078209514 -0.959437155224081 0.0637431087406441
4.039428571428571 -0.7885288549610757 0.4126760400161315 -0.00020664371797368255 -0.0003356154886005419 1.3095236890531767e-05 -0.0001483345207235746 -0.9636285620479021 0.06839979761413516
4.039857142857143 -0.7928491268858856 0.41040993812615334 5.0109591739241256e-05 -0.00020077760796907427 5.497235983267124e-05 -6.60244097360607e-05 -0.9705871758037034 0.0694372980913396
4.040285714285714 -0.7880084547705399 0.4106978669125184 -0.00033484575368881173 -0.0004886805895004013 -6.382732403382752e-05 -0.00022706020964576856 -0.9622750491400092 0.07355960968197855
4.0407142857142855 -0.7868058696412623 0.42543825282072373 0.00022728091764492308 -0.0001705980801313876 -0.00013497919207442044 4.483497392953876e-05 -0.9604804005039318 0.0738212530980111
4.041142857142857 -0.7750873602579607 0.4287899755012287 1.8472495460859587e-05 0.0003706202664391806 0.0003112113120308862 0.0002135881231480411 -0.9707281742973807 0.08465446680712789
4.041571428571428 -0.7736533944629771 0.4367246345564082 0.0001758261498590645 -5.468226436169991e-06 0.00014306874792542772 -3.835086259184562e-05 -0.9667991555751807 0.08242931167017316
4.042 -0.7693167846202184 0.44620463956166656 -0.000259674985583856 -0.0002214386034474938 0.00026882344066922866 2.9474562740898106e-05 -0.9631298827924716 0.08907630476743307
4.042428571428571 -0.7643271570438483 0.44835818125301735 -0.0004050344293872154 0.0004175148846613744 0.00016966806489569612 0.0002072593375300046 -0.9608404948553644 0.08971933126258493
4.042857142857143 -0.7654703097193041 0.4465574686475094 -0.0006231753605680499 0.0001605321715989689 -0.0003544973214824562 -5.476030901634313e-05 -0.9645758281573514 0.08727366811338838
4.043285714285714 -0.7590160280524467 0.46289848686413354 -0.00020070559513922685 0.0003197878055865222 0.00037641606307394306 -8.36257744157298e-05 -0.9646706871540285 0.08611998965993624
4.043714285714286 -0.7531629973749217 0.46527718125948453 -0.00015964327065335967 9.375588962479551e-05 -4.808421390795778e-05 -2.9753681305553205e-05 -0.9651241334501395 0.08291616557465678
4.044142857142857 -0.7521280226632872 0.475373403342051 -0.000580193439894766 -0.0002218901773954011 -0.00015788691418132386 -0.00022439845076278086 -0.9641575208067952 0.09557260998207312
