!Created with skrf (http://scikit-rf.org).
# Hz S RI R 50.0 
!freq ReS11 ImS11 ReS21 ImS21 ReS12 ImS12 ReS22 ImS22
4.0 -0.8503771813757589 -0.2520037741118435 0.0003532164123039841 -0.0003429774824395655 -0.00011443667114267197 -2.8653205847815293e-05 -0.9639681498830817 -0.12860428723925166
4.0004285714285714 -0.8566417487949401 -0.24589644298955365 1.8651737100019535e-05 -0.0004880588925504731 0.00022985633413205825 7.815867387055211e-05 -0.969411597836629 -0.12360948275397618
4.000857142857143 -0.8606201879724266 -0.235724945321164 -7.327670983497207e-05 -0.00025952619747899507 -0.00017437665282021454 -0.00014261687981434083 -0.9657908216441643 -0.11369746125301822
4.001285714285714 -0.8537960851560056 -0.2300463517012081 -0.00011705008647394397 -0.0004768630529371441 5.2552464792508884e-05 -7.313831254362454e-05 -0.9645288442988681 -0.11544158654556455
4.001714285714286 -0.8623261595898657 -0.2232096378006833 0.0006873857464513091 -0.00042267178150178864 0.00021194293959944448 -0.00019431103164078197 -0.9661428622509214 -0.12279171556270568
4.002142857142857 -0.8597733456903331 -0.22100311760008723 0.0002865558125952946 -5.2972197003973146e-05 0.00010821340213686812 0.0002980829304064668 -0.9649108920796513 -0.10934723685376657
4.002571428571429 -0.8623238729331628 -0.21267626428924868 -0.00036899578889015394 -0.0005299593961123739 -0.0003304622542908825 0.00019387362973897508 -0.9694511421309295 -0.10539066314550283
4.003 -0.8671783387146558 -0.20003015657135342 1.7914809884965964e-05 -0.0003352053105704809 0.00012233023495457191 -2.987887773481913e-05 -0.9679028165276957 -0.10288799128473089
4.003428571428572 -0.8697314975775386 -0.19754756795495082 0.00024223355023477428 -0.00041758103113637656 0.0002263091696163329 -9.800383080352671e-05 -0.9628560247261102 -0.0964772919917516
4.003857142857143 -0.8661402074481556 -0.18795655418902968 -0.0001520001039743635 -0.00039384668698055794 6.249854075448792e-05 0.00023871314689718513 -0.970987009229544 -0.10874454773021287
4.0042857142857144 -0.8769147075978381 -0.1812558966112239 0.00011035798206311404 -0.00017462951642998635 0.00010110289508675012 -0.0002805910853504485 -0.9658573483503363 -0.10011773951831716
4.004714285714286 -0.872141690359758 -0.1727064829941101 -0.00012961996852805163 -0.0003611574281879578 -0.0001293944541898981 -2.0208248878038953e-05 -0.9595638422923597 -0.10809112591126584
4.005142857142857 -0.8732207238642546 -0.1639423728469062 -0.00010664219197161978 -0.0006194936032706633 0.00017998465503724637 -5.3981407562237496e-05 -0.9682493854559807 -0.09343083075157689
4.005571428571429 -0.8743076403760748 -0.158295512704015 0.0002343024756669838 -0.0005859703806788904 -0.0001461711868080866 -0.00021843251573690952 -0.9599035823867207 -0.09287304468624683
4.006 -0.876635131773401 -0.15489073922863567 -0.00031204784318983005 -0.0005968223214352464 -9.839461628161723e-05 -0.00026780558870780237 -0.9713204818933145 -0.09179131595988987
4.006428571428572 -0.8776381840838972 -0.14960588560645818 8.986180013389553e-05 0.0001333161232966522 -2.0086455800123668e-05 7.270419101317578e-05 -0.9681206384856306 -0.09241856058728502
4.006857142857143 -0.8811577993597738 -0.13790309645310536 -0.00010926047901606413 -0.00033110975658546583 -0.00021575221128283914 -0.00018272662938705064 -0.9631296187744866 -0.08486769348505328
4.007285714285715 -0.8855385489820867 -0.13079737944047073 -5.260981672076005e-06 -0.0001272947959095424 9.711666030308575e-05 0.00020316929337459519 -0.9688464901908191 -0.07920808833460974
4.007714285714286 -0.8830132952041843 -0.12364053282759856 -0.00011269187985222731 -0.0003521375887142443 0.0002189443006632428 1.213858924161329e-05 -0.9624500924317317 -0.0827413505674422
4.0081428571428575 -0.8828697540649768 -0.12154831194849101 -0.00011735948949452487 -4.1703032997891925e-05 0.00011184498924868645 0.0001116904836743462 -0.9676229260945541 -0.08571852565869488
4.008571428571429 -0.8853492673285774 -0.1082451466720748 -0.0002404668995092248 -0.0006727162824615685 -0.00010569021844220119 -7.13878478114105e-05 -0.9633299881255736 -0.07735464173929699
4.009 -0.8862753655423898 -0.10321276766106277 4.433663369509467e-05 -0.0005374506812368021 6.535807433209733e-05 -9.92450254625788e-05 -0.9739547820557709 -0.08446982493285347
4.009428571428572 -0.8845833576425585 -0.09875595101481606 -0.00015188352510859193 -0.00028805392380089134 5.630154685244905e-05 4.810089791690339e-05 -0.9761768363387764 -0.07493737407294584
4.009857142857143 -0.8879637275772282 -0.08821484293565719 4.473473471260179e-05 -0.0002843016164094975 9.768465766460696e-05 -9.757289902877217e-05 -0.9673485258436703 -0.06824691700235293
4.010285714285715 -0.8901657789307122 -0.08277147122840466 -0.0004371282890873614 -0.0004987915262838147 0.0001175047069684555 0.0002642261616803105 -0.9642002643653688 -0.07306391065105627
4.010714285714286 -0.887842428810836 -0.07495976158739856 -3.8374000415348734e-05 -0.0003120567863382525 0.0001976155040266721 -0.00011526221746962675 -0.9694378566174224 -0.0715442933205624
4.011142857142858 -0.8848122863422258 -0.07256870291234951 -0.00014114102739335753 -0.0006306647410030057 -3.700378497223531e-05 3.3201305279861844e-05 -0.9685689939152791 -0.06602441730670763
4.011571428571429 -0.8854990711717998 -0.05720315499709992 -0.0004555972163655083 -0.00026866677025877135 -0.00011249530145981538 0.00015030327759489682 -0.9705447754364224 -0.06615412388789427
4.012 -0.8906767365946824 -0.05498482228325999 3.188993869152554e-05 -0.00027652010820467877 9.293965151259821e-05 0.00011673853724369851 -0.974059027926253 -0.061519126017875674
4.012428571428571 -0.8878611597711066 -0.0440877170242523 -2.028173231730059e-05 -0.0003914937841033602 -2.71422637315578e-05 -0.0003720072020640033 -0.9607938022816277 -0.05367897449181027
4.0128571428571425 -0.8965557526884465 -0.034204413599715426 -0.00036424240886940304 -0.0003488653810346506 4.469658512154004e-05 0.00010970894492050346 -0.9648909466007329 -0.062205373771013206
4.013285714285714 -0.8854644648308252 -0.03242509843860208 0.0001739404137195732 -0.0004972204387328878 -0.00016896506984601 7.4662878901256615e-06 -0.9629774314543346 -0.05949097195775008
4.013714285714285 -0.8878783566270912 -0.021081031715009177 -0.00010754630051644084 -0.00028805119735788074 7.764961666463522e-05 -1.6594429122273672e-05 -0.9758296624473906 -0.051442637742440324
4.014142857142857 -0.8885460431447761 -0.013756755475138136 -0.00021760096116316038 -0.00024137970317639467 0.00017186714269273894 0.00020919526654366048 -0.9721077136533691 -0.046078253145359634
4.014571428571428 -0.8873580112431781 -0.011576891900835272 -8.369417617836453e-05 -0.0005928485755256694 8.031522809586715e-05 -0.00018970240960127155 -0.9714937570843634 -0.051764291027949313
4.015 -0.8975580787485309 0.0009532658521704736 -0.0006205503779243405 -0.0008323089079506797 -0.0005565323955979813 1.0120181704084834e-05 -0.9640382348319093 -0.04932052271887174
4.015428571428571 -0.8904541960099516 0.011336675149661798 0.00016575749543871332 -0.00017216456601874065 -0.00019571020012782304 -1.918118957913279e-05 -0.9711441702852118 -0.04985537414031778
4.015857142857143 -0.8888784335633769 0.018157727431126792 -2.4566381892516254e-06 -0.00015084347258485808 -1.1231678402302953e-05 0.00010324320615115274 -0.9709246048208949 -0.0436499287229854
4.016285714285714 -0.8902225318121297 0.022416690711125457 -0.00020953145998618957 -0.0005247906986050417 -5.173886759589641e-05 5.564255913074086e-05 -0.9649932185402799 -0.04142360227851864
4.0167142857142855 -0.8894373141169022 0.029128404082371107 -0.00021938109348301603 0.00010364102863580684 -3.5944371813873906e-05 9.481358256776335e-05 -0.9643515922471037 -0.05002978651941822
4.017142857142857 -0.8867865058641159 0.03897879858788808 -0.00021529163293357095 -0.0002909211628917338 -5.187439540136554e-05 8.512986569503621e-05 -0.9628951749652968 -0.038382700410604924
4.017571428571428 -0.8912082335373367 0.04333542248870293 -0.00022710803170524564 -0.0003770492173308223 -6.548434746731978e-05 0.00018197570121695572 -0.973146247062945 -0.04086216116454979
4.018 -0.8878381505991064 0.04962363955353893 -0.000512924080596589 -0.0006164583108987536 -0.00028484583606399623 0.00013205451762362093 -0.9690932123745577 -0.03929525507461381
4.018428571428571 -0.8900644953567133 0.059006261866185995 0.0001667724171829738 -0.00013161344731315214 0.00023000873776388893 -0.00014346451629154545 -0.9712044763928743 -0.033109742464583
4.018857142857143 -0.8817637746761977 0.06703165377767177 -0.00020954798708798218 -0.0005663318678407591 0.00012682231678616976 0.00017360059673525942 -0.9606869249228895 -0.02610220749982711
4.019285714285714 -0.8836479732487695 0.07736214353040663 -0.00042850481935209227 -0.00020831372725110242 0.00012331679425770715 6.59910291852447e-05 -0.970319325323522 -0.026884700928464195
4.019714285714286 -0.8874988905355593 0.08459559736989843 -0.00012283488070872776 -0.0004927887665713375 -5.6198085445222085e-05 -0.00020235888009964185 -0.9640329906744317 -0.02772707275542535
4.020142857142857 -0.8855787213053574 0.08792540963447483 -0.0003798356473707595 -0.0004566914069379154 -4.791327819718921e-05 -0.00046409356010485546 -0.9673400533408549 -0.02327848314702539
4.0205714285714285 -0.8868196217560202 0.10406201784265452 0.00022960997189314016 -0.0003836443485955059 0.00044019297472316574 -0.00011368412743048221 -0.9689844107184917 -0.022985693793794032
4.021 -0.8840991530742782 0.10209300737280334 0.00012107684019582623 -0.00019287501994057029 -0.00024332469427686956 7.807888798844827e-05 -0.9662907453655141 -0.020220965921467327
4.021428571428571 -0.8820513365870606 0.11459395829249651 -0.00035541966654481044 0.0003567607726373766 -2.1013974956432265e-05 9.05979426313201e-05 -0.969566443869811 -0.017532356366588585
4.021857142857143 -0.8825447016892345 0.11833728549104434 -0.00032737611833564374 -0.0003663272370763639 -9.892913305463983e-05 0.0005813010112256246 -0.9689422805322074 -0.016274359000525426
4.022285714285714 -0.8740180342911474 0.12296405861563785 0.00014474294771782395 -0.0002808105117994245 -8.357261868111626e-05 -4.058478941364483e-05 -0.9747065274422388 -0.008060981001648699
4.022714285714286 -0.8806659100284049 0.1380823183103505 -0.00010948831180295733 0.0001518032778027273 0.0003459861728078708 5.258080330917687e-05 -0.9652781271548131 -0.011177516619565262
4.023142857142857 -0.8753371780116673 0.1426604240929853 -7.104599446910004e-05 -0.0004745956795788215 0.00015167781592486464 -5.6266242067301384e-05 -0.9663508897004272 -0.004704203805182428
4.023571428571429 -0.877389712052613 0.14438985336265642 -9.359127299860956e-05 -0.00048087743881587654 -0.00023444986699234542 -4.896891031488704e-07 -0.9618187929237658 -0.003112634944662919
4.024 -0.8700671279598937 0.1561779851683446 -0.0003423147179212876 -0.0001689860925104367 -0.00014967874793443797 1.4538948537735697e-05 -0.9695771482095453 -0.005788985717637499
4.0244285714285715 -0.874945134927731 0.16117784565378057 8.885896247924261e-05 -3.9364527485834496e-05 0.00010411456116808556 -1.4731707574762291e-05 -0.970209979535939 -0.0007408904127315917
4.024857142857143 -0.8755170815733987 0.1734580092909019 9.086956191805316e-05 -5.283298747003787e-05 -3.22383132201339e-05 -0.00015583706670845753 -0.9663370020163913 0.000649412110752178
4.025285714285714 -0.8737883563780746 0.1812133425759237 -0.0004094773247292967 8.023087445029436e-05 1.9948898114785164e-05 0.0001478556802117948 -0.9652080484153904 0.0030906993070881437
4.025714285714286 -0.8727150044346856 0.18741312210998703 -0.00017842696638296587 -0.000845076380871159 -9.34686565965832e-05 2.9133754237670008e-05 -0.9776931083136555 0.009480443764161657
4.026142857142857 -0.8751245528360403 0.19052034463405115 -0.0006299117146930872 -0.0002537258512435728 0.0003718182724655857 -1.620317160717934e-05 -0.9698054544757384 0.0041540100732562505
4.026571428571429 -0.8609132717060561 0.20091314551517708 -0.0005758993143920853 -0.00011279699124745602 0.0002022819935364764 -7.04666052232616e-06 -0.9731318334704517 0.009746339053861039
4.027 -0.8645066499374522 0.20634986211393622 -0.000256645446440083 -7.822356082004669e-05 7.440452188386567e-05 0.0002133741449642574 -0.9708361538784365 0.005785781986300842
4.027428571428572 -0.8684701944326528 0.20936120578736034 -0.00030782798629389946 0.00020874725222111995 0.0003427973220001653 4.6921238326720575e-05 -0.9644683416496184 0.019302688641705784
4.027857142857143 -0.8622136550096373 0.2168779548490703 -0.0001641348880679462 0.00011536757523591831 -7.055489313934733e-05 7.325288059895143e-05 -0.9750330678398781 0.01210346075243601
4.0282857142857145 -0.8626762297350219 0.2330107078556159 -0.00014163249505959294 -0.0004733148486971717 -0.00029439347869998406 -0.0003272507609977798 -0.9708530957287822 0.02236596357908077
4.028714285714286 -0.8656153046832282 0.22961417814353094 -0.0006586782798295304 7.492652385903652e-05 -0.00020967318801789258 0.0002927685105129741 -0.9685202813443355 0.013301262623483965
4.029142857142857 -0.8595335353904427 0.2459699938177063 -0.00019018086688716253 3.19132382301806e-05 0.0003993982674954678 -0.0004718666630902172 -0.9677202091680293 0.0253550660534259
4.029571428571429 -0.8586709450559868 0.24750606761219474 -0.0002580109970036416 -0.0003795287910181777 -0.00022040705242843528 -0.00012376299203211333 -0.9640196959614585 0.02272606751359028
4.03 -0.8526984377380213 0.25377665483595274 -0.0006311808652743029 -0.0001639711522997108 -0.00015890229380135235 -5.104530873074213e-05 -0.971121674835129 0.033491357129283014
4.030428571428572 -0.8499646659259071 0.26424100909532633 -0.00042558279890821 -0.0004061662353587419 -2.8455585241485317e-05 8.056912395855816e-05 -0.9694208971377251 0.028162305131784113
4.030857142857143 -0.8528138030758027 0.2679210169874111 -0.0001650105238949798 -4.714875575355078e-05 3.2957404262318392e-06 -5.6928373528599755e-05 -0.9716759595517517 0.022431834133380905
4.031285714285715 -0.8459497412981166 0.27712677397279767 -0.00026348954550891863 -0.00012796012732685098 -0.00016062720739710962 -0.0001460279317561697 -0.968177736641848 0.03476786540180644
4.031714285714286 -0.8437034895222953 0.27961632944064446 -0.000182130826354274 0.00018323952299080368 -6.678135657536336e-05 0.00030548984160349316 -0.9645242259656268 0.02818111112004141
4.0321428571428575 -0.8388529593132993 0.29027179708937817 -0.0005914313511345678 1.4903065117317721e-05 0.00023757099792366427 9.426179946351481e-05 -0.9723577471100734 0.0359075977047271
4.032571428571429 -0.8394083098842339 0.29693109437439213 -0.0008136474728305429 -4.859183858386776e-05 -5.249471089738111e-05 0.0002600416241088764 -0.9653020378547978 0.0452803660829348
4.033 -0.8382900248262771 0.30270027472876443 -6.967106637787454e-05 -0.00010215035775603475 0.0002071588201915984 0.00015937399296373745 -0.9653624888866397 0.04721297514355481
4.033428571428572 -0.8423622493408447 0.31098283180160746 -0.00018079834245007703 0.0001341677123725658 -9.089782019380908e-05 0.00012620596494366363 -0.9623699859082829 0.039530038190805396
4.033857142857143 -0.8351398553987617 0.31786222760362526 -0.0003961285903144729 -0.0005698934647814053 0.00012858145953126778 3.7728510752797236e-05 -0.9605447519810197 0.045373708961147986
4.034285714285715 -0.8279154126135894 0.32244807201802383 -0.0003270105663552274 -0.00014932476639927734 -0.0001646228453295214 -0.0003566423133352268 -0.96520381424186 0.04226993362883073
4.034714285714286 -0.8206685594223271 0.3352775901228753 -0.0004494184167678611 -8.478311127624319e-05 0.00011516708473488961 0.00018721553920894173 -0.9655600680721571 0.052290529701476005
4.035142857142857 -0.8223522885939416 0.33845294604823384 -0.000142530006896633 -0.00018054468951514904 -0.00026146299776812253 0.0003792599727414417 -0.9680516795881396 0.052842411391721134
4.035571428571428 -0.8155881151924163 0.34522942073682406 -0.0006799016552791207 -0.00017322538022242375 5.873119445789727e-05 7.099609618877672e-05 -0.9680009742953333 0.0571377480204979
4.036 -0.8141858001229875 0.35525622598750045 -0.00028419360132052513 -2.3171600916678355e-07 -0.00021089613681639065 -3.643300939147009e-05 -0.9686465216739533 0.05713751069104453
4.036428571428571 -0.8220808494254404 0.35391548655978444 -0.00011436992054225431 -0.00018194549737439542 1.4300410058332691e-06 -2.2593024722618682e-05 -0.96944475797101 0.05326757329133896
4.0368571428571425 -0.8141546907051247 0.3662349959991445 -3.556915170558728e-05 8.398996498895897e-06 3.696220158397566e-05 1.8046899546133138e-05 -0.9682514432794925 0.05452946538592811
4.037285714285714 -0.8064485450088307 0.372641455495981 -0.00023702649181423443 -0.0002961606275812396 -7.341203337620029e-05 -0.00012048771791930315 -0.962489170407789 0.06077761575298968
4.037714285714285 -0.8017786752149818 0.3736890050636097 -0.0003622574681824244 0.0002335129365936304 9.064660874750238e-05 -4.5357642837723705e-05 -0.9694138958355746 0.055852092683278884
4.038142857142857 -0.8001333192504577 0.3942441757246639 -0.000197668642685887 -0.0001652277881755888 -0.0003524320729237408 -0.00024382494666476095 -0.9630727502253588 0.06122531708660447
4.038571428571428 -0.8004307652571386 0.39340063249246243 -2.4140377147299555e-05 -0.00016078232041851265 -7.110511139188075e-05 -6.524944763975791e-05 -0.9588159411227013 0.06665082946497461
4.039 -0.7962820780520178 0.3968233276554451 -0.00017974124836131914 0.0001732798208817694 -2.016725971653588e-05 -0.00020996146864023308 -0.9599111719439251 0.06574346707575712
4.039428571428571 -0.788622895513598 0.41434605254069234 -0.00020026570897066075 -9.821874050209375e-05 -0.0002722487838860891 5.8572895409712965e-06 -0.9642661785451552 0.068715828845228
4.039857142857143 -0.7919805910813991 0.4123760719511935 -0.00046819816425459215 -0.0002905164455606238 2.9409160611343896e-06 5.89578018158855e-06 -0.9713327143722872 0.07142622056375379
4.040285714285714 -0.7869592572870122 0.41274181399231247 -0.0006728132594685656 -0.0002591274187208773 0.00015167205276996642 -7.440080484433986e-05 -0.9627402200107413 0.07572816707366861
4.0407142857142855 -0.7892245509594911 0.42716026083757697 -5.0963618080678584e-05 -0.00040217340022011185 -0.00017745574132911311 0.0003993343578566181 -0.9588367543043869 0.07586540107331581
4.041142857142857 -0.7759829304848664 0.4309303083170923 -0.0001660906467109161 0.00014593624872131033 -0.00013721392268581048 0.0002622847051311203 -0.9678910080448259 0.08407183251020703
4.041571428571428 -0.7745235996341772 0.437963233558988 -0.000505371963436442 -0.00015786237854664486 -7.465706738326543e-05 3.252260294278682e-05 -0.96560101462944 0.08147135056682629
4.042 -0.7705373240687025 0.44755210352631664 -0.00046269770727981775 0.00038493970525275506 0.000209157025442978 -0.00014342783172412383 -0.962273497709238 0.09039860374843925
4.042428571428571 -0.7650745723444228 0.4504219470078543 -0.0005655305852959494 -0.00017437709516247358 0.0001033167024616382 9.568149877534317e-05 -0.9580913702185843 0.09120132685846057
4.042857142857143 -0.7644969907952441 0.4477467910625553 -0.0006041997510303556 0.00023557733849554667 0.00011602649392263352 -0.00034108328988641603 -0.9651932205177784 0.08899892739071695
4.043285714285714 -0.7588671872049748 0.4652653375398321 -0.0003804318899087637 -0.0006151510349026103 0.0003803572491811539 -0.00013576606956416246 -0.9615020182717786 0.08824884850842582
4.043714285714286 -0.7525880896064635 0.46563098526092167 0.00010978403931974701 6.194365914535286e-05 -0.00016812546288116678 0.00016473431702302536 -0.9666121705026213 0.08305523542303701
4.044142857142857 -0.7522259482989234 0.47707329767162443 -0.00022042852533372904 0.0003363517825505008 4.760759868816268e-05 -2.265805613459257e-05 -0.9619142695693483 0.09746114000973181
