!Created with skrf (http://scikit-rf.org).
# Hz S RI R 50.0 
!freq ReS11 ImS11 ReS21 ImS21 ReS12 ImS12 ReS22 ImS22
4.0 -0.830419380461404 -0.2523920844107488 -0.0004624575675716276 -0.0005297625127902496 7.968695621719032e-05 5.058568840834525e-06 -0.9636923319259247 -0.13029796009721614
4.0004285714285714 -0.8368106673908959 -0.24659494184143493 -0.00027414857475768046 -0.0007863187444970932 -3.566349235227268e-05 7.147772788189094e-05 -0.9707470974640491 -0.12496793050762725
4.000857142857143 -0.8400219722780948 -0.2368009122689256 -0.0003233000207612162 -7.963696357348166e-05 -0.00011407325341660491 -8.685874738098552e-05 -0.9672455527198681 -0.11663376245812894
4.001285714285714 -0.8362783101611518 -0.2305915703386699 -2.2215478905245054e-05 -0.0007737612466033789 9.334391324702623e-06 -0.00024072087960324694 -0.9644343473971921 -0.11765671077765112
4.001714285714286 -0.8431772890975132 -0.2238926735429634 -0.00025044363128188136 -0.0005683702182814274 3.314272869235702e-05 -0.0002637833245002927 -0.9666156419205513 -0.1226741457226351
4.002142857142857 -0.8398689406611358 -0.22204538635565152 -0.00019733692505639682 -0.00032078453280815324 -3.767467874773614e-05 -0.00012846956848100268 -0.9652365296346826 -0.11105648705324296
4.002571428571429 -0.843843518049116 -0.21341313210421478 0.00013543359734191003 -0.0005887181871953032 -0.00014795703578624028 0.00019772248588752157 -0.970589728468906 -0.1055444183721247
4.003 -0.8473082644017718 -0.2030242983793198 -0.00014608248533686183 -0.0002517447192867839 -0.00031267331182647276 8.942475721833682e-05 -0.9676597050610659 -0.10444877434328502
4.003428571428572 -0.8501042214809966 -0.19934260179050192 -0.0005100659480793239 -0.0006806075672278827 -0.00013112343660288503 -1.2899917336997465e-05 -0.9624097315110213 -0.0989408855919654
4.003857142857143 -0.8453087257516912 -0.19009177096482624 -0.00030579666587127706 -0.0005698916639386851 -0.0001014277106819887 -2.9421401616122268e-05 -0.9708898584745168 -0.10973413207964729
4.0042857142857144 -0.856569367585198 -0.18338779091875834 -0.0003696970088558393 -0.0005039609477878884 0.00010701643180789508 -2.993364483450642e-05 -0.9653555024102903 -0.09834646399506808
4.004714285714286 -0.8530245529565317 -0.17400185642639177 -0.000344853854122104 9.741537948686903e-05 4.481206977062759e-05 3.611030497635665e-05 -0.9607330037086368 -0.10885826399447102
4.005142857142857 -0.8537545109271625 -0.16506186061438008 -0.0001919183749228385 -0.0007078745612504668 0.00013532282248731307 -0.00013713158502956583 -0.9673230982766502 -0.09479628799131155
4.005571428571429 -0.8557667794194751 -0.15925848217830335 -0.0006742282800613585 -5.965703009015612e-05 -0.00020882279464579293 -7.67092018230252e-06 -0.9614674611093844 -0.09440227441672262
4.006 -0.8574450671563714 -0.15698176514668197 -0.00032388627425457007 -0.0004342407409770969 0.00011809921193480984 0.00012533641414347134 -0.9723891563721264 -0.09466854971571535
4.006428571428572 -0.858861243259227 -0.1524042564623417 -0.0003360256615343622 -0.0003635574069376056 -3.3754341635553684e-05 0.00010506204664359154 -0.9681803834775019 -0.09365449711426922
4.006857142857143 -0.8619114552946516 -0.14104337982913073 -0.0006902876066161214 -0.0005899355220534903 4.216250603432815e-05 3.8187759086092586e-05 -0.9642199555179285 -0.08712930316943217
4.007285714285715 -0.8652666277317829 -0.1331190105404143 -0.00019174521767286492 -0.0006539648438009278 -7.161835255111285e-05 -5.188607780896238e-05 -0.9687362529348158 -0.08072255701669889
4.007714285714286 -0.8641146868716674 -0.12762448450300895 -0.00047384581196625516 -0.0006739797991237635 0.00010148885935890878 0.00012776594474288351 -0.9647579985412881 -0.08339829297064845
4.0081428571428575 -0.8646753684331838 -0.12529353486366757 -0.000141005467615679 -0.0007589752016121176 -1.0211922392284451e-05 -4.711756740795918e-05 -0.9683498354207172 -0.08743403121307301
4.008571428571429 -0.8662446527757466 -0.1123020270609975 -0.00035168026016015036 -0.00031300417108356997 0.00015997562186954536 -0.00031799743572143824 -0.964339423784317 -0.07710495871778743
4.009 -0.8666932601453783 -0.106205858019425 -0.0006854857304579159 -0.00042839774800069807 -0.00022369248955401394 -0.00014478797941429333 -0.9750289552590107 -0.08414124147984217
4.009428571428572 -0.8659933223593627 -0.10352774291713934 -0.0003986271372179466 -0.00048242291769390045 -0.0002452432667591695 0.000511932934180713 -0.977164300042439 -0.07500413345584274
4.009857142857143 -0.866223588279574 -0.0912387913411944 -0.00041520127472887753 -0.0006499608376507415 -4.780723644867606e-05 1.7013132999842786e-05 -0.9673073476983004 -0.0705514942660159
4.010285714285715 -0.8697224860273567 -0.08484786231443633 -0.00019605113407886553 -0.0006454750061328196 -0.00021730489368386804 -0.00021966818534632803 -0.9644437389806659 -0.073524548799336
4.010714285714286 -0.8696573475487742 -0.07939284216979135 -0.0002877051064814758 -0.000519908205003272 0.00011729487057853672 -0.00016449458886839288 -0.9675005594945145 -0.07239664661981024
4.011142857142858 -0.8649529308278685 -0.07582073634629136 -0.0004959759257697914 -0.0002077081263372823 -0.0003546853069956438 7.59599748752372e-05 -0.9696595638691609 -0.06642898132620986
4.011571428571429 -0.8674770466136174 -0.06183024599831719 -2.50959840765912e-05 -0.00042915238705793694 -8.386558925073112e-05 0.00021298543576939651 -0.9717410293902469 -0.06570695557181008
4.012 -0.8696458547159356 -0.058879538206099966 -0.0005939307264855626 -0.0007731233815000493 0.00037703332007711583 0.00014902561466879056 -0.9769172759603106 -0.06442632816393432
4.012428571428571 -0.8673433025912842 -0.05037454030379636 -0.0007350286289169975 -0.00028552325044078403 0.00027004659363119983 -8.379829066384395e-05 -0.9623616476794546 -0.05722517485027704
4.0128571428571425 -0.8748552259630701 -0.039365310602241826 -1.9316734212486794e-05 -0.0005857168709678209 5.83039076317817e-06 2.9658474814759226e-05 -0.9650180723828012 -0.0641929160069648
4.013285714285714 -0.8656659335991603 -0.03496649217379841 -0.0004783784096079178 -0.0004628941318946942 -0.0001706250155141969 0.00023985821798317537 -0.9624938343090098 -0.058683967341194625
4.013714285714285 -0.8689581947521159 -0.027521994686963976 -0.0006134454879264999 -0.00029913092632788375 0.0002574299558528774 -0.00019928242226077372 -0.9744520355569674 -0.05284544823965207
4.014142857142857 -0.8686858115473625 -0.020660341907619433 -0.0007156945669480679 -0.0004569574697604962 2.675793415525224e-05 0.0003817900688106236 -0.9704066614778247 -0.04688407094597439
4.014571428571428 -0.8685201530211922 -0.016086753067773654 -0.0006390549827918179 -0.00016506041003636128 0.0003512954661009228 1.5773415429519357e-05 -0.9698319300445194 -0.05401253138235351
4.015 -0.8789783002569448 -0.0036236638647388743 -0.0003870961187250012 -0.00022964870155575147 -0.0002124274169362956 7.621975569221983e-05 -0.9658340829777339 -0.05035999623846878
4.015428571428571 -0.8726501658721191 0.0046921430910313805 -0.0003890034172712782 -0.00030906433866870566 1.5379290456351773e-05 -7.692635357418415e-05 -0.9712710495515698 -0.049090354430760146
4.015857142857143 -0.8710163738417649 0.013061459176344176 -0.0002466190434482429 -5.995213123718013e-06 -6.187849840920928e-05 -0.0001600484818375307 -0.9690714194107659 -0.047238138339175374
4.016285714285714 -0.8709096541715469 0.01705439160138449 -0.0005225682077537961 -0.00033658009569181684 2.6794315402074244e-05 -0.0001099656040837659 -0.9662215508952996 -0.042522692277357825
4.0167142857142855 -0.8705361618671741 0.02399626647801118 -0.0007412032620610324 2.7226133105487603e-05 9.7102785635028e-05 0.00011464837076592919 -0.9655078468013455 -0.04939864159213188
4.017142857142857 -0.868079067363291 0.03354504881796063 -0.0005460160976691879 -0.00011967501698563489 -0.0001503236942264783 -0.00020732717872969238 -0.9624305120497825 -0.04144264637544793
4.017571428571428 -0.8733125575923089 0.036857889361696976 -0.0006603644063184479 -0.0004435674324759907 0.000369224952221282 -0.00019367607253350242 -0.9726087411169079 -0.04175923512322401
4.018 -0.8677316570556101 0.04388650556591501 -0.00044129071272250227 -0.00022150682910126865 0.00018746127683809594 -3.392551983173144e-05 -0.9709841467901865 -0.04046983464758996
4.018428571428571 -0.8728627221803912 0.05089170585022728 -0.0002692339170884083 -0.00028787463289952535 0.00010728767211504774 -0.00010863403568760374 -0.9732465706647611 -0.03338916018208957
4.018857142857143 -0.8641603190021326 0.061235680728297916 -0.000599392711649053 -0.00028304323444100293 7.569847645497806e-05 -0.0001089296376316048 -0.9638466864975074 -0.026879466996980485
4.019285714285714 -0.8640240852773076 0.0722889117610323 -0.0008095533240169021 -0.0003359210954714648 -4.969119115301359e-07 0.0001075063282377554 -0.971122639341688 -0.029841920347448574
4.019714285714286 -0.868826935163651 0.07733824559564673 -0.0005127585441804211 -0.00017083193278137664 -0.0001236426860941094 -5.8804834981554345e-05 -0.964938763350429 -0.029328926022683006
4.020142857142857 -0.8676068630017758 0.0809819829496967 -0.0005544615194584803 -0.00023411942111625984 0.0004279491857216053 -0.0002966808126253671 -0.9695303343078145 -0.023079154314693474
4.0205714285714285 -0.8666447385328994 0.09548618241934369 -0.0007255681574920959 -0.00015571147886496328 -0.00023016199564422494 -3.373302343069994e-05 -0.9686360685558055 -0.026896945997153223
4.021 -0.8644054991004129 0.09542971019915754 -0.0005869006971680658 0.00016506755215523136 -2.929841120593619e-05 0.0001257127392048891 -0.9660279249996294 -0.020932110547004154
4.021428571428571 -0.8622773201707397 0.10666308542455843 -0.0008703242220996045 -0.00026472215505219824 9.159764214074632e-05 5.950892888275847e-05 -0.9704070253802356 -0.020958593946832166
4.021857142857143 -0.865518937683451 0.1097172955903819 -0.0006820313930461305 0.0001462113008628469 2.039696651255449e-05 -9.824624617538743e-05 -0.968884011135782 -0.01524879354204512
4.022285714285714 -0.8571667518556596 0.11466041414505883 -0.0007882566901369646 7.124154374556672e-05 0.00015947802557375585 -9.726123598301957e-05 -0.9765492573004102 -0.010892909338397932
4.022714285714286 -0.8615292430485185 0.1292199952477257 -0.0005007784929123707 -0.00021355455820159806 3.177291486237064e-05 -0.00012882992864264966 -0.9662773941158997 -0.01581407709645613
4.023142857142857 -0.8578322524597883 0.13485806613797457 -0.0003606510296805229 8.09480612953167e-05 0.00012385632794629996 -0.0002014237377306067 -0.9670096251031364 -0.0077602185315025505
4.023571428571429 -0.8609614290808707 0.13648125895114852 -0.000690133651325443 -0.00034771172961102015 8.195014717117584e-05 -0.00010209131283407876 -0.9641667054055623 -0.00304624786701315
4.024 -0.8548824953836215 0.1479302502365159 -0.0006231462389077151 1.9584679718387597e-05 0.0001491423626272467 -0.0001229040033546803 -0.9709986642089921 -0.007276173208337871
4.0244285714285715 -0.8570942786561812 0.15222084831617333 -0.0005222343428678622 1.916396633805203e-05 3.974157739030657e-05 -0.00027941736300744535 -0.9710766209057443 -0.004240346873937687
4.024857142857143 -0.8571023668437037 0.16342343417151828 -0.00011960852682126482 0.000463667389564136 0.00017937974611494253 0.00029502301957546717 -0.9675695198628439 -0.002561004632011062
4.025285714285714 -0.8564097029973711 0.17240361105154434 -0.0003568927796944137 -0.00014336394399543006 -3.8655719044378274e-05 -0.0002476394125943811 -0.9680317344804661 0.002975838003032754
4.025714285714286 -0.8553834494875152 0.1783114578887125 -0.0008913040088022825 0.00012438858551962038 -1.2186760417717189e-05 -0.00012618181027036933 -0.9763197123384979 0.008984780943771236
4.026142857142857 -0.8580618629290288 0.18145614340199703 -0.0005019640007333581 0.00022920073061167748 6.765712272586984e-05 0.00012439824423930395 -0.9714744331638606 0.0019343139876958205
4.026571428571429 -0.8439069639973497 0.19273181170485876 -0.0006002212341511506 -8.305659409817239e-06 -2.9467090012328077e-05 -0.0003238762401889257 -0.9731869329010678 0.009041323821122212
4.027 -0.8463036316881613 0.19976699583716204 -0.00042195669789760263 0.00019777899275542058 -2.2579087503763982e-05 0.0002231859541657896 -0.9689957733524948 0.0033622822226456062
4.027428571428572 -0.8497265943869523 0.20084300576702607 0.00012688726698399154 8.603015951050335e-05 -0.00012074062522458163 -0.00032127092988718604 -0.9661446639081906 0.016407275588437076
4.027857142857143 -0.8437839063601361 0.20720788356087785 -0.0004985016275899471 -3.593779483575392e-06 0.00028958975104349967 -4.458757191046259e-06 -0.9753632282369634 0.009842704865937866
4.0282857142857145 -0.8435081954052026 0.22358130841803234 -0.0005073038666513176 0.0001139997294174856 -0.00011962954647173949 -0.00010737409347938152 -0.9715508292979068 0.02377627482199658
4.028714285714286 -0.8476498493884833 0.22303118028886224 -0.0005877569124222502 0.0001628137164803474 0.0004106528671003534 -9.607905727671074e-06 -0.9702817641981617 0.012846297964040966
4.029142857142857 -0.8412398331343116 0.23546002181127026 -0.0007396153881171742 -0.00025694062177161866 -2.6513537213746014e-05 -0.0001234970683319954 -0.9663602983065531 0.02216068749113782
4.029571428571429 -0.8415312038285291 0.2388318939184674 -0.0008250288478190435 -9.497745513806853e-05 0.0002727826455819715 1.1940662724795419e-05 -0.9635421149694746 0.019690643766066544
4.03 -0.8347913508915155 0.24322957540478643 -0.0009909354639343524 -1.5922871851869774e-06 -0.00012443054531709072 4.141630931029942e-05 -0.9734184169403722 0.032616070233935375
4.030428571428572 -0.8345257297280545 0.25368148592365153 -0.00042049895777042715 3.618051394097717e-06 5.527342004105049e-05 -8.747131648912159e-05 -0.969291793126189 0.027594915639192214
4.030857142857143 -0.835342336397736 0.25806525068267444 -0.0004634414935665783 0.0001670337319100904 -0.0003609804007523159 0.0001933720886448353 -0.9713031018986843 0.020988698475442116
4.031285714285715 -0.8282648873103738 0.2666479457028571 -0.0005733676150032746 0.00017775411896665263 6.795644716386609e-05 -0.00012245171490387566 -0.9692665424311608 0.03579041884926831
4.031714285714286 -0.8253900391157508 0.2688812226607328 -0.0003193229982230636 -0.0002661344664325414 8.984949598084546e-05 2.6472180805308944e-05 -0.9654269211270381 0.024409956312637454
4.0321428571428575 -0.8227728261221934 0.2794562315618043 -0.00047800578787903273 -0.0001324955937214621 -3.727471732948833e-05 -0.00017663949214757888 -0.9722460732638257 0.035313055238240104
4.032571428571429 -0.8230387215855002 0.28678743107815724 -0.0004286562573778738 0.00015755063842469658 -0.00011193837683381525 -6.364832092895858e-05 -0.9668771703187623 0.04341142673479881
4.033 -0.8225196203986075 0.2911249165340422 -0.00032580524495848327 0.00011475550796498287 -5.684880434746402e-05 -0.00017353870215413937 -0.9652501565581668 0.04517874617293714
4.033428571428572 -0.8252938480071474 0.3012077862840292 -0.0005928393189898063 0.00022193466850359227 0.00027073218943938473 -0.00035331919960893593 -0.9634078982004239 0.03896753687606386
4.033857142857143 -0.8176993611683292 0.30790889351525047 -0.0005838805413783414 0.00031280105861276924 0.0001334217936295891 1.1122272235510821e-05 -0.9639300998281415 0.043980009378719445
4.034285714285715 -0.811429969297857 0.31090832532746887 -0.0008813958339503699 0.00031306863266704246 -0.0001597116685616184 -6.189093331721749e-05 -0.9662565079413117 0.042272512558098156
4.034714285714286 -0.804005759084426 0.3239279093269633 -0.0007404495596163409 0.00044198048621315586 7.575517886057614e-05 -0.00013341963497302917 -0.9671123473974124 0.05200495984237916
4.035142857142857 -0.8055867402767158 0.32813785434039894 -0.0006248245481821544 0.00048415781979036193 -0.000307076079629904 0.00016280840977297485 -0.9691875743478208 0.051362954935727956
4.035571428571428 -0.7995934173800289 0.3353117724881189 -0.0009017497744644604 0.00024350546989767812 0.00019656151328895503 -6.351401498210491e-05 -0.9666017180003452 0.05603500406303873
4.036 -0.7977264555990755 0.3443559763545532 -0.00037589161734407543 0.00025132028531123083 -0.00013276938660008794 0.000107789913132292 -0.9685118406123606 0.056851045255529246
4.036428571428571 -0.8056660890418591 0.3426335349128662 -0.000494616762068194 0.0004251400562241795 0.00015480732068475555 1.528368880893445e-05 -0.9684210991137363 0.05202528030132038
4.0368571428571425 -0.7970401389489349 0.3554647283868653 -0.0007659797088734434 0.00018815915744636844 -0.00016800530488486788 -0.00015761902224865272 -0.9716246598264205 0.05357319734717508
4.037285714285714 -0.7893763587832371 0.362252478467836 -0.0004871823086032255 0.00013635290166659773 0.0003076660794617269 -0.00011934696269162007 -0.9629527349104189 0.057909325522688265
4.037714285714285 -0.7890855938977134 0.36002588731515683 -0.00035728253712158045 0.00021379512134294418 8.403216062967917e-05 -0.00013407852650357794 -0.9709676835769203 0.05399540446215173
4.038142857142857 -0.7844916350455736 0.38171849251644274 -0.000687301689626962 0.0006081316263903747 -0.0002122270210846354 -2.3107520971802652e-05 -0.9643992006481752 0.060315155443919646
4.038571428571428 -0.7853424252230089 0.3792529434818193 -0.0007944949511052321 0.0007796855571014257 4.099972739298174e-05 -9.819444401384e-05 -0.9605469889091558 0.0657320063597392
4.039 -0.7813182862193314 0.38471795165796213 -0.0007098505032562594 0.00010105980083138066 5.271980437325673e-05 -2.2045762407561464e-05 -0.9584638319962849 0.06345221389665222
4.039428571428571 -0.7732364465512397 0.4020998758059166 -0.0006302802311153717 5.62451824603409e-05 -0.00013194656771460636 -9.14994698954035e-05 -0.9640812358675451 0.07049042060114402
4.039857142857143 -0.777664089773217 0.39861020194138586 -0.0006720084572205304 0.000576699696187101 -3.463014577012379e-05 9.202993204680331e-05 -0.9713356669606601 0.07050278025806841
4.040285714285714 -0.7734273541344407 0.3988112288524131 -0.0009205708801634534 0.0003367043376463343 -8.012431028697863e-05 -0.00015945556839353964 -0.9654226153352042 0.07688260837929839
4.0407142857142855 -0.7724848115465281 0.41299821315256235 -0.0007124036701382243 -1.9008633750635146e-05 -6.580813848295196e-05 0.0003696090832381537 -0.9577727704590869 0.07575294344022186
4.041142857142857 -0.7598405377179228 0.4181171560214268 -0.0008937744210656307 -8.487493552704635e-05 0.00012732706710597098 0.00021693297889285304 -0.9685088736552628 0.08494074970816914
4.041571428571428 -0.7592870909936089 0.42415256425946535 -0.00027491033714964724 0.0005384237446582551 1.4795826548156138e-05 -8.865768890151572e-05 -0.9656525754372272 0.08243090252093513
4.042 -0.7548262162970599 0.4336505211183 -0.00039146659720713377 0.00028838663036312727 0.0001900807421243254 -0.00015467321979072105 -0.9620153902107503 0.08908559899924835
4.042428571428571 -0.7509354302270552 0.43787062469185467 -0.0005163817143625877 -4.4386373213532376e-05 0.00016235292054069404 9.626309598298457e-06 -0.9604641148316876 0.09120019918075777
4.042857142857143 -0.7493279880594069 0.43626751560757554 -0.000275017622846417 0.0003737691715942577 -0.00021199140985213722 1.1172811285861328e-05 -0.9658510014169155 0.08751167860119435
4.043285714285714 -0.7432218525470842 0.45184679009992956 -0.0005874793546222088 0.00023620739368124304 -0.00024751977159232494 -0.0002519002812465672 -0.964100651363603 0.08623644830196055
4.043714285714286 -0.7380154672811171 0.4532115145962735 -0.0004855499335589473 0.0007470870744575853 -5.2845753418739966e-05 -8.510575300993988e-05 -0.9673739846700092 0.08352923584388702
4.044142857142857 -0.7383158310653584 0.46390574985657057 -0.0004065505595702644 0.0006837172175756875 0.00042060974481479796 -0.0002298287936142145 -0.9618787788563218 0.09656180469981979
