!Created with skrf (http://scikit-rf.org).
# Hz S RI R 50.0 
!freq ReS11 ImS11 ReS21 ImS21 ReS12 ImS12 ReS22 ImS22
4.0 -0.8495199066573554 -0.25296633227470217 0.00016617772862767308 -0.00027463934215371126 -2.284559875097761e-05 -0.00025286458579940524 -0.9640195813458539 -0.13086481267462716
4.0004285714285714 -0.8573755501935382 -0.24616684028216115 0.00016929963006044846 -9.439190476950984e-05 0.0002526864536157666 8.761972425640484e-05 -0.9710135837897549 -0.12316005218279882
4.000857142857143 -0.8623785045979916 -0.23652542265553642 -0.0002572595387646484 -0.0001649550105047456 -9.139061064808218e-05 -2.7020917539148398e-05 -0.967451850368677 -0.11836846766550595
4.001285714285714 -0.8562105864019456 -0.23125253700558693 -0.0004175164677206272 -0.00042907118636254584 -2.222815000397806e-05 0.0003431018371424055 -0.9645209814248175 -0.11686129948846646
4.001714285714286 -0.8613262694246844 -0.22410408107160915 -7.856339183638518e-05 3.9497290297870396e-05 -3.0846066935805874e-06 -3.1244507670490954e-05 -0.9677319666456072 -0.12060944953575883
4.002142857142857 -0.8618008886706571 -0.22246730278131535 0.00018457956267711018 -0.0006038525294493378 0.00033441227189036593 3.375410170470214e-05 -0.9633450940349003 -0.11140933818850533
4.002571428571429 -0.8661359763346429 -0.21320557173927596 0.00046727875044255744 1.3760660593394597e-05 -0.00011644487993341853 0.0003410329969278011 -0.9704848041263474 -0.10533732659753005
4.003 -0.8683982651350636 -0.20188376921068807 7.223718939331369e-05 -0.0005004968403967829 5.7266403836615065e-05 8.910763623882124e-06 -0.9701063113703934 -0.10455629632339031
4.003428571428572 -0.8706128727957781 -0.19826566060333906 0.00018360192875394938 -0.0003665531168768505 8.965334306922594e-05 0.00022122202009464354 -0.9619101392651812 -0.09856827042287707
4.003857142857143 -0.866488498441732 -0.18926960413277055 0.00019997337233335568 2.331488264772646e-05 4.9311809511706484e-05 0.0002398072288617265 -0.9706537243265383 -0.11136110335816703
4.0042857142857144 -0.877907575893453 -0.18257786412700389 -3.554196281879544e-05 -0.0005202043012544339 0.0001487596106645199 0.0002974149142142044 -0.9675892642355567 -0.09990467561715187
4.004714285714286 -0.8731120766436622 -0.17323536040189694 0.0003953300462575221 -0.00030294459000825675 -0.0002791050474115133 -0.00011040737537714384 -0.9613962322171747 -0.10869582765791394
4.005142857142857 -0.8753623903864453 -0.16451335830448002 0.00016496446835635617 -0.000582346112921977 1.5665251594195058e-06 0.00024836612104529973 -0.9685802695650906 -0.09498578829919145
4.005571428571429 -0.8751624009749518 -0.1587557242049932 -0.0002883544523993553 -0.0006274303897341512 -0.00016426203692261046 -0.0002201071623580076 -0.9608078537124559 -0.09534538697526608
4.006 -0.8799912652924456 -0.15551133947268062 -4.316656493344062e-05 -7.58172259265325e-05 -1.6426904127827844e-05 -2.9329739169450606e-05 -0.9706928018860395 -0.0956960197483103
4.006428571428572 -0.8788227874820738 -0.1512926875712553 -0.0003301250044563519 -0.00038338194536489804 -0.00026348713189646144 -0.0002920172434753401 -0.969191400157691 -0.09325674226695566
4.006857142857143 -0.8828280119377268 -0.13889034192106522 -4.0069148002511904e-05 -0.0005185748145355908 -8.377960097477846e-05 6.893067684141849e-05 -0.9645241447224627 -0.08589454569777223
4.007285714285715 -0.8859472195102757 -0.1305907457394084 0.00019799505427037727 -0.00010842094805357551 -2.6267747900120308e-05 0.00016722143441789568 -0.9675291025814957 -0.08025111033929842
4.007714285714286 -0.8825290778163889 -0.12536169146395595 3.534339214823514e-05 -0.00032972265509837443 -0.0002504482765131299 0.00017332844649110734 -0.9630058189453878 -0.08368504768371936
4.0081428571428575 -0.8837520600772957 -0.12124562261219093 -0.0002629676109162106 -5.374127482220368e-05 0.00013950691801655556 0.00019539281261629876 -0.9669977248390753 -0.08838860780111946
4.008571428571429 -0.8871671137118907 -0.11015286975648726 -6.922239909097078e-05 -0.0002524527432504848 -0.00010532995128313832 4.124792151760846e-05 -0.9636683668835972 -0.07892701961337824
4.009 -0.8881469074308044 -0.1032317018451989 -0.00010701468488223528 -0.0003604614639029859 -0.00035330875291528555 0.0003753318121273984 -0.9762323170907036 -0.08535793325252704
4.009428571428572 -0.8853860975368681 -0.10145375739818294 6.635546702298171e-05 -0.0004204079550767286 0.00021440584371717791 -0.00013584280079819957 -0.9761757800397444 -0.07723344227811324
4.009857142857143 -0.8893249369505491 -0.0898924857872535 -3.636007082765758e-05 -0.0006282451019856244 8.606127496123252e-05 6.373065564073985e-05 -0.9678627455205372 -0.07130178286618723
4.010285714285715 -0.890257330746827 -0.08107568584677022 -0.0001507807371007698 -0.0005520013156818649 9.90120434127679e-05 -7.914427121854445e-05 -0.9646981011390856 -0.07542489969283658
4.010714285714286 -0.8893659770447003 -0.0759927973742173 -0.00013043168652315343 -0.0002638369747792607 -0.00010622151779277708 -8.09671043379576e-05 -0.9684088636167472 -0.07287971657180492
4.011142857142858 -0.8863844796488097 -0.07259417187801133 0.0001116895601137753 -0.00030306621151757554 0.00010108608946472855 0.000297704432017193 -0.9683997178306957 -0.06496440626348897
4.011571428571429 -0.8859302362204042 -0.05897068614427779 -0.0003255542217006358 -4.602624854211774e-05 0.00018313451599675362 -0.00020011306942596186 -0.9720993389804753 -0.06759416394331755
4.012 -0.8916838542185405 -0.05427208457131849 -0.00040462330414179953 -0.0003475319304605538 0.00023125295529946848 -3.354787793432643e-05 -0.9736335630790665 -0.0644030286735132
4.012428571428571 -0.8886520958446006 -0.044659943935565494 0.0005724073997750366 -0.00015317628919819923 0.000143194184602091 0.00010027175041152085 -0.962845673967556 -0.055556886541495695
4.0128571428571425 -0.8952563004109213 -0.03592161938688937 -0.0002805531574551586 -0.00022067852927875874 -0.00014367433382351564 -1.8163428545903373e-05 -0.9660326154151874 -0.06581658170849738
4.013285714285714 -0.8848826228266425 -0.03159929684329713 0.00016168004708461532 -0.0002115895651148249 -4.610403951818024e-05 -0.0001855534125895787 -0.9631155427505637 -0.05947426604811947
4.013714285714285 -0.8893530440997467 -0.023238380184147346 6.458968947655818e-05 -0.000533149228430344 8.059684377573725e-05 0.0002624599327985152 -0.9753698184137372 -0.05117780140408481
4.014142857142857 -0.8892433785372942 -0.015521191566242118 -0.0007573780460145616 -0.00019127671856260356 0.00011921513380069439 0.0001531088222540419 -0.9719397203435193 -0.04684755147988947
4.014571428571428 -0.8869032215388478 -0.013152184503752457 -0.0004108890510463486 -0.00028923436194087726 0.00023003572872250206 -0.00021610630637079736 -0.9692446788066611 -0.052189709480728465
4.015 -0.8994097034293518 0.0004794980169651458 -0.00021010919817392805 -0.00013819899564364774 0.00016587624741726617 3.148818769276995e-06 -0.9659881691635248 -0.05106948174263587
4.015428571428571 -0.8911808068537778 0.009911427721023524 -0.00020479309747174044 -0.00026600247491818853 -1.7869781695663316e-05 -7.74427482311063e-05 -0.9723115349513315 -0.05062576515754558
4.015857142857143 -0.893013749949216 0.01567646810567475 0.00014243071431163358 -0.0001713701287976465 -2.338525915025322e-05 4.882723601731599e-05 -0.9706496165281374 -0.0463457532144239
4.016285714285714 -0.8911246006029152 0.022557752802420082 0.00014968658696277263 -0.0004536852338069817 -9.009798167147532e-05 7.548633627851763e-06 -0.9630577946130897 -0.044850990800338414
4.0167142857142855 -0.8908284253915412 0.028745388866749697 -0.00041978264583010104 7.90098196361157e-06 0.0001220057384332151 -0.00013978070684750747 -0.9661392748559975 -0.0480857909928789
4.017142857142857 -0.8875583043742798 0.03956294256268507 -0.00021883494956000642 -8.837754619498017e-06 -2.732094857621943e-05 -1.5400251313734168e-05 -0.9618129725528463 -0.0392030551381326
4.017571428571428 -0.8931926494478156 0.04156613901103746 -0.00034303757928403635 -0.0005225900322854033 -3.3650220968177625e-05 -1.5249099709849502e-06 -0.9737525579818677 -0.040335041131467374
4.018 -0.8876692061820891 0.05039957950207301 0.00034334506138136966 -0.0007076039027073637 0.00018713810990397616 0.00020163846499807997 -0.9694709085298123 -0.040298074732959384
4.018428571428571 -0.8922807647817048 0.057217811297728564 -0.00021451923514290467 -0.0008317049684175646 0.0001839073806733347 -1.261690133239584e-05 -0.9733600155761135 -0.03433492096859169
4.018857142857143 -0.8841179787247627 0.06762162318199916 -0.00028928236339624883 -0.0003409086805335533 6.996356167887002e-05 -0.00012067638659959409 -0.9618304947292939 -0.027356570003694264
4.019285714285714 -0.8852127291409745 0.0779523517692763 -0.00035124350807692856 -0.00031253381960787043 -0.00010315026958443 4.497391531760864e-05 -0.9699741807946464 -0.02816025906428163
4.019714285714286 -0.8884554143192742 0.08275600676397857 0.00014912831398834948 -0.0003527030489341526 8.194019667434926e-05 -8.478162415587422e-05 -0.964548917867655 -0.03070259923842629
4.020142857142857 -0.887653876923278 0.08832062202554118 9.568132765217523e-05 -0.00029681364899905626 -3.0037601836065515e-05 6.500023539588881e-06 -0.9687154770359453 -0.02549809182183102
4.0205714285714285 -0.8865305162596003 0.1022670415916552 1.1005015804891774e-05 -0.00048692168387004205 4.731772329977854e-05 -1.3904204033943064e-05 -0.9682379769106095 -0.02563602197601195
4.021 -0.8837530229957027 0.10103701834614932 -9.027142255086256e-06 -0.00032625251430110525 -0.00012882256799039848 0.0001469559664775897 -0.9670594690417342 -0.021465720246276524
4.021428571428571 -0.8825817814634832 0.11398579369703084 -2.2460258438367903e-05 -0.00039136681970590264 -0.00020388549468768099 -1.0863430907817077e-05 -0.9693499428660253 -0.01910398222606546
4.021857142857143 -0.8832955340680322 0.11776005473841193 -0.00022080528056051958 -0.00042198028843828397 3.382426426082288e-05 9.847576640318811e-05 -0.9664663628992699 -0.016906029645292125
4.022285714285714 -0.8762729936730941 0.12330580720313371 -9.413979644025763e-06 2.4510107209744663e-05 -3.301247416405395e-05 -4.5643081766031845e-06 -0.9739581164895221 -0.00924010930831949
4.022714285714286 -0.880966870267345 0.13590782359501938 -0.0003346017996211491 -0.00018685781339098842 0.00011411688121378843 0.00020981833648110734 -0.9664602521981789 -0.01663864677787467
4.023142857142857 -0.8766109228613177 0.14383273464447338 0.00029280860682020615 -0.00045124837944717313 -2.6861387525483097e-05 -4.916349443484324e-06 -0.967866291462037 -0.011098832678864095
4.023571428571429 -0.8804896909094156 0.1435011139467921 -0.00029570767541728556 -0.0005665793518633795 -0.00017304338864835311 0.00021745091956818806 -0.9619932730549058 -0.0070795846501069066
4.024 -0.8745658816314544 0.15593997034596663 -0.00017493758708322278 -0.00012062799768880663 2.6485679298976015e-05 -0.00028331296982123404 -0.9719532781685125 -0.008997086004565601
4.0244285714285715 -0.8784516708659001 0.16118246273923495 -0.000504925489097959 -0.00029841899637482206 0.00024263271350820665 -3.4837927964797464e-05 -0.9708504311737819 -0.003418676388724029
4.024857142857143 -0.8766986710026627 0.17192977805320286 -0.00040118507728622676 -0.00030350795069020777 0.00019070186248585237 0.00012399505995650613 -0.9672238248274225 -0.0029625527530154176
4.025285714285714 -0.8755680482243081 0.17971155529005675 -0.0003626303690759102 -0.00024219649554567507 0.00022128616649003872 0.00014123196499990707 -0.9650203451350321 0.001385159256507159
4.025714285714286 -0.8728550467746887 0.18824557225098767 6.604152489342075e-05 -0.0004221049066087831 9.396060088630695e-05 0.00021398632107196442 -0.9758747965267711 0.010597674287278211
4.026142857142857 -0.8768474155368816 0.19245282395077606 -0.0002519347073406002 -0.00010116851457392155 6.220664473912111e-05 -6.660783342483089e-05 -0.9698057809317389 0.004218656648061624
4.026571428571429 -0.8619081156949687 0.20188430205676666 -0.00016720565477183047 0.00028143736276706497 0.00018391541180037152 -0.00017800449662061244 -0.9754292176819928 0.007432601504769083
4.027 -0.8645763805937925 0.20711714782426843 2.6012566560316224e-05 -0.00029715797439814647 0.00024891471502918856 7.380404056253856e-05 -0.9700208327281099 0.004768266120502964
4.027428571428572 -0.8694858068221866 0.209101582893988 -0.0005022467927207706 -0.00016028861757017192 0.0003673350221286702 0.00026357974425408756 -0.9681316572873173 0.015496223515886452
4.027857142857143 -0.8638736652070982 0.21841322272023228 -0.0006004879884734184 -0.0004477262771984665 -0.00010242897223519439 -8.707371822233528e-05 -0.9746911124067126 0.00931686159356166
4.0282857142857145 -0.8626455987619409 0.23301944168388328 -0.00031550418267157327 -0.0002945222513746776 5.564275350345244e-05 -0.00023726547590950165 -0.9716711539714019 0.022216830773274035
4.028714285714286 -0.865218130901511 0.22996553415813395 -0.00017800160686774462 -0.0003006071785383872 -3.0654999728483525e-05 0.00016585364403162289 -0.9688493868153712 0.012842132432877882
4.029142857142857 -0.8605761243216266 0.24686179584857085 -0.00018576240193348158 0.00015303601509404621 5.504517515775611e-05 -8.160124695304634e-05 -0.9674496365365287 0.025214756042352276
4.029571428571429 -0.8594805774707612 0.24706933515711407 -0.0007094998884182875 -0.00044023964737241347 0.00021000849881301433 1.985815757778278e-05 -0.9649024231856298 0.020644349002388162
4.03 -0.8531817113746055 0.25358050369816537 -0.00010714788305742519 -6.55868568816952e-05 -0.0002852463211348151 -0.00018316687288478983 -0.9713868781504054 0.03146147962954203
4.030428571428572 -0.8533991245584965 0.2646636651727836 -0.00035074904318186984 -0.0002630094535492841 0.00013812085066204613 9.7696885387304e-05 -0.9711081749591758 0.029375766559116806
4.030857142857143 -0.8550698501254392 0.26829880731985584 -0.00029540867679163813 -0.0002845872074605345 6.119798505631503e-05 6.218683190590489e-05 -0.9729406616534415 0.022946078229410822
4.031285714285715 -0.8459841579763949 0.2763717886425386 -0.0004091893717694889 -0.00027774103810606574 -4.030766207324117e-05 0.00015197208300933072 -0.9671810043614795 0.03314682397432851
4.031714285714286 -0.8418583778712339 0.279368360190108 -0.000507179675609121 -5.129490092152337e-05 -8.893628732060108e-05 -3.256119527974493e-05 -0.9653053873799328 0.022268873311904205
4.0321428571428575 -0.8392871878121795 0.28962601971536506 0.00018877792356880357 0.0001396168217354983 5.9913583927908136e-05 -6.86303153435946e-05 -0.9736014851860745 0.03513027337212585
4.032571428571429 -0.8416303808598179 0.29517537206910055 -0.00044887418920485733 0.00012347331884061401 -0.00014937331872717113 0.0001979515859196052 -0.9651594938290085 0.04416671875674691
4.033 -0.8393903821444119 0.30218575739962367 -6.298372780708279e-05 -0.00011371269844580188 -7.750212219308271e-05 0.0003400971691665842 -0.9660637511758947 0.04410065050250603
4.033428571428572 -0.8435257888540099 0.31148995506416405 -0.0004008500304672876 0.0001209925796433708 8.65690390340516e-05 -0.00020961162663895436 -0.9645300557948903 0.039305994812465286
4.033857142857143 -0.836559407971883 0.3192188825806454 7.289063408068013e-05 -5.2190622864109096e-06 -0.00011844807884488231 0.00010734227327997026 -0.9637591748956714 0.04409710509819547
4.034285714285715 -0.8281318052023859 0.32203511056979434 -0.00023117520584249883 -0.0002386764113817385 -4.123216975273166e-05 -5.562784757582224e-05 -0.9672510507415515 0.0425877765046873
4.034714285714286 -0.8209338401495143 0.33547795179413853 -0.0009019072166442551 -0.0004994142715905372 -5.736831990831805e-05 -3.255942427198103e-05 -0.9673754336106337 0.05011627250205246
4.035142857142857 -0.8251907830547212 0.3388128714962442 -0.00012826620885024445 -0.00030391862455462533 -0.00012352594855405394 -0.0004018359677899458 -0.9701138229494274 0.050068849403323984
4.035571428571428 -0.8173402141866623 0.3470408250502383 -0.00031423132264445645 -0.0001715605378123172 -1.508689569754618e-05 0.0003370867255398747 -0.9681388022715558 0.05464659076917686
4.036 -0.8152632230706474 0.35488381213602693 -0.00037774255981064356 0.0005309798107114797 0.0001369491370802847 4.361189926023347e-05 -0.9690249835098652 0.056228502615461674
4.036428571428571 -0.821735044480372 0.35312606935251795 -0.00042870726378678285 1.9933177016863655e-05 -1.4298187780150298e-05 5.796408675059179e-05 -0.9688806137248511 0.050490587568259
4.0368571428571425 -0.8156324558598204 0.36618799585163453 -0.00037472520356991045 0.00012212620069138643 0.00018988238262220545 0.00016540379651905894 -0.9703205568570857 0.05306311723782546
4.037285714285714 -0.8068358593736089 0.37463916983154194 -0.0006953589458607908 -0.00019582489657694 -0.00024042356089132815 0.000293672727953511 -0.9632371544151722 0.05798370165578892
4.037714285714285 -0.8060877843970679 0.3727927774089015 -0.00016989191103582111 -6.256466419849582e-05 0.00022532425320567152 8.34325916043066e-05 -0.9706851794947373 0.05542137205677793
4.038142857142857 -0.8013426456197386 0.3934212974021486 -0.0002006496738229969 5.990810986904894e-05 2.14470870127062e-05 0.00021932249143456222 -0.964154175117722 0.06170797115716301
4.038571428571428 -0.8028058755869847 0.3920927294535605 -0.00022079511419923208 -0.0001394657156769335 -6.201721796343235e-05 6.666320267202076e-05 -0.9615640078912414 0.06593745199783008
4.039 -0.7979811529326376 0.3967828349075557 -0.00037291678203992646 1.601840164596725e-05 0.00011640640319199849 0.0001952783724812709 -0.9592110130462259 0.06248204934549451
4.039428571428571 -0.7903214035288783 0.41467515095371155 -0.0002274387283552327 -0.0004276266829287586 -0.00011550023710405399 -0.00019661564390703446 -0.9641212060522769 0.06893750396158332
4.039857142857143 -0.7938904346577814 0.4117219299411851 -7.627456595474315e-05 0.000303892274428987 5.9365306299807436e-05 0.0001895237193098131 -0.9721334498831989 0.06882878036810333
4.040285714285714 -0.7889269690040094 0.41326399644997097 -0.00034130642064477985 0.00022533948374189828 0.00019890357036591872 -0.0001941650690543345 -0.9633394748950225 0.07418463666885779
4.0407142857142855 -0.7883461152423844 0.42455028477168527 -0.00014423391833126033 -0.00010771501046175641 4.077478068538302e-05 -6.397936808380392e-06 -0.9601839996604404 0.07548084096597296
4.041142857142857 -0.7746318686386788 0.43005233189646175 -0.00031477319071692887 -0.000505450526696199 -0.00017692234518572192 -0.00011752016127523561 -0.9688331448967282 0.08374891717767587
4.041571428571428 -0.7734983858030217 0.4387609076290312 -0.00023207886687584146 -1.554753213599319e-05 -0.0003167205630673855 3.638242763639398e-05 -0.9655954557258511 0.08464944391385212
4.042 -0.7716183883511771 0.4461537989129028 -0.0002811478537105775 -7.746831631849167e-05 0.00014433189615028585 2.3010785467064798e-05 -0.9631601176656241 0.08795569934913998
4.042428571428571 -0.7646662816619705 0.4502084371648659 -0.0004478546516918798 0.00021587569788690517 4.521816444280755e-05 0.0003535548641956698 -0.9597131816078862 0.09327338627948037
4.042857142857143 -0.7642181467018053 0.4484802207412682 -0.00032328503087130327 0.0004146016158023671 -9.744141700375834e-05 -0.000395976198865818 -0.9650399472873966 0.08656492168974551
4.043285714285714 -0.7597397866212375 0.46594789823272176 0.00016061888266921277 6.327970170006919e-06 0.00018569409007013804 0.00018284984893801544 -0.9639267620174176 0.08530155308887945
4.043714285714286 -0.7527974897555506 0.4680941816978167 -0.0003462735880461575 0.00010219532417441769 -0.00014911052351301643 -3.997742341976157e-05 -0.9668901976700209 0.08372409279554302
4.044142857142857 -0.7541790897595713 0.4780529921159494 -0.0005012244914587961 -0.00022209698316414983 -0.00012569913860616938 0.00019656859210049154 -0.9637606755769745 0.0968255977295569
