!Created with skrf (http://scikit-rf.org).
# Hz S RI R 50.0 
!freq ReS11 ImS11 ReS21 ImS21 ReS12 ImS12 ReS22 ImS22
4.0 -0.847912220161446 -0.252144153006597 1.3095330746992927e-05 -0.0001805838125372011 0.00022516822997921943 -0.00031276393834005185 -0.962933669474205 -0.13069809419146983
4.0004285714285714 -0.8538345121736667 -0.24603268779236553 0.0003648573416069997 -0.00030004103980451046 0.00015348440673690138 -5.1701671402586554e-05 -0.9697956231457712 -0.1249668730505037
4.000857142857143 -0.8599237233715009 -0.2365622960841506 0.00016569575488126987 -0.00035663698909494713 -0.00015254050257314898 -0.00023532817254701726 -0.9664712791924933 -0.11563869504793492
4.001285714285714 -0.8530188137146637 -0.2307285427006602 -0.00017066059910262574 -0.0006130138459486607 0.00042166431320247435 1.138109257197067e-05 -0.9639551949836053 -0.11686007829326964
4.001714285714286 -0.8603090017662173 -0.2226722941170661 0.0003359200247806142 -0.0003361101653341553 -0.0002452916683954591 -0.00015147903226239606 -0.9658624573018411 -0.12111014105698456
4.002142857142857 -0.8593146807491187 -0.22127077116198202 0.0001616247278920604 -0.0002659551569187241 0.00014334592892001 0.00014601588285414896 -0.9651222142918385 -0.11178012181867647
4.002571428571429 -0.8618268549920002 -0.21307015822355285 0.00050490167134924 -0.0004777196044472965 -5.3780658085775046e-05 -0.00030027025564891485 -0.9708144423135098 -0.10680826042083505
4.003 -0.8666997892272198 -0.2011266180072501 -0.0005483784453633913 -0.00013550212298267221 6.34371331568753e-05 0.00022271500541880414 -0.9698502412188189 -0.10555855857555937
4.003428571428572 -0.8686841763531374 -0.19700503840707156 0.00021854178233484298 -0.00044111747741698386 -1.4646351609742215e-05 -0.00019813230462624259 -0.9614558568259285 -0.0975693586487751
4.003857142857143 -0.8653117605670242 -0.18944787980518418 2.9630646484366765e-05 -0.0005902308287581188 0.00023136831451903484 -0.0002984352096175731 -0.9722027618129854 -0.11089468988448634
4.0042857142857144 -0.8767384330357271 -0.18401110307400706 0.00010168794683372368 -1.9321858101883095e-05 -5.4575649364809386e-05 6.805093503866054e-05 -0.9655470468951943 -0.09995700782695417
4.004714285714286 -0.8694595975127491 -0.17312283688799365 -9.973006119113065e-05 -0.00015203475352280893 -0.00011968799907710911 -4.649796939014602e-05 -0.959229120178517 -0.10639030585805312
4.005142857142857 -0.8736760017990857 -0.16354690124021865 0.00018915847521177226 -0.0003725851664378052 -0.00017332015360326165 0.0002111357761761591 -0.9680010662812953 -0.09488401789355558
4.005571428571429 -0.8730092885681463 -0.1588603997479271 -0.000203348386691023 -0.00017450117535130287 0.00010756225768951533 -0.00010768494835591472 -0.9609507599187532 -0.09656359456552494
4.006 -0.8769806735188802 -0.15450934927605164 0.0006011270822386004 -0.0004032285208005049 -5.9181515608120484e-05 0.00028730838688285893 -0.9704936586702818 -0.09375541783361795
4.006428571428572 -0.8760286344961143 -0.14915897474160758 0.0005851459375772445 -0.0004042632130259905 -0.00014125215032509438 -5.3424105675130595e-05 -0.9681045237122544 -0.09351262422068113
4.006857142857143 -0.8819350532023397 -0.13792877059705413 5.360354445506054e-05 -0.0002942470689393986 8.8850797312966e-05 -0.0002121606857480022 -0.9660923018363935 -0.08708275428875774
4.007285714285715 -0.8821222907845214 -0.13143276176926086 -7.40039950253733e-06 -5.0292834070745656e-05 9.387585644891899e-05 -0.00037551310370785313 -0.9684317150234497 -0.08152422056617904
4.007714285714286 -0.8810550404166124 -0.12580413631991036 -0.00023396663327913755 -7.05418726455989e-05 -0.0001726683165867231 -6.803254198059266e-05 -0.961918988936801 -0.08309841374400206
4.0081428571428575 -0.8811644745268256 -0.12230696556861162 -0.00029282539624900304 -0.00041591539316267504 0.00016396567892117012 -4.3616802403091085e-05 -0.9677617204538925 -0.08798592747605265
4.008571428571429 -0.8854415139050538 -0.10870340697307078 -8.451483372201854e-05 -0.00021634253720472272 -0.00026469309927543925 -1.7128040468638558e-05 -0.9632786122827439 -0.07777394619797535
4.009 -0.8862656496119825 -0.10413945608160691 -3.426256316923836e-05 -0.00039520543725119427 -0.00012024082403872047 -5.087018814102264e-05 -0.9735528461337002 -0.08478418339780358
4.009428571428572 -0.8840326363812253 -0.10040796582331737 -7.171848386156684e-05 -0.0005312964243313484 -0.0001373598556851985 -0.00012677980282921905 -0.9770933044074533 -0.07600156257591055
4.009857142857143 -0.8850876532116776 -0.08883675289514004 -0.00011476543600861553 1.5894783925423664e-05 -4.1220622865344885e-06 0.00025759850338442355 -0.9669635753002425 -0.07008776084160778
4.010285714285715 -0.8872300019191701 -0.08295174184607924 6.90669819452472e-05 -3.815295752773977e-06 0.00011648307402889258 0.00016533385261032518 -0.9626162213208235 -0.07424460737042371
4.010714285714286 -0.8877883776761754 -0.07672220744691094 0.0001484761345723587 -0.0002851202105781345 0.0002162288466170799 -0.00028424048964218027 -0.9698424678032929 -0.07349058054681219
4.011142857142858 -0.8815486158041205 -0.07065893183643486 -2.845613367516313e-05 -0.0005724049562713303 -5.8952262986807415e-05 -3.2367025453233485e-05 -0.971590706269481 -0.06557836776828434
4.011571428571429 -0.8846074918635397 -0.0583390587533739 0.00012150867150373649 -0.0007202627203127538 0.00014968759948788004 0.0001308204529928442 -0.9697161626140499 -0.06663278674054349
4.012 -0.8889325628948588 -0.053256107715383826 7.17446543321431e-05 -6.568511945003956e-05 -7.632988726241772e-05 -3.596893248267967e-05 -0.9765962940858021 -0.06234340675214639
4.012428571428571 -0.8868958474799546 -0.04538702219716921 -0.00025372407087990393 -0.0002575105083641325 5.6606976400477784e-05 -3.861640585352873e-05 -0.9628500261105172 -0.05699768544584494
4.0128571428571425 -0.8925725337645115 -0.035643081167715786 -0.00011542773731922948 -0.0005014751089506894 -0.00030466849056147666 -0.00034446167660502673 -0.9658919020962407 -0.0637770212945692
4.013285714285714 -0.8828515826316503 -0.03089843360183113 -0.00022063562264910283 -3.7194648167679e-05 8.897994199175527e-05 -3.9587896244108875e-05 -0.964144048668353 -0.05972398418886952
4.013714285714285 -0.8879748702397938 -0.022757172591417473 -0.00041946003067262544 -0.0004182812119545321 -3.676714021738109e-05 -0.00030908841773109603 -0.9753608429910884 -0.05293816786885776
4.014142857142857 -0.8871798210675592 -0.01506841000202261 -0.00017742308430012532 -0.00047805378434436673 -1.6077652274927958e-06 0.00010680563770446896 -0.9711251932939983 -0.045201395720123716
4.014571428571428 -0.8861254465583388 -0.012810258724705165 -0.0002687556869460538 7.018208396576274e-05 -0.00021628309418201985 5.872630635392167e-05 -0.971185736335618 -0.05301078277244419
4.015 -0.8952437183350158 0.0006604560737035894 -0.00025658295289175524 -0.00029729408073719425 -3.6654173094791117e-05 2.8943580553608324e-05 -0.9647572359951915 -0.05287101029783526
4.015428571428571 -0.890624480422302 0.009127343173821682 1.3561023870946446e-05 -0.00018390109981964383 -3.362992694880515e-05 0.00010750102680293864 -0.9734294248250422 -0.05072749874232698
4.015857142857143 -0.8894994483025647 0.016285725341292946 9.583872900158779e-05 -0.00042917228349808115 -6.80263200850238e-05 -0.0001933876061011967 -0.9708136310869718 -0.04590779677484476
4.016285714285714 -0.8888498395885931 0.022615499224261933 -0.00022737263967077473 -0.0004159486048065487 3.057685920859496e-05 0.00019420319339830396 -0.9651720004535286 -0.042682631278195646
4.0167142857142855 -0.8880033593886603 0.027904578519516658 0.00021530464186951951 -0.0006757632693207378 -1.4414453565020851e-05 -9.101711768456968e-06 -0.9658624759316713 -0.0495023351379211
4.017142857142857 -0.885601435857617 0.03846779744185927 3.194908113068267e-05 -0.0005699485737331758 7.426139875006847e-05 -0.00015241986462279403 -0.9605121833045079 -0.040432621557336366
4.017571428571428 -0.8914309294911615 0.04247915002064229 -0.00028520882165817104 9.17807527851604e-05 -0.0003112306039229697 5.352873674314666e-05 -0.9718869586621229 -0.04281776061572167
4.018 -0.8867408501199443 0.04952025452286013 -1.3867414676302153e-05 -0.000392570024004934 0.00031721100381971177 -7.330977522646811e-05 -0.9692990193158112 -0.039345776414206494
4.018428571428571 -0.8916170582241641 0.057968202556984566 -0.0005391891387388464 -0.000379939249052558 7.04047636068335e-05 0.0002494050587873044 -0.9719281321190216 -0.03401087710594012
4.018857142857143 -0.8820163411971351 0.06833636041527888 -5.248534967942598e-05 -0.00012236272518875238 7.886011784051268e-05 -0.00022331680747502477 -0.9612848885363356 -0.026884311234123583
4.019285714285714 -0.8831200593128741 0.07628920579228282 -0.00012683826750488968 -0.00024880313891156207 7.60251861736e-05 5.131652727811068e-05 -0.9728917467668421 -0.028401578266723845
4.019714285714286 -0.8867757333968956 0.08493099767632066 7.124934264775694e-05 1.5350679741189378e-06 0.0003863737951595974 0.0002096992711241183 -0.9636440105423175 -0.02938188848166304
4.020142857142857 -0.8849176917908123 0.08610113290481718 -4.860673805382725e-06 -0.00035222558974501715 -0.00014882298494702862 0.0001816726722601025 -0.9684432017594872 -0.02430520898512752
4.0205714285714285 -0.8842263943102919 0.10266972404243532 -0.0006569021675377316 -0.00036877105898772567 -2.5026300678226492e-05 -0.00022714705240055807 -0.9670607586454442 -0.027081677426040732
4.021 -0.881293406053604 0.1010702841965736 -8.79149869407316e-05 -4.194374758365907e-05 1.9960383530888867e-05 0.00015554254152976525 -0.9636010047259729 -0.020181522004482214
4.021428571428571 -0.8789354963710898 0.1132163307910168 -0.00017161756662946746 -0.0003437666072961515 1.969772869078505e-05 0.00028851873063551723 -0.9711501272116201 -0.019234328688417193
4.021857142857143 -0.8833131173507458 0.11608948648925144 0.0002714501605229592 -0.0002686921104556362 0.00018415822984040972 0.00032704762312992907 -0.9689133723912304 -0.018086246028939462
4.022285714285714 -0.8741108135197069 0.12081683988580416 -0.0005111729511166084 -0.0003219796408058913 -9.428887537867825e-05 3.6400697627503404e-05 -0.9750173336836544 -0.009269560513658954
4.022714285714286 -0.8804707170419499 0.13640998673336038 -0.00022355644508456976 -0.0008320552732655238 3.268061356046484e-05 -0.00018880366753993094 -0.9665973428466866 -0.015454768862878927
4.023142857142857 -0.8750523744731901 0.14271692896985744 -0.00016119793818880317 -9.668671497255141e-05 0.00038717013494107415 -0.00010093358074388457 -0.9683131686123103 -0.009540650774591257
4.023571428571429 -0.87742649269606 0.14285046071324875 -3.9364724377021214e-05 -0.0003190412394758138 8.150092345272701e-05 0.0001356026340087421 -0.9645293386772344 -0.004885130587986008
4.024 -0.8694002028366157 0.15597360567311833 -0.0008322568393168234 -0.000561267273181937 3.9408408048619436e-05 -0.0004417195027934304 -0.9697371004986761 -0.010250693470731754
4.0244285714285715 -0.8759096422800566 0.15943660059706985 -0.0001645753358954746 -0.00020532163442345437 -0.00010990695407258694 -0.00012324776644555591 -0.9704266473666199 -0.0048259732824062354
4.024857142857143 -0.8742290896411865 0.16995061844956805 -0.00024372095907857562 -0.00020508259738824408 -0.00012883873910991627 -0.0003980665260660915 -0.9659580383775703 -0.0017826404448235756
4.025285714285714 -0.8736325782136175 0.178956769305318 0.00022086792196890758 -0.00040683042750367526 0.00019274444113994224 1.1327706523958692e-05 -0.9659033937103392 0.0022117067405326373
4.025714285714286 -0.870353949970841 0.18574786136503021 -0.0006864214562489352 -0.0004547045730571787 -0.00019616081940012446 0.00027570862924698963 -0.9754285402699959 0.008584933194001056
4.026142857142857 -0.8747312544740168 0.18997708209451952 -0.00013924473388580983 -0.00018148994468747745 0.00012027857349029368 -5.43653612236352e-05 -0.9691994601320734 0.002401951378240503
4.026571428571429 -0.8611521025492231 0.20088505215780178 -0.00043957833436164746 -0.0007510057778602863 4.874919247809345e-07 0.00021907810074599167 -0.9726585369937749 0.009346248256046897
4.027 -0.8630902838739931 0.2076301916915273 -0.000584656890590494 -7.452271543704345e-05 0.00021456072248873052 6.875741015476842e-05 -0.9691287157100975 0.0050087160454703634
4.027428571428572 -0.8670217308294028 0.20837486580159842 -0.00015772659101574732 -0.0006361103353579428 -8.227839573009282e-05 2.8603649752540255e-05 -0.9663161487995834 0.015575708029164456
4.027857142857143 -0.8628949114885045 0.21766480975833136 -0.0009280085278304647 -8.957237011238605e-05 -0.0003226463442286929 -0.00014597530353396073 -0.975176967632242 0.012452227315636428
4.0282857142857145 -0.8599386292726555 0.23249041869297687 -0.00033800666980775734 0.00012438457208865472 0.00013949975190342972 -0.00041251398103622755 -0.971448875443616 0.020023695301939023
4.028714285714286 -0.8637721457400478 0.22826478847730522 -0.0002956352008767925 -7.426373449745124e-05 3.705999818694194e-05 0.00010549025114625747 -0.9691947584032646 0.01293677296861806
4.029142857142857 -0.8587811973243243 0.24331393344299945 -0.00011766551686984475 -0.000518911778712822 8.674634205699064e-05 0.0002826086390237019 -0.9694823383308133 0.023570307147938757
4.029571428571429 -0.8584980769659168 0.24608874047907872 -0.0004394872912751344 -8.040661877576358e-05 0.00019638399401229276 0.0005265325051690288 -0.9616951053312711 0.020658308033046004
4.03 -0.8513346384073142 0.25221034393995356 -0.000297107631656857 -0.0005340583387201308 0.00010670726307538275 -0.0003178461035281398 -0.9732017996134442 0.03381569015572042
4.030428571428572 -0.8504063592590321 0.26324897085635685 -5.733814383414184e-05 -0.0005393731831001622 1.977206463906211e-05 4.788692788577794e-05 -0.9695886295763132 0.030414235023731764
4.030857142857143 -0.853462302292886 0.26792307238447577 -0.0010065959007063766 8.180614440146089e-05 0.00010008069311182388 -0.00018071402212818135 -0.9730602840211097 0.0235658706801517
4.031285714285715 -0.8438373921590886 0.27555873783445933 -0.0010606915785679478 -0.00014854676607095436 0.0002683238101696307 -0.00012397631336056412 -0.9678068916405299 0.03403858710447149
4.031714285714286 -0.840144214076118 0.27804177708704214 -0.0005670703673108226 -0.0002837840302075908 0.00013211193783637187 -0.00021577001006726888 -0.9634389931661986 0.022558825688740344
4.0321428571428575 -0.8380736858724918 0.2883891464431156 -5.6690741489166536e-05 0.00034600617698004764 -5.4142760302226096e-05 -4.602839217086125e-05 -0.9727716310744775 0.03489033708904904
4.032571428571429 -0.8391808345025698 0.2970038606646637 -0.00038062958191549865 -0.00010848896370903012 8.891595361371882e-05 0.000184844427203448 -0.9665402798003663 0.04450127409633867
4.033 -0.8382735440005281 0.30240944936218045 -0.00040166443318206626 0.00037969701464650663 0.00012942688570629257 1.0787341134415929e-05 -0.9660008305467376 0.04436488174498201
4.033428571428572 -0.8407261481283614 0.30958333570531427 -2.4735233132606644e-05 -0.00015723216684849491 0.00021120998405558318 5.8572674286052904e-05 -0.9626210566517746 0.03869252585749075
4.033857142857143 -0.8331813095140338 0.31762960800402584 -0.0006004147912704381 0.00022558517780940247 1.4087496784964344e-05 3.2255699870787014e-06 -0.9616294912237819 0.04350614012583015
4.034285714285715 -0.8279886436973642 0.3209192731022025 -0.0006422885686848851 -8.251001212729997e-05 -2.2674546957870316e-05 0.00020589009070308455 -0.9667704918041271 0.0434173308552532
4.034714285714286 -0.8193510809526822 0.33443889196958637 -0.0004034633604540509 -0.00029039566432432866 -0.00023239634982944864 0.0001735711846426692 -0.9660178162168249 0.05082239733251282
4.035142857142857 -0.8221565305064698 0.33769328472057264 -0.0003390960764980952 -0.00026650946630473805 0.00013275082304508163 -0.0002771529861503936 -0.9681539931571937 0.049813933792481765
4.035571428571428 -0.8155237562538348 0.3449320388108108 -0.0002749907005360153 -0.00045346821621220916 0.00013300984797797054 2.4566197174929096e-05 -0.9671403411521038 0.05845233187871862
4.036 -0.8121267503866992 0.3556566987569682 -0.00010689820056817117 0.00016385691589277542 -3.6068256813811313e-05 -6.58762133448259e-05 -0.9696073523640857 0.05613695354103118
4.036428571428571 -0.8196974345422388 0.3528801848445262 -7.125523540613823e-05 1.8574781853420045e-05 6.045200727382838e-05 7.247977159650764e-05 -0.9670448843449806 0.05161990346545216
4.0368571428571425 -0.8136682436707818 0.36388260613204837 -0.0006133419769654569 -9.098716080789594e-05 6.786428045463766e-05 0.000185422841269276 -0.9698554127820036 0.05416936559244426
4.037285714285714 -0.8056616868670908 0.3723654240936515 -0.00013457930866274897 -0.000351665906331255 8.096741329428889e-05 -0.00013463436253086274 -0.9639004410641899 0.057743550066323375
4.037714285714285 -0.8047694675498425 0.37277185630577286 -0.0004950599236870663 0.00018238213902086421 5.381168585533434e-05 -0.00016022065071977638 -0.9694020940582802 0.055975938795346965
4.038142857142857 -0.799927192640598 0.3936900196092916 -0.0003570283206157257 -4.651959305191003e-05 4.910268132582087e-05 0.00030547363028474714 -0.9638668448776907 0.061488802873420664
4.038571428571428 -0.8000781184331723 0.3919510920137826 -0.00027629975400864364 -0.00023703477049652282 0.0001519320959507562 2.105832548544647e-05 -0.9615958387804361 0.0646541032962839
4.039 -0.7969098456100471 0.39431102305069027 -0.00045088784807028644 0.000299494972551544 -6.242454499230511e-05 -2.199303553221049e-05 -0.9591036099595436 0.06420130634494325
4.039428571428571 -0.7891151040886509 0.41371854022883675 -0.0005965885994788976 0.000391050133362479 -2.9807191228603693e-06 1.825995767883874e-05 -0.9632909147269489 0.06907774019745891
4.039857142857143 -0.7911333676191314 0.41134639718222926 3.663658425216065e-05 -7.933480149480677e-05 3.334278642816331e-05 0.00018428410772040296 -0.9706531413951781 0.06997004457184129
4.040285714285714 -0.7866191365977426 0.41140838811269753 -0.00038322303864456994 -0.00016868174341097265 -0.00022373793864317493 -0.00014398854375408782 -0.9633074201575473 0.07519208250778837
4.0407142857142855 -0.7866468491244628 0.42445555981143207 -0.0005260894991090918 -4.525095021262e-05 0.00026976638022334083 -0.00013684374040429873 -0.9605016920741999 0.0755039406711534
4.041142857142857 -0.7739799035319562 0.4287827491741339 -0.0007721949592819525 -0.00014231836357466777 0.00034429256352577075 1.9527608421032637e-06 -0.9701131966787143 0.08413045059284488
4.041571428571428 -0.7736899693692975 0.43639700401146087 -0.0002900129757531979 0.0002358137758319907 -4.039360373679642e-05 -0.00011131266080206473 -0.9671104893672968 0.08224728967252455
4.042 -0.7692870121571278 0.4462840347468091 -8.850612404464566e-05 0.00041582785026358037 -0.0001916584870170617 -0.00014874221474205895 -0.9626632858747374 0.08762045475738113
4.042428571428571 -0.7635493914552994 0.4493254101771946 -0.0008538089744949765 0.00041789920428745084 -0.00017725681547032138 -0.00036334047608424855 -0.96097783699353 0.09197181134026367
4.042857142857143 -0.7638449282389878 0.446518714583383 -0.00022123247435077982 -3.83570070733986e-06 -0.00019062868969484638 0.00022413629753994307 -0.9648106527010338 0.08711741607090187
4.043285714285714 -0.758133612951497 0.4626527611442316 -0.00020514076765713104 -0.00015118471486840477 0.00046153239728398003 -0.0002745161951565014 -0.9634740616656515 0.08583398614355865
4.043714285714286 -0.751407413162173 0.46687144153763716 -0.0004825474227744222 0.00011927399860078943 0.00021241486598092213 -0.00016160566108601543 -0.9675802283911706 0.08291145742894619
4.044142857142857 -0.7523266880984331 0.47477681025611496 -0.00010566934235789596 0.00035298374433057945 -6.863617473601325e-05 -6.772751626777882e-05 -0.9616192305848006 0.09723307155671047
