!Created with skrf (http://scikit-rf.org).
# Hz S RI R 50.0 
!freq ReS11 ImS11 ReS21 ImS21 ReS12 ImS12 ReS22 ImS22
4.0 -0.8459310485848021 -0.25398182450045975 0.00025903883147495004 -0.00021934667835317326 2.768900991924965e-05 4.040910126952658e-05 -0.9642290315072419 -0.13067877926371302
4.0004285714285714 -0.8550184706580991 -0.2453139763213193 -2.2404391404502885e-05 -0.00016385494900180762 2.4511803496111974e-05 1.4835301663683233e-05 -0.971263656529275 -0.12278801095680138
4.000857142857143 -0.8589925647335293 -0.23683945821414726 0.0003869072764803985 -0.00033853347620209427 -0.00011745803120761496 -0.00014052930430333394 -0.966486310358997 -0.11762290529867725
4.001285714285714 -0.8515896550974241 -0.23153111969584605 2.845266047234808e-05 -0.00035139465691446124 2.832658829888491e-05 -5.685186642300609e-05 -0.9646699680557973 -0.11603457290786495
4.001714285714286 -0.8590036497623774 -0.22232406447175546 -3.487689022532078e-05 -0.00034773567913266444 0.0003732426235080748 8.058499395139027e-05 -0.9675419415771789 -0.11910834310821575
4.002142857142857 -0.8573068791277149 -0.22305664645406248 0.00041265184137236337 -0.0002864330829224605 2.537003210762674e-05 -0.00021343122451362648 -0.9654507413412449 -0.11111067380122135
4.002571428571429 -0.8603855622744077 -0.21308217129389717 -0.0002662834557490501 -0.0005543623335487191 -0.0002667186266027683 3.255683394553993e-05 -0.9694799259689151 -0.10586332451779167
4.003 -0.8651328634449312 -0.20294848821182865 -0.00019167008110521625 -0.00037731428283774846 -0.00016388043730017397 -5.073701263779812e-05 -0.9689424252413176 -0.10470941093258046
4.003428571428572 -0.8677711941943813 -0.19832584569901782 0.0005471673198682632 -0.00037894021678562946 0.00019227478868069747 0.0002802001296013688 -0.9632297182865269 -0.09710653541892056
4.003857142857143 -0.8630229946420193 -0.1906355439566675 0.00019216159216502642 -0.00010855917325980177 -0.0002722620180555269 -0.00015577639568329174 -0.9709670121796694 -0.11093082799854764
4.0042857142857144 -0.8738558090778249 -0.18439424838062574 0.00011170048532654617 -0.0005510176191927629 0.00010505125841756834 8.743391204737887e-05 -0.9667651025165813 -0.09942542294293111
4.004714285714286 -0.8697866869181141 -0.17360305487457545 0.00018154352999068135 -8.148966410426135e-05 -0.00017981547539465265 3.626252523121266e-05 -0.9601300020479177 -0.10735689847873175
4.005142857142857 -0.8705481690815425 -0.16467941980931364 0.00019869274570489393 -0.00025573982303696605 -7.42983157903682e-05 3.3656147748081576e-05 -0.9675954071159429 -0.09712930596758637
4.005571428571429 -0.87217941255778 -0.15867438055691577 0.00031139844094332987 -8.156040674029941e-05 7.55079207578336e-05 -1.2698217530039379e-05 -0.9597943772875054 -0.09630791968459125
4.006 -0.8751249704778481 -0.1555670442426705 4.550420156972141e-05 -0.00047921812227117735 6.010201098236989e-05 -0.00011420646936304237 -0.9719220056206866 -0.09355181292412208
4.006428571428572 -0.8759868241849832 -0.1496712322674305 -0.0001593377610704155 -0.00017309440346998387 6.74881315831759e-05 -1.0916303147627643e-05 -0.9683075502263464 -0.09408373708950263
4.006857142857143 -0.8799805474961516 -0.14001772486768255 -1.7220524700513836e-05 -0.0005729971952885892 -6.314712608511364e-06 -0.00016509625809825562 -0.9644571076873955 -0.08673132574384013
4.007285714285715 -0.8800840695040547 -0.13196061171596385 -2.7215041488398142e-05 -7.794434287043558e-06 -0.00030153834666009637 2.4530265715508015e-05 -0.9690654291536466 -0.08026350196695153
4.007714285714286 -0.8792134419008137 -0.12650848034972267 0.0003371389474765894 -0.000580062455773435 0.00018097979992448207 -0.00014875995824857128 -0.9616614380050011 -0.08439624580995227
4.0081428571428575 -0.8791565427731506 -0.12487063822466626 0.00022735909073610147 -7.913730393161426e-05 -0.00016784693239165334 0.0003578135833032614 -0.968333342027856 -0.08795763500437527
4.008571428571429 -0.8841454489607281 -0.10953009040307754 0.00014973891567128856 -0.0004990047306867066 -0.00019688762581484247 0.0001082599126826842 -0.9656530049034686 -0.07868920261107751
4.009 -0.8848119598818303 -0.10635870984613073 -0.0001772631521056932 -0.0005999070856116125 4.181368290344677e-05 0.00013377860314363975 -0.974297450382162 -0.08610153666670403
4.009428571428572 -0.8822934267502125 -0.10118295017651169 0.0002292041570604928 -0.000279736155755732 -0.00023043689430174842 -0.00025459055564397307 -0.9752660178076834 -0.07517202310193274
4.009857142857143 -0.884224351442924 -0.08961403107810242 0.00033676071746877007 -0.0002779699900176639 9.532597467053603e-05 0.00025771418499889785 -0.9678167585446655 -0.06977225550102335
4.010285714285715 -0.8871486465584862 -0.08352647121621413 -0.000513803841527028 -7.260153112369791e-05 -7.160376178489386e-05 -0.00020050820925117957 -0.9662121649698698 -0.07506278044195754
4.010714285714286 -0.8866040566979568 -0.07660896335866264 -0.00014630134569672235 -0.000544052530599769 -0.00016415167009419427 0.00018560565931296746 -0.9696112571854512 -0.0733844461886519
4.011142857142858 -0.8822855645049644 -0.07187440497978326 0.00023199489525572642 -0.0004254000232265158 0.0003040693020649961 -6.560805659584163e-05 -0.96870070048154 -0.06668190576699172
4.011571428571429 -0.8828886937600249 -0.058932495235699316 0.00010505582319218646 -0.00047469849084171576 -0.0002528425342216852 -2.1770809236155272e-05 -0.9699816841000873 -0.06725116773521539
4.012 -0.8865827814339399 -0.056251154334398444 -0.0006055786500541663 -0.00013249738630857102 0.0003153228879661431 0.0002584798992791436 -0.9743648317129915 -0.06392549731171845
4.012428571428571 -0.8843061658209069 -0.04743885497801207 -8.03226373677513e-05 9.864625949147983e-05 6.190310736623426e-05 -6.332315673623246e-05 -0.9632156866587029 -0.0564637929071043
4.0128571428571425 -0.8922849193840591 -0.037438273857048676 -0.0004363149061396452 -0.0005549404381781912 6.897177087654736e-05 3.17999236516952e-05 -0.9646575106332848 -0.06326276664407553
4.013285714285714 -0.8825811310606455 -0.0343062405810481 -0.0003267708508910564 -0.00024252963087369116 4.544324575970808e-05 0.0001961935484793715 -0.9618277293181998 -0.05921531738098354
4.013714285714285 -0.8863124693261847 -0.02459224560570594 0.0003519237615477014 -0.0001843041924057811 -5.171364152796343e-05 8.639525540886072e-05 -0.9759350206654768 -0.052419902595414264
4.014142857142857 -0.8865477157277248 -0.015735699876792002 1.5172960532697526e-05 -0.0001725052438106298 -0.0002755341598646853 -0.00022401000364243351 -0.9712534879788403 -0.046503288340232755
4.014571428571428 -0.8851540010435653 -0.013398387338460426 -0.00012203532932435764 -0.00023258930291782616 -0.00024883481345892 0.0001708514345453154 -0.9690236401765304 -0.052853655031314645
4.015 -0.8945417693338722 -0.0005711708986312369 -0.0001381034180251362 -2.682220652264071e-05 0.00012010291525137563 -0.00027757732776970476 -0.9654779361830236 -0.051374309477699144
4.015428571428571 -0.8898835765449693 0.011036756856321774 -0.0001673385576267465 -0.00038153586115931217 0.0002403521899850636 -0.00010166087581589455 -0.9728475887648185 -0.050752807174935285
4.015857142857143 -0.8869497576605039 0.01565489810437437 -4.6876068697802644e-05 6.506709963544115e-05 7.320353368837809e-05 4.231930751382935e-05 -0.9706187818868388 -0.04610584101495692
4.016285714285714 -0.8876066328097911 0.02128431415576396 -0.0003785940337651258 -0.0005033212811979168 0.0001867011113720624 -0.00018413887923660608 -0.9675077481518354 -0.04210328335573579
4.0167142857142855 -0.8865385671605212 0.02700060167539574 -0.000180925200904446 -0.00010680743763173677 -0.00022130177204935996 0.00011554822745596553 -0.9660127114286534 -0.04906506423761836
4.017142857142857 -0.8837020267439003 0.0363088439025253 -0.00010794011115878834 -0.0005488756134563189 -0.00010895352122180863 -0.00010127252393088552 -0.960588357696869 -0.039256267680571895
4.017571428571428 -0.8893042332241614 0.04174712079311733 -0.00033999422759285796 -0.0006104085253150292 0.0002593287374045046 -3.4435558086825686e-05 -0.9726289465027753 -0.040510576601625915
4.018 -0.8855086678504834 0.04748191470808397 -0.00033567009501119123 -0.00023040438917938707 0.00013311139015915349 -0.0003647838010670879 -0.9691048582992905 -0.04207456406230866
4.018428571428571 -0.8906881080980505 0.057141048989525975 -0.0004619701468875788 -0.00012789884022579626 3.6555033686928204e-05 -0.0002033142762416147 -0.9719894300024333 -0.03479944305357182
4.018857142857143 -0.8811509215225427 0.06521736783092372 3.255361112836055e-05 -4.3941571568350346e-05 0.00043571202732106587 -0.0002555274212247949 -0.9614929521477336 -0.027138064892821546
4.019285714285714 -0.8801258885867498 0.07613656745493752 -0.0003606089727726618 -0.0005035865591001704 -0.00041489704470545956 -0.00016528605061491653 -0.972143494859116 -0.030119992040816813
4.019714285714286 -0.8855493265147276 0.08240833569454653 -0.00025411165667526886 -5.578648310961778e-05 -9.85711803455559e-06 0.00019659381523093214 -0.9645583454738315 -0.028161662477595484
4.020142857142857 -0.8847141415635239 0.08555344411876376 -6.0509191386283265e-05 -0.00014602662299217703 -0.0003549179975062407 0.00023329499158692882 -0.967860507832369 -0.02439580146709614
4.0205714285714285 -0.8846443499419885 0.10072355986352131 0.00015991613763837267 -0.0005907959921617535 3.255628389785452e-05 -0.00014012380630615528 -0.969152033344328 -0.02730921788485993
4.021 -0.8784634349629438 0.09965717806196851 8.241065473301244e-05 -0.0001309213928837925 -8.439178806641407e-05 -0.0002912413143703532 -0.9668159156601696 -0.019486034185129456
4.021428571428571 -0.8799932214525797 0.11105780883389915 -0.00040318554457100886 -0.0002665418379812398 5.0523005281532783e-05 0.000378093135437728 -0.9703935381502153 -0.020803122287831596
4.021857142857143 -0.8809640425982411 0.1150872558332407 -0.0003269743263742818 -0.0007423138181090897 0.00014133615118223835 -0.00010341540744945152 -0.9663162929522332 -0.016387151792065333
4.022285714285714 -0.8732289909529121 0.12145753705312866 -0.0002815621305339266 -0.0002455643615785514 0.0004081782360174265 0.00016201423666817061 -0.9747053641372616 -0.008461335285334024
4.022714285714286 -0.8794888203717802 0.13671762014232494 0.00010732115827683746 -0.0002767183779628659 0.000136919549932525 -1.2927787583427606e-05 -0.9653056875888225 -0.01560717031752867
4.023142857142857 -0.8753399509430294 0.14017213067794823 -0.0003530181059970647 -5.3995866772736194e-05 0.00013988373030380142 0.00023867980263794365 -0.9705576429065751 -0.0073546651221726945
4.023571428571429 -0.8745843995914437 0.14357793335715077 8.67803101112937e-06 -0.0003862838134907011 -7.741476270829665e-05 0.00010718817306053887 -0.9647929546264621 -0.005521847922711474
4.024 -0.8694448918641229 0.15485592778453766 -0.00043227860086276457 -0.00039489549287001274 3.042817093885909e-05 -0.0001296035957436089 -0.9707719375729683 -0.008323279023520747
4.0244285714285715 -0.8740633220654601 0.15688265048346509 -0.0005647341978380852 -0.00045045079840659146 -0.0003449899378009452 3.190090471158404e-05 -0.9694324024696803 -0.0025736656263945093
4.024857142857143 -0.8734844339458329 0.16936172956112844 -0.0002908106789222611 -0.000715963652913376 0.00016294664481639488 -5.1440878764289304e-05 -0.966049147033421 -0.0010756174415417416
4.025285714285714 -0.872133786856649 0.1795509152826726 -0.0003372583661674956 0.0001824988611599408 0.00010883979629366536 2.3641323153450115e-05 -0.9666202737361023 0.002804565587327591
4.025714285714286 -0.869705804230656 0.18487240447543213 -9.128424169852373e-05 -0.0004160485575384214 0.00022426559296177928 5.6907354258103425e-06 -0.9753414122887767 0.0097665993671673
4.026142857142857 -0.8725071194712452 0.18903589601629575 -0.00029986032837069456 -0.00011789269273367953 -0.0001316141701236411 -1.513524622222187e-05 -0.9692584397375001 0.002810842457192595
4.026571428571429 -0.859424560760204 0.19927072720243433 -0.00014369519875889842 0.00022969866993781385 -0.00012567692960193693 6.0082346408781026e-05 -0.9717880697234424 0.00948538509042461
4.027 -0.8621977248183159 0.20602392230176272 6.901806495615293e-05 6.891533598598365e-05 9.256416506298443e-05 0.00012731506222890556 -0.9690563621711533 0.003684371801514735
4.027428571428572 -0.865792087464067 0.20795297944715507 -0.0005487530332876615 -0.00048492260200521325 -3.492950740901385e-05 0.00011700891309387905 -0.9657366964290226 0.014038191451683552
4.027857142857143 -0.8598137450377614 0.2143622069161515 -0.0003518249278458524 -0.00044902646362916657 0.00020874052629083877 -5.333698364635054e-06 -0.9752603924350175 0.010862891032360248
4.0282857142857145 -0.8608414167056531 0.2314013808861001 0.00017762812563135318 -0.0006276329427656413 -1.5223990387559394e-05 -9.138543563940216e-05 -0.9698606866145921 0.021607988631553388
4.028714285714286 -0.8636086479975545 0.23051189267210523 -0.0006700546233972478 -8.102675325141154e-05 0.0001828137386001632 -0.00035825263055868517 -0.9716295364624922 0.01316591413690333
4.029142857142857 -0.8562318196969435 0.24263390964545264 -0.0005175702745921218 3.6425847055302566e-05 0.00014324307359853114 -3.0921846517524153e-06 -0.9687870209364957 0.023810168142967065
4.029571428571429 -0.856270121805541 0.24468740701876796 -0.00028135311070253473 -0.0002320723137821206 0.0001629793734518446 -0.00028319146061524714 -0.9638462553934951 0.020729533066755977
4.03 -0.849315836543827 0.25270138680501963 -0.0003976563314799921 0.0003352313866321987 -0.00029075458021910345 -0.00011580163543224575 -0.9732120782512229 0.03209958072826862
4.030428571428572 -0.8507319568569471 0.26280881486826163 -0.000474448005357034 0.00014487185286432916 -9.372896045505865e-06 5.721450852646508e-06 -0.9703094006984214 0.02737764682584265
4.030857142857143 -0.8507932723819511 0.2672698521153571 -0.0005337502463708434 5.134470212861455e-05 -0.00013548061429365882 -0.00030713978011106277 -0.9734627135166174 0.023609687884263313
4.031285714285715 -0.8418361966092996 0.2756443343405955 -0.0006609733096435397 -0.00043499582908690783 9.19637150106178e-06 0.00020668366066832057 -0.967359940117725 0.03409036007776025
4.031714285714286 -0.8407517713536926 0.27756011165288 -0.0006856572710924646 -0.00025422464112120907 0.000365723130147067 -4.891940497122494e-05 -0.9669887709996531 0.025141286091008356
4.0321428571428575 -0.8369529411931763 0.2871850625122117 -4.166651286127006e-05 -4.72728728980109e-05 3.3988369281816986e-05 0.0003095563313855036 -0.9716972532195222 0.035059505394759834
4.032571428571429 -0.8399996272603959 0.293365911379031 -0.0006040480902843564 -7.40360313505698e-05 -0.0003564717223546689 -0.00026859843032260924 -0.9666988951093167 0.04369683668930619
4.033 -0.8365279801623746 0.29921181942420066 -0.0003752615310012265 9.625966376949166e-05 -0.0001593850910091254 -0.000499319669017524 -0.9664484942681905 0.045756493537906576
4.033428571428572 -0.8401177011423704 0.30774185278600086 2.5368860479040785e-05 -0.0003810015235337253 0.0001275346763724032 -6.10803727277984e-05 -0.9631605579994832 0.03969405336312259
4.033857142857143 -0.8326474576087777 0.31524928800468394 -0.0004562818564331187 -0.00022145417115108852 0.00020230234235346956 -0.00013070449448386904 -0.9626338303004554 0.04315913883131634
4.034285714285715 -0.8256604386556741 0.3199818524725265 -0.00012475587352537816 -0.0003014495420611237 -0.00020795955573140265 5.350304101436596e-05 -0.9669900739310212 0.04201949241604047
4.034714285714286 -0.8201359482392948 0.3331202596956384 -0.0008288368821154146 -0.0003252556262582014 0.00012335822270509206 -6.839216229501882e-05 -0.9653264216480149 0.051466470355613754
4.035142857142857 -0.8218314272339221 0.3367828814033902 -0.0006019107719444263 -0.0003192500422174217 0.0002195013951181368 -0.0005497956656844684 -0.9711903264617412 0.05203659794313015
4.035571428571428 -0.8153268419401938 0.34341151176755974 -0.0003044325434646653 -8.105376229399646e-05 -3.3030407127060946e-05 -0.00013587180733989988 -0.9669075763071932 0.055580448841380886
4.036 -0.812058990484381 0.3517875375521553 -0.0003149066075694611 -0.000299322404059965 6.443684937344341e-05 1.5185705416535214e-05 -0.9700859023926419 0.05600671575987196
4.036428571428571 -0.8191692251452347 0.3509848165791009 -6.697421181908343e-05 -0.00039308554306758623 -0.0001287953757706059 0.0001432123080221881 -0.9685884506249968 0.052310663749673005
4.0368571428571425 -0.8123446711322387 0.3637207438337562 -0.00016557388031582286 -0.00022069466891061536 6.861496443681671e-05 0.00018441860349580386 -0.9702382430232405 0.05384904394450612
4.037285714285714 -0.8050208270398725 0.37052911858101595 -9.257412040682576e-05 -0.0003289741878281695 -3.183029005278508e-05 -0.00010486472219297969 -0.9625505977564567 0.05870827399365
4.037714285714285 -0.8049670719369358 0.3728341197232426 -0.00021983921677547959 -0.0001756631847823649 -0.00029099888401956875 -3.238820530949425e-05 -0.9703620691011752 0.05447830530970418
4.038142857142857 -0.7999944051480111 0.3912128733532757 -0.0006203369255525632 0.00023510123440563264 -0.000297898502993086 0.0001998918177377459 -0.9644228423912973 0.060748129366579556
4.038571428571428 -0.8009304084951022 0.3896102869904485 -0.00045451109091898285 -0.0002581511491957173 5.05680696303962e-05 -0.00014134951455715923 -0.9613836910462819 0.06386181544463408
4.039 -0.7944971751378246 0.3946886514455503 -0.0006911608977562972 9.589385064589443e-05 0.00019207906788148505 -6.435874324314664e-05 -0.9583215520202855 0.0634871286918956
4.039428571428571 -0.7873008332195085 0.4105009349077648 -0.0005611430854421518 -8.635350541740196e-05 -0.00020230644845672385 0.00014422222693194457 -0.9650284668820618 0.06623483640561376
4.039857142857143 -0.7921766945069912 0.40983835032607313 -8.473316713498962e-05 -2.7991575693324822e-05 8.84545899962135e-05 -8.351842239347764e-06 -0.9701297849252898 0.07038140209085347
4.040285714285714 -0.7869121543522323 0.41044886788605345 0.00014344713477672618 9.488832614468872e-05 -0.00013350151900078618 7.854628821011923e-05 -0.9630347133251393 0.0741558901356579
4.0407142857142855 -0.7866630050008538 0.4239883272514995 -0.0004834732671368225 -0.0002311405746730257 -2.5165089876659294e-05 -0.0003738817678433897 -0.9601031615631496 0.07516213571224054
4.041142857142857 -0.772829627537923 0.42978859653020274 -0.00042940362728306053 -6.242687736883661e-05 0.00045448985926686435 7.486008297311994e-05 -0.9682064729499705 0.0860388463294024
4.041571428571428 -0.7720231386051345 0.4339769160337485 -0.0010977478940713845 0.00013033353696908186 -5.360543381424409e-05 -0.0002198672951977664 -0.9641437871094416 0.08347339791988637
4.042 -0.7677117066478101 0.4426590367194468 -0.0003193838330196426 -0.00015577144920803852 -0.00023954904042961753 -0.00016655620783667424 -0.9648316916117526 0.08976484046103107
4.042428571428571 -0.7638003363098842 0.44916755988351104 -1.9432294510502767e-05 4.64620938588934e-05 0.00021880600535093155 0.00018646063722010185 -0.9590272588046818 0.09101312374552671
4.042857142857143 -0.7648827377865292 0.44417832915611827 -0.0002376064751764304 4.56222382252544e-05 -0.00010005997367453951 6.842308432212325e-05 -0.9662751966801161 0.08826111357882654
4.043285714285714 -0.759129148053888 0.4630255891399922 -9.831007575004844e-05 0.0006120974150611407 -0.0001469871452930627 0.00016217412728797536 -0.9647277447832671 0.08723719796909639
4.043714285714286 -0.7509960179271565 0.46361272112471874 -0.000486908866310625 0.00034230545481900163 -0.00019661295514550656 -9.229333050565543e-05 -0.9677755656953454 0.08203295358901432
4.044142857142857 -0.75121671786299 0.47315267228588415 -0.00044254156902778227 0.00018031432225366589 -0.0001145989353579844 -0.00012879897515776444 -0.963134063923809 0.09537225865306777
