!Created with skrf (http://scikit-rf.org).
# Hz S RI R 50.0 
!freq ReS11 ImS11 ReS21 ImS21 ReS12 ImS12 ReS22 ImS22
4.0 -0.8488511806324002 -0.2515380348545221 0.00038761676344929816 -2.930193274077278e-06 0.0001642077894158176 -8.678809819220995e-05 -0.9648488132120804 -0.13036289768749046
4.0004285714285714 -0.8546174157562387 -0.24697559200833946 0.0003054198362859275 -0.0002509890036491574 -5.4179218574065264e-05 1.216290666368944e-05 -0.9702160019417297 -0.1235218775373253
4.000857142857143 -0.8599835103371481 -0.2361314449211925 6.549229653150237e-05 -0.0003045936339182184 -0.00016668058242298587 0.000285577155267584 -0.9652812109671274 -0.11471701983048299
4.001285714285714 -0.8541597596386131 -0.23071909836903065 0.00033969124747576523 -6.057398052761297e-06 0.00020471609720405069 8.815964514196258e-05 -0.9643791929079394 -0.11685260532446962
4.001714285714286 -0.8586147569419428 -0.22301285329825402 0.0001309277565759855 -0.00014987129877200477 -8.303192789787945e-05 0.0001090373517407273 -0.9658621914585872 -0.1210498480952406
4.002142857142857 -0.8590220927370797 -0.2217298477299498 0.0001975848153089425 -0.00047489982767046134 3.2805575738654744e-05 -4.404070784361473e-05 -0.9647430240775066 -0.11219310556406627
4.002571428571429 -0.8618313017055576 -0.21174316637944202 0.00022466206531918638 0.00022788574573439312 0.0003380857537907625 -0.00013280474440271995 -0.970212657012261 -0.10745892907856858
4.003 -0.8656187217704301 -0.20139812077344413 -0.00015296432424334225 -0.00011793256496967003 0.00011558106945777573 3.2019747213274036e-05 -0.9696740760963695 -0.10464531210570394
4.003428571428572 -0.8686050410621646 -0.1981029816024118 0.0005104020095544925 6.398595060149888e-05 -3.8324039434577824e-05 9.199339643114003e-05 -0.9637246314485535 -0.0998090467659077
4.003857142857143 -0.8652300433657448 -0.18972181747054037 0.00021867799772372226 -0.00047939572868254543 0.00021693043411470436 -0.00014289518460857263 -0.9699689546451825 -0.10939647822488022
4.0042857142857144 -0.8763583290176317 -0.18317219429950943 0.0006488892532814646 -0.00021214830162992026 0.00018121195997711768 -0.00014311736897681395 -0.9665022816771704 -0.09939443623464013
4.004714285714286 -0.870356455599805 -0.17288444571691886 6.381723057207967e-05 -0.00030864114980705393 -0.00013412166501351874 -0.00020339319125665996 -0.9597937853510394 -0.10760230426079768
4.005142857142857 -0.8741285677953342 -0.16530667735213636 -5.7314918624445806e-05 -0.0005133153314700149 0.0002001544425947278 4.276068899901697e-05 -0.967471625807448 -0.09469089551526653
4.005571428571429 -0.8734023688889793 -0.1597543409243992 5.490152245951337e-05 -0.0002841350733451311 0.00019306359884340243 0.00014094800922794573 -0.961788961629172 -0.0944466172720083
4.006 -0.8759562550883243 -0.1545329068998427 9.716906543082439e-05 0.00011034968707997912 -0.00013957906526801487 -9.88190805475892e-05 -0.9697146896393197 -0.09357144017147914
4.006428571428572 -0.8760691455184337 -0.14943766375969086 0.00041172741929314943 -0.0003222471369506306 -0.00011294411956816947 7.315858079247654e-05 -0.9677143405469016 -0.09194693358085362
4.006857142857143 -0.8807235377212069 -0.13827063448382432 -8.815710592535836e-05 -0.0005750886028897887 -0.00013128750012670188 -0.00022195351261812906 -0.965165639651108 -0.08628726494021646
4.007285714285715 -0.8838111447512451 -0.1324122667105315 0.00019882318626114208 -0.0002502967938093631 0.0001021187449979861 0.0001531888896627066 -0.969758072608422 -0.0797682183058869
4.007714285714286 -0.8805367841922487 -0.12524493132263975 0.00021863297189798954 -0.0007730735782470808 -0.00020416639221035204 -7.407275449606734e-05 -0.9641749789216273 -0.08156389234892215
4.0081428571428575 -0.8825329834922921 -0.12263239283213867 6.401827062353727e-05 -0.0004780161230664229 0.00021999724098969162 -0.00013036114081856756 -0.9676724185942598 -0.08806916535106228
4.008571428571429 -0.883348192023677 -0.10982154218051801 0.0002456107885955574 -0.00021782975644590725 0.0001791820108800816 -0.000218827371585036 -0.9635502858260744 -0.0791233807323056
4.009 -0.8858311048612971 -0.10394883045468171 -0.0002868927606738343 -0.0004961321152710292 3.604913590365065e-05 7.71250108410969e-05 -0.9747743550511153 -0.08541297144864404
4.009428571428572 -0.8825344181716989 -0.09954692743521455 -0.00010470639672501618 -0.0005240376252833876 0.00023264501625614348 0.00046847876671283426 -0.9746034458047651 -0.07500733137783067
4.009857142857143 -0.8860188264630448 -0.08811532809990757 -2.0499078334267907e-05 -0.00026978493040571495 0.00012433479198644946 0.00017318960998094485 -0.9667444682748707 -0.069015953019821
4.010285714285715 -0.887030915410126 -0.08271179211042987 -0.0003178997849879648 -0.00021509361383976458 -2.4462287399727057e-06 -3.335150391608375e-05 -0.9644045729095031 -0.07374816046661767
4.010714285714286 -0.8876463007947587 -0.07601400808401394 -4.05142268159675e-05 -0.0004514795503090138 -0.00016126816374522476 8.864565417804547e-06 -0.9690085085122878 -0.07028436105368875
4.011142857142858 -0.8832328363431987 -0.07165947278790033 0.00025631625427835665 -0.00018002037117078942 -0.00017788518480127806 -0.0004336377361963859 -0.9689754805059183 -0.06736136771248664
4.011571428571429 -0.8838570123292964 -0.05880146733451561 -0.0003449289842551787 -5.572741733810524e-05 -6.471790607885832e-06 0.00019788171720406197 -0.9725173396596903 -0.0654584567530328
4.012 -0.8896576862475163 -0.05425164534173762 -6.749579955474872e-05 -0.00026343799971642823 0.00012538114041588986 0.00013294904063416662 -0.9748877064126854 -0.06360236368520122
4.012428571428571 -0.8860516909863336 -0.0453012212362426 -9.659779216572272e-05 -0.0003624071509858118 5.1102455324104144e-05 -0.00011676279287585645 -0.9626422962140964 -0.05647345125148908
4.0128571428571425 -0.8932476320054169 -0.036040493168076636 1.7611277134142503e-05 -0.0003720769862568375 0.000217678886732001 0.00023205796916917623 -0.9641659820115537 -0.06360905818619444
4.013285714285714 -0.8829701161771308 -0.031740058961304544 0.00020700349099499215 -0.00048774688903333176 6.796387246384836e-05 -2.331438907631308e-05 -0.9630449083044925 -0.059980700194802124
4.013714285714285 -0.887075567864315 -0.02366880393810249 -0.00019267130357272365 -9.669762741830966e-05 0.00035539684328579954 0.00011158020540405085 -0.9766186098078167 -0.05281560573408585
4.014142857142857 -0.8864795427093586 -0.014777715993973432 6.74411050249277e-05 -0.000504209311511991 -9.437141654994406e-05 -0.00019162520234344819 -0.9711260306736139 -0.047780123200600606
4.014571428571428 -0.8842054605982199 -0.013706276148023007 0.00021327733761023152 -0.000490521256794137 -9.99485450088252e-05 6.453222626671183e-05 -0.9710276665483729 -0.053594118725946216
4.015 -0.8963374144330476 -0.00020982575979194563 -0.00019973455778346806 2.0166928659772667e-05 0.0001829125399665486 0.00034041361930173513 -0.9653621628477663 -0.05164684329543069
4.015428571428571 -0.89158934544387 0.01050189937983955 0.00024888160862771344 -6.360614214976463e-05 0.00022293070768868362 -0.00029657429726607387 -0.9709181327227443 -0.051390645170808096
4.015857142857143 -0.890347357228362 0.016360185416816764 -0.0002367615498529945 -0.0003473626721586284 -7.250184324708119e-05 0.00010509260541664816 -0.9706237937802764 -0.04692159847917125
4.016285714285714 -0.8891349416509211 0.020287948101289026 -8.886473440144311e-05 -0.00032105164271603386 0.00020608101449198153 -7.972442760938707e-05 -0.9661907964657463 -0.04207246234746618
4.0167142857142855 -0.8880684056848203 0.029091544131305436 -0.0001804412502987048 -0.00028740989184974035 0.00012123502909789407 3.758876954807813e-05 -0.9644105385757626 -0.05056226737599711
4.017142857142857 -0.8837133053780107 0.03713572320021735 -0.00045886472761965655 -0.0004229415711034374 -0.00023159151249561388 -0.00015806118356769325 -0.9616491782125771 -0.04243452579299327
4.017571428571428 -0.8925698195078575 0.04182085211586323 6.656172765058344e-05 -0.0001366877968908155 -0.00015243060803788299 -7.038042416473784e-05 -0.9721357666615716 -0.04347503794658916
4.018 -0.8859356279289152 0.04983848094521211 -0.00013410923887249761 -0.0004371130069362452 0.00027952904318802205 4.0876776103512545e-05 -0.9696005511954798 -0.04178434403028306
4.018428571428571 -0.8895904017117087 0.05780075040407095 -0.00010901859988505224 -5.701730970200272e-05 -0.00022715623751763317 -4.271655771400899e-05 -0.9713611055387442 -0.03448326152113231
4.018857142857143 -0.8824662941548778 0.06545405843319047 0.00011097882538944092 -2.615748968505405e-05 0.00020961833431799303 -0.000360036323072237 -0.9626861495752792 -0.02820409169527733
4.019285714285714 -0.8800505964232894 0.0772406893790103 -2.0553497750113446e-05 -0.0006884732462068655 -6.372349982795099e-05 0.00023250258111078709 -0.9720860528781868 -0.027132347307530707
4.019714285714286 -0.8876388295152972 0.0828578295710058 -0.00021877220258524654 -0.00016951662924401525 -2.4155424197573476e-05 -0.00010573466893059027 -0.9640196646390851 -0.029894966956170135
4.020142857142857 -0.8848290219602976 0.0868453991070857 -1.915810084012542e-05 -0.00013218036358335673 6.339215624858322e-05 0.00022420153730588781 -0.9666755775103971 -0.024240766551931033
4.0205714285714285 -0.8841079323047156 0.10179764811016301 -0.0004341183120874 -0.00025419469474860995 -0.0001192115773770669 0.0003388411502732219 -0.9697349548018075 -0.02578249663343294
4.021 -0.8806630302853242 0.10138535557453282 -4.835548598510595e-05 -0.00010706411672651774 6.770839295334186e-05 8.939332030661381e-05 -0.9655375298210308 -0.021879117644723934
4.021428571428571 -0.8782649192272265 0.11461404207189421 1.0135600841044377e-05 -0.000661112027831694 -3.217470172375792e-05 -0.00023640278870673176 -0.9689040595397599 -0.01861463378650593
4.021857142857143 -0.8827677465866117 0.11681308655596029 2.5137536584770347e-05 -0.0001917284892155447 0.00010194525138315914 -0.0005433486163348568 -0.9665760657035111 -0.016718167948120703
4.022285714285714 -0.8740423348334497 0.12093168000599228 0.00011718175808770523 0.00015021421488536406 -0.00016267459340614006 -0.00034848376792311704 -0.9739934394675621 -0.007258473462795093
4.022714285714286 -0.8789177708303411 0.1357829586484586 -0.000583403070286087 -0.00031504963788927534 0.0005004825582419996 0.00017619340593047332 -0.9665677593344028 -0.01362041487843855
4.023142857142857 -0.8736652063432241 0.14125188098261252 -2.605897581216804e-05 -0.0005464255138572119 -0.00016604771202409174 0.0002257722890220135 -0.9674795801377107 -0.007830234362143638
4.023571428571429 -0.8781826780692873 0.14440503754126421 -0.00038305603131422676 1.4189897802547405e-05 -5.278334484621811e-05 -0.00022366674158116567 -0.9622737286275215 -0.005139184793476161
4.024 -0.8707672594726565 0.1568884749551398 -0.0007191743045978847 -0.00045368216223107516 0.00036213599357059855 -0.000219027578173146 -0.9708777430558351 -0.006694098052962352
4.0244285714285715 -0.872672993164572 0.15824989526393168 -0.0001585906229960593 -0.00036072854334869616 -4.296897107951178e-05 -6.14759616596178e-05 -0.9693980932656984 -0.004132271597617699
4.024857142857143 -0.874882057014472 0.17244150363794847 -0.0005780548822739374 -0.000558295508943122 -3.602723111833622e-05 -0.00013443540566242617 -0.967409936756405 -0.0011456506302113508
4.025285714285714 -0.8737003436905113 0.17788799288477067 2.0554298416398736e-05 -0.0001830074567035091 -0.000181191039413639 -0.00018282650337636032 -0.9686093283998469 0.0012260919264231948
4.025714285714286 -0.8710591257900914 0.18500125134433412 -0.0005337224937773951 -0.00028940189469803365 0.00020107682758511845 -5.845485027479869e-05 -0.9775068233818339 0.009071578055339093
4.026142857142857 -0.8740634519346768 0.18970051248873007 -0.0006137608768066234 -0.00035041200454931647 -1.101381173403147e-05 0.00019449661842518165 -0.9701920389919566 0.0006755218312291822
4.026571428571429 -0.859998416703742 0.20058538600416442 -0.0002685053978949814 -0.00012217564514626844 0.00017522088112266183 -0.0001669077414589824 -0.9733045038380435 0.008117310933261106
4.027 -0.8629201554866536 0.20713358387526973 -0.0001903671626110417 -0.00017743393915755541 -0.00010694251115399772 5.973853741254701e-05 -0.9707996855943836 0.005089401947231112
4.027428571428572 -0.8668124444984949 0.20894701608203667 -0.0002935233248723666 -0.00042690168403996875 2.129299541396701e-05 -2.6770407898940806e-05 -0.9661987009813371 0.014918896790579173
4.027857142857143 -0.8621947242759214 0.21691429620524696 -0.000908518368273876 -0.00015361717819657226 0.0002087358348880388 0.0005053411146114257 -0.9753170422839343 0.0118157870341391
4.0282857142857145 -0.8600580101388069 0.23004408919746916 -2.1553978598242417e-05 0.00016972842101841784 0.00020797884323043393 -0.0002132727456354021 -0.9731994630087015 0.021437400863998653
4.028714285714286 -0.8636036163148031 0.23016111681137263 -1.2903541420538846e-05 0.0004129935005084757 0.0003346605211337437 7.386048109114667e-07 -0.9692360914684809 0.011541228055525201
4.029142857142857 -0.8588021056318426 0.24314246955345986 6.457441287854893e-05 -0.0003348171312602839 -4.607443997763845e-05 -1.6483613855359767e-05 -0.9676079422803069 0.026711286208862643
4.029571428571429 -0.8567457286703759 0.24623067707632826 -0.00036191527529397894 -0.0007023743939053417 2.2456014309373876e-05 0.00020877018210781198 -0.9623219842571044 0.019966584292516906
4.03 -0.850764686730151 0.25263119071612217 -0.00020550221408007126 -0.00021171774868830638 -0.00027762440341135914 4.488469772829547e-05 -0.9742604385943506 0.03292606904939911
4.030428571428572 -0.8497891809998327 0.2620681535581714 -0.00027336378860990366 5.1100029848233215e-05 -6.812100961380043e-06 -7.98418438422962e-05 -0.9712926863657957 0.02866420734753348
4.030857142857143 -0.8538088741791492 0.2660323570180766 -0.0007200055572923771 5.145551235344969e-05 6.242271884683094e-05 0.00011043347757131064 -0.9719572971213442 0.023294722477711437
4.031285714285715 -0.8441046138875277 0.2749381507283298 -0.0004569945172280451 -0.0003833682319616118 5.638110738260381e-05 3.928284907670315e-05 -0.9675972720235454 0.03489478851504835
4.031714285714286 -0.8421293332909039 0.27813768057543664 -0.00014455776826449333 -0.0003890695183072194 0.00017405990632361304 2.2953810888770985e-05 -0.9656819723257036 0.024529559996905113
4.0321428571428575 -0.8370983447569712 0.28769784186236624 -0.00022784336068516235 -0.0001948822801790675 -9.894913282618295e-05 -0.00020115662987443 -0.9726939125076287 0.03557639718753211
4.032571428571429 -0.8391812652960066 0.29653969189642504 -0.0003801215129010307 -0.000160601534412361 0.00015266894965381938 9.968098165392453e-06 -0.9659231850440003 0.0439161213007722
4.033 -0.8388630742804586 0.30058809286948374 -0.0006060138476223447 0.00015395853028507653 0.0001636703077524942 0.000106015980560375 -0.9656585559903031 0.04346624975187911
4.033428571428572 -0.8408841814493879 0.309618798936354 -0.0005191649023955559 -0.00045125414226010723 0.00012854439966331405 -1.3478993885840461e-05 -0.9630091907781815 0.039113763617990134
4.033857142857143 -0.8320657759626986 0.3160762530771436 -0.00042479539378348157 -0.00020404504166579023 0.00022625397926768717 -0.00014520527614756288 -0.963284334711054 0.04441164234331383
4.034285714285715 -0.826870163860904 0.32139986684426247 8.428463848432988e-05 0.00013141969352083188 0.00021027929279283236 0.00012784703838307477 -0.9671761841575703 0.041398681201597926
4.034714285714286 -0.819895804901441 0.33382715089127285 1.8239372084728055e-05 -0.00031610267855552044 0.00011356862686772421 0.00011572340558432543 -0.9668695405713411 0.05190699595911647
4.035142857142857 -0.8232025803324928 0.33850058103159286 -0.00027258194556214994 -0.0003148291731539249 0.00020039430244391286 0.00016427027746952375 -0.9688369749665812 0.05194154516878564
4.035571428571428 -0.8152403632907013 0.3442837546005694 -0.0008184399356070919 -0.000138959412273093 -0.0001375882200639935 5.244063602438972e-05 -0.9681327756737079 0.056418284101394045
4.036 -0.8120115307512976 0.3541672383563381 -0.00039288616274522437 1.1863191756045404e-05 4.884139910527638e-05 4.7436233408580134e-05 -0.9701624216377659 0.056097515193402676
4.036428571428571 -0.8203814887051059 0.35329629476034907 -0.00031104157430741187 -0.0002868109194636333 -7.011257118979088e-05 -8.921150182810572e-05 -0.9688502658157602 0.05152189857068931
4.0368571428571425 -0.8148186243278933 0.3642467458831827 -0.0004382733503540695 -0.00018564064439437767 0.0003056112127049794 -7.161528647991286e-05 -0.9704299201766078 0.051504111971846595
4.037285714285714 -0.8054104968619786 0.37035445300281 -0.0001823837900918505 -7.073367882377597e-05 -0.0002198100531857851 -6.227334779872007e-06 -0.9638331421956986 0.05829421739458981
4.037714285714285 -0.8034190800090311 0.37247478352135593 0.00010629739220298488 -5.8292226264957546e-05 -0.00023429489295527655 -0.00013985690290134795 -0.9703661631252861 0.055638668785828425
4.038142857142857 -0.7994518065858319 0.39251966185194276 0.00010313979100050338 0.00011384005060201122 0.0002447311982514183 -0.00016104431100873458 -0.963487562493614 0.06047721387469391
4.038571428571428 -0.8002355504321862 0.3911861195681161 -0.00025076211107554164 -0.0005444679288776277 -0.00017105979134179642 -5.349054173318206e-06 -0.9600363245101623 0.06585014635528835
4.039 -0.795862317281143 0.3950068861380862 -0.0001811104092782112 -0.00026439189407392215 -5.2653125117061106e-05 -0.0001058819597611654 -0.9588616020730876 0.06450208491309542
4.039428571428571 -0.7878978078230846 0.41409884669311575 -0.00028331710052344373 -4.808543150303765e-05 8.398950083330526e-06 6.442234733366034e-05 -0.9638221419113024 0.06882706694465365
4.039857142857143 -0.7914912372818546 0.41202869876844994 -0.0006077696356127568 -0.00024836062544637865 1.7809852739421529e-06 -0.00011287717240759015 -0.9702205101204007 0.06924577914310814
4.040285714285714 -0.7864883516631805 0.41262002014051014 -0.0002586768602251462 -0.00032996477472944474 9.982961682695356e-05 0.00019290492654072843 -0.9651149869530785 0.07563290375167253
4.0407142857142855 -0.7876868659233647 0.4260629616035563 -0.00044806857223848845 8.758446554126201e-05 -0.0001298139741803462 0.00021271818428726094 -0.9613368456797655 0.07353000822725242
4.041142857142857 -0.7750305119915388 0.4275662319689249 -0.00034909005813530693 0.00021340288139086677 9.794679133528513e-05 -4.412483464923883e-05 -0.9693483823143743 0.08408315170348526
4.041571428571428 -0.7729655202272621 0.43723125951044767 -0.0005073889020937359 0.00014092908852607444 -0.00039932596302064464 -0.0003319015045847523 -0.9671271641100448 0.08329211012071862
4.042 -0.7690894847874585 0.4459234186079105 -0.0008546293789935916 -0.000472282162358732 0.00010599053800916553 -8.917552914785329e-05 -0.9642093616984589 0.09012046342721532
4.042428571428571 -0.7626767340749658 0.44916406561493954 -0.0003943920702785899 -0.0005518910575012103 8.04822334132962e-05 -8.219222755642982e-07 -0.9604861572818394 0.09153123405123333
4.042857142857143 -0.7650942021868178 0.44491514026714846 -0.000342097149405112 3.275349931425978e-05 4.585552550229585e-05 0.00015040638448581958 -0.9646442061639275 0.08712659771219437
4.043285714285714 -0.7584217934947051 0.4639502905536103 -0.00021638076799882975 -7.3617482164164e-05 -0.00016408279564154797 -0.000132658442871491 -0.9647198381190262 0.08899898874737365
4.043714285714286 -0.7515594329682448 0.46594561607409823 -0.00030935045808165845 -0.0002162361245425177 -9.097510456754768e-05 -1.0474037192144062e-05 -0.9649210898879863 0.08288312977107981
4.044142857142857 -0.7531064511103089 0.47548028338551357 -0.0003042123399379313 -0.00023672816394668643 2.6409792980877737e-05 1.2640136252900172e-05 -0.9624676293313521 0.09685903493366947
