!Created with skrf (http://scikit-rf.org).
# Hz S RI R 50.0 
!freq ReS11 ImS11 ReS21 ImS21 ReS12 ImS12 ReS22 ImS22
4.0 -0.8498904127761435 -0.2529270328497237 0.0002605033838405877 -0.00013681704610366978 -0.0002739522150114675 -0.00011871560917453878 -0.9627397115411565 -0.13072030550389532
4.0004285714285714 -0.8553786221311056 -0.2477069394791584 0.0001302627696379338 -0.00014984866555395215 -0.00027669831319485544 0.0001125206395865478 -0.9710784348980094 -0.12378556882916292
4.000857142857143 -0.8599877154276925 -0.2359621145427804 2.0118352844091702e-05 -0.00048822969237009086 -0.00011689373455910857 -0.00015116644966995247 -0.965830865832732 -0.11828297868801231
4.001285714285714 -0.8539148258392721 -0.23130860255533606 0.0002678088302874828 -0.00041018126834257767 0.0001233444764565744 0.00017773730102235884 -0.9639652291093721 -0.11751891100895148
4.001714285714286 -0.8611070690227884 -0.22396326207462294 -0.0002325452877642099 -9.661161147241747e-05 -2.0277285497399345e-05 5.755558691048208e-06 -0.9654862438519082 -0.12165013685738581
4.002142857142857 -0.8601679392580109 -0.2235664535965664 -5.708118001158022e-05 4.604529760289095e-05 -9.457446022753835e-05 -0.0003277932835675278 -0.9654025433164205 -0.11258127318662965
4.002571428571429 -0.8644580651501218 -0.21295061867601778 -0.00011911908765981579 -0.00017842590818489213 -9.668378521618295e-05 -4.950059084510555e-05 -0.9689405435699535 -0.10708978151087137
4.003 -0.8671902699882141 -0.20144069242688087 -0.00022407019130627566 -0.00039149914223527284 -0.00012922195609406582 -1.754518080439549e-05 -0.9676444582652042 -0.10524685846703764
4.003428571428572 -0.8702828287380202 -0.1976162260320158 -0.0001836450320054727 -0.00021042125329387055 -0.0001514849518218693 9.706731789844524e-05 -0.9606832351191456 -0.10073949807265217
4.003857142857143 -0.8650380580639999 -0.1903204711321228 0.00011899376605703721 -0.00036691698645059445 0.0001629873857529553 0.00015877891128754953 -0.971356599335539 -0.11054183968995115
4.0042857142857144 -0.8743917932192565 -0.18204853936822046 8.160065470171141e-05 -0.00030095973665656236 0.0001845874309733126 0.00016518095497825618 -0.9662464415403774 -0.09950483789584541
4.004714285714286 -0.8706497879791119 -0.17298893737470972 -0.00010433796106166536 -0.00024281790884304332 1.5218465719306908e-06 0.0002056248862938105 -0.9595357630258446 -0.10756019848332943
4.005142857142857 -0.8728924042342959 -0.1649971234691447 7.410902575596114e-05 -0.0005517364949702756 -0.00017276361293059784 -0.00015387305288117417 -0.9673137259569828 -0.09507774976667598
4.005571428571429 -0.8739955723532653 -0.1584632448118178 4.0015807117047e-05 -0.00025686592875837994 -0.00030332867408245273 -3.62843731470914e-05 -0.9611514357995958 -0.09657770877923577
4.006 -0.8766899535730124 -0.1547249343544715 2.825104371066505e-05 -3.821170879198818e-05 -0.00010750246363892592 0.00010651525464421749 -0.9723431093386997 -0.09346125114213362
4.006428571428572 -0.8759903293511143 -0.1507423734119379 -0.00020629038125604594 -0.0003706848322013616 -0.00016451831736316494 -3.846301648503337e-06 -0.9685455579974613 -0.09283510649265476
4.006857142857143 -0.8802295067893964 -0.13789133476515192 0.0004062173727226478 -6.707466282547181e-05 -7.63657007854026e-05 -0.0002608731411241747 -0.9657914470061992 -0.08774750548983053
4.007285714285715 -0.8835028984530573 -0.13210426907462386 8.104294703531855e-05 -0.0004946007867854052 1.9553040676030033e-05 -0.00027898703385163234 -0.9679633817589773 -0.08167869618403348
4.007714285714286 -0.8818045717940476 -0.12717303972074537 -0.0002723069663494794 -0.0004826283869403453 0.00014164619268868954 0.00035172430514502826 -0.9630906197206243 -0.08294107927737755
4.0081428571428575 -0.8828762367281627 -0.12423074788536813 0.0002694346754015437 -0.00013270550125595262 6.807056551639176e-05 0.00020941049054148142 -0.9690616694824125 -0.08648595001994348
4.008571428571429 -0.8850305955906927 -0.11011502524914235 -0.00031363501841713277 -0.0005697271538385909 -0.0001276078038349485 0.00011212671645617717 -0.9641235410092565 -0.07895467325587559
4.009 -0.8865988551185559 -0.1031637374452747 -0.00017533581975642885 -0.0005312576101225603 -0.00017371804381915962 0.00020161739805396925 -0.9753484646309375 -0.08508506586819169
4.009428571428572 -0.8862814381525506 -0.1006463480625603 5.4158867077231384e-05 -0.00060031326968102 -0.0001642246344088515 0.00017977610474078384 -0.9754749508397099 -0.07615297869919226
4.009857142857143 -0.8857563525055049 -0.0899809742104333 5.6734925632731795e-05 -0.00024201119714342575 9.528381911398109e-05 1.0714369446594425e-05 -0.9684934310348662 -0.06994285789373886
4.010285714285715 -0.8892083324675822 -0.08154455313994743 0.00015028898704619954 -0.0004670010770319134 4.109671852174656e-05 0.00018963006249946826 -0.9644420880429587 -0.07544806156929011
4.010714285714286 -0.8866355521400623 -0.07692175562766827 0.00010533710452731059 -0.00038319360366224355 -2.0310705982126736e-05 7.335600354465114e-05 -0.9694487011103053 -0.06995680556802412
4.011142857142858 -0.8841767079637673 -0.07244234553636708 0.0005803490408097649 -0.00022347365033011882 0.00017804246456547683 -0.0001084395500459085 -0.9707423042952709 -0.06674435961619317
4.011571428571429 -0.8854582013209719 -0.05708372665151138 2.8185938127262338e-05 -0.00013761929634935262 -0.00012059353286262124 1.853124358155324e-05 -0.9713020081189061 -0.06785365651636614
4.012 -0.8892586221090295 -0.05494270098396183 -0.0003902079976264899 -0.00045686397538933983 0.0001682464567411313 -2.472595028788403e-05 -0.975222721799046 -0.06343481799213954
4.012428571428571 -0.8861972599672618 -0.04602764831221284 -0.00036531520431400024 -0.00047417758178544333 0.00018545208213357453 -0.00020361317899791448 -0.9630365212715712 -0.05688997762629655
4.0128571428571425 -0.8946273570429979 -0.03617580733553791 -0.00013505705694301324 -0.0002733170298011196 0.0001334362060819626 0.0003598801679323955 -0.9653732762623496 -0.06457456565904171
4.013285714285714 -0.8844370384837511 -0.03144932669815213 -0.00023744340255822956 -9.971668121596571e-05 1.0423412541111957e-05 5.9588612176662945e-05 -0.9631348767122254 -0.06055433727441998
4.013714285714285 -0.8871500851491573 -0.021778542106945 0.00014468713267714637 9.684876794034793e-05 -0.00015661666404512606 -5.462596704798083e-05 -0.9760402404856383 -0.05375564769799376
4.014142857142857 -0.8866716220379384 -0.0141890745846095 8.310150202562862e-05 -0.00022107208910377495 8.423169312561332e-05 -9.08335537383744e-05 -0.9709951047627157 -0.04631320946489458
4.014571428571428 -0.885899532341672 -0.011969969105054127 -0.00017368343059343352 -0.00022403248505175789 -0.00020465324054135082 -0.0001611488484510858 -0.971446153290275 -0.05165670562466479
4.015 -0.8959391766719166 -0.0014865240498709018 -0.00011761810821902194 -0.00041095836270155537 -4.214837836289009e-05 -0.0001748866640347232 -0.9653972350387479 -0.05130708435247685
4.015428571428571 -0.8912303991819167 0.010162097874491403 -0.00021122861475517357 3.990735358549419e-05 -7.447542103025394e-05 -0.00012489972918387743 -0.9739112871014681 -0.049661088263736664
4.015857142857143 -0.8901668636693733 0.017278353783660286 -0.0001510688324700379 -0.0002968909559476278 5.416842887757265e-05 0.00016946637490523444 -0.9708639528899363 -0.04499013034441562
4.016285714285714 -0.892112851376789 0.020578472940552754 7.038133437510581e-05 -0.00014827358108494157 1.0775112179040187e-05 -4.4112889417955925e-05 -0.9661826642710014 -0.04210462296503867
4.0167142857142855 -0.8885643816395815 0.029059342088038936 -0.0003241437033577907 -0.00036487804601123753 -0.0003486403408566918 -0.00011366372881873102 -0.9639052527464449 -0.0491514258110938
4.017142857142857 -0.8857894951188269 0.038318920949276775 -0.00011612478531844248 -0.0006051710800339077 -0.00022066626544681788 -0.0003209459546597816 -0.9616575789508822 -0.041289331008331
4.017571428571428 -0.8928270487571445 0.04211184565036531 -0.00023257255614226357 -0.000367092967988886 -8.508539121067832e-05 0.0001503974860931331 -0.9738478309819864 -0.04304338280519265
4.018 -0.8864212642759615 0.04709428435526302 -0.00036918214639908005 -0.00043891789360736924 1.9457723621873458e-05 -0.00016714574039996473 -0.9684673471719878 -0.04287590464861637
4.018428571428571 -0.8908194874316808 0.058800235333237014 0.00022230000833235137 -0.00022947890199382333 0.00012462390432172498 1.7156662306914745e-05 -0.9698485846038705 -0.03432778904819442
4.018857142857143 -0.8820941300711435 0.06756403069278229 -0.0002525016166754546 -0.0003909034617907049 0.00019612689595493137 -8.100592923303358e-05 -0.961847720185135 -0.027211897257867306
4.019285714285714 -0.8817460495979788 0.07635326278794026 3.0414786170828067e-05 -0.0003416673820422996 0.0002337243660011589 -1.8009438749623864e-07 -0.971275041235294 -0.02921770802196439
4.019714285714286 -0.8870538958370887 0.08483097477455533 -4.987511135650214e-05 -0.0004056526044104478 0.00011952942573125942 -0.00014579391657889155 -0.9641130701379835 -0.025948307057290433
4.020142857142857 -0.886442984689105 0.08705369759563436 -9.261708146010892e-05 0.00020629993894365588 0.0001802784752508532 4.655453160964694e-05 -0.9702150554858093 -0.024317120026150805
4.0205714285714285 -0.8833572931116196 0.10177583047302825 -4.112179144220122e-06 -0.0004932661543926741 7.410011504367375e-05 0.00016219644773826 -0.9672456334524361 -0.027614989158152907
4.021 -0.88305554561359 0.10109250295536149 -0.00019477553094128728 -7.629673460515159e-05 0.000323266934220674 -0.0002698882618669302 -0.964847025163721 -0.02106009937505969
4.021428571428571 -0.8815966798266573 0.1152781121017135 -0.0005094061790665788 -0.0004992473017878695 0.0002017321105788966 0.00022678916922565614 -0.9697278371584501 -0.019695283816128378
4.021857142857143 -0.8830581795313641 0.11743150480673915 -0.0006079262096278906 0.00017948719276189104 5.944772179357249e-06 0.00010232592725307591 -0.9666022826858625 -0.017503990394548773
4.022285714285714 -0.8754679460355926 0.12102047431350127 -1.8006425438558585e-05 9.291022377914649e-05 0.0001996751526676651 0.00011263086934688834 -0.9739767701649188 -0.009304491496762659
4.022714285714286 -0.8799752215131118 0.13703906370272148 -0.0003059898249675399 -4.9305529253251396e-05 -0.0001004526568412149 9.220600168828775e-05 -0.965692423834157 -0.014099821977865652
4.023142857142857 -0.8752786195125916 0.14171916991072067 0.00014630776048888067 -0.00038028824387398747 -0.00031495107744160586 3.2983404364656416e-05 -0.9677247988445726 -0.007900667844660572
4.023571428571429 -0.8762390151004722 0.1454267792559902 -0.0002539407803411332 7.862797604971775e-05 -4.5748615267891183e-05 0.00032283785562459957 -0.962722277881997 -0.004496027708635972
4.024 -0.8719249248613078 0.15538952117875515 -0.00025060715052470546 -0.0003732387078436028 -0.00012035398411617713 -0.00015408996591285566 -0.9674807649339828 -0.0089371024501024
4.0244285714285715 -0.8748764110994827 0.15861098237517662 -5.66374275112148e-05 -0.00011898340087592283 8.427096681706956e-05 -8.382707247715048e-05 -0.9705119213241837 -0.0033786495279030273
4.024857142857143 -0.8740570157511709 0.17180270197383965 3.22092768439798e-05 -0.00012992479710486262 -0.0002267703490778864 -0.0002631931852435021 -0.965644029499588 -0.002354546211080192
4.025285714285714 -0.8750262236976446 0.17960304526543874 -0.000208915251880417 -3.567252624749134e-05 -3.784995692939768e-05 0.00017371376480673024 -0.9670303968014038 0.002923451460372406
4.025714285714286 -0.8720990125033856 0.1857331780252678 -0.0002874041339978127 0.00020461731164421134 -0.00014458880556974946 -0.0002483510878416861 -0.9759955334186247 0.009794887541316216
4.026142857142857 -0.8749356743063486 0.19261813335383618 8.639256349834515e-05 5.539765614077294e-05 0.00042283974023671925 7.978536508118933e-05 -0.9693950694980383 0.002936341082420236
4.026571428571429 -0.8606035733119842 0.19985318536729998 0.00014707206762694768 -0.00033784733964899996 0.00015453711960178337 0.000207034876600901 -0.9742793998541251 0.006009444787705855
4.027 -0.8631366558459027 0.20744877522122118 -0.00040533387730516375 -0.0003324396177897212 -0.00011229592946276627 2.134544252848954e-05 -0.9693171802672157 0.00534302621692075
4.027428571428572 -0.8660589289802121 0.20964036403390734 -0.0002982916091153417 -0.00014092494976082297 0.0002566816202906717 0.00011996221257228295 -0.9692161097696725 0.015015703936263187
4.027857142857143 -0.8628411266189461 0.21586225725158972 -0.00028403666538501015 -0.0003226919046911892 -0.00016725341387040213 0.00030219307734252174 -0.9755040075707765 0.009363118491348663
4.0282857142857145 -0.8603323737008742 0.23115269029555296 -0.000379625047541891 9.34012071267095e-05 -3.222374069739924e-05 3.851720362394503e-05 -0.9703399775776683 0.020273757347813073
4.028714285714286 -0.8646976082725739 0.22835390248255108 -4.7340514820258056e-05 -0.00012374304455584805 9.3953922373188e-05 3.910718572455085e-05 -0.970828945269967 0.012929741171187184
4.029142857142857 -0.8592563805486862 0.24328103286511615 -0.0003191468434755613 -0.0006513062638549693 -0.00023590984367191184 0.00018578100497925197 -0.9680794923925724 0.02141741616256897
4.029571428571429 -0.8579941416611858 0.2467053218283303 -0.0002904236207940872 0.00012036424066326998 4.182425450265449e-05 -7.470778522983741e-05 -0.9621652822507377 0.018814232923160125
4.03 -0.8522212206674319 0.251428161691125 -0.000370829247171329 -0.0004815254215975946 0.00017671232049762948 1.547463434718441e-05 -0.9718126417215903 0.03202386480732271
4.030428571428572 -0.8510635505270884 0.2652844868976417 -0.00016833190010893874 0.0003393409113050158 -6.633768341548795e-05 -3.5162950095539426e-05 -0.9701615665034595 0.02787992348381525
4.030857142857143 -0.853421244034519 0.26803937591201327 -0.000545207772067405 -0.0005923678819416085 -0.00021440646781419514 0.00028199618416897745 -0.9715424867337871 0.022676873724801205
4.031285714285715 -0.8462710642673377 0.2760207843131952 2.874796857757821e-05 -0.0005082611483816715 4.77459894769274e-05 0.0001364399005566135 -0.9687211728981341 0.03318137517661153
4.031714285714286 -0.842261325084946 0.2766650449504178 -0.00019271703861280278 -0.00021929444710995464 7.957650199900321e-05 0.00022254157085315027 -0.9650848871400658 0.023453737636911862
4.0321428571428575 -0.8386702182727297 0.28905538322859703 -0.0003829169052017663 0.00010531032931841013 -3.291143373866367e-05 3.068729402909454e-05 -0.9733743327889284 0.03410457694432182
4.032571428571429 -0.8401173332191914 0.295722124558408 -4.9270052544811907e-05 -0.00022461482580493646 -0.00022543015341155252 -0.0001131911067448069 -0.9671157927813182 0.04355046014284376
4.033 -0.837405149553274 0.30102291125689185 -0.00034440215730784324 -0.00039154800524992145 -0.0002142777110186135 7.473202540071947e-05 -0.9665755071643058 0.04383932883631019
4.033428571428572 -0.8428251027806184 0.31046993902459774 -1.7909684098937922e-05 -0.0003520476914962687 -6.397897618259716e-05 -0.00023690980572385983 -0.9632076004573646 0.03812052498813784
4.033857142857143 -0.8344382051163616 0.3159437883253283 -0.00020407219365870398 0.0002266374353985686 0.000259430659334835 -0.00019067069052430678 -0.9625452446484244 0.045455020093636674
4.034285714285715 -0.8268250904963673 0.3210624579238733 -4.873073591809081e-05 -0.00033311109253260883 -0.00010400186589904762 -0.00010661012654116899 -0.9657298668304225 0.041247364823860086
4.034714285714286 -0.8218846295843639 0.3339690098672326 -0.0002355655645599042 -0.0002731532295356879 -0.00016095916377158165 0.0001942456390464942 -0.9661917967326901 0.05100919404666674
4.035142857142857 -0.8224903370426868 0.3380125466434687 -0.00043309096989807414 -0.0001825322071654904 -0.0004101804955283055 -0.00029769079146208964 -0.9691359170548035 0.05182573330745997
4.035571428571428 -0.8151618624764166 0.34593650501604617 -0.00024251112069974745 0.0005234334268932907 -5.1685570772509454e-05 -0.00013983396016946926 -0.9678115044535639 0.056878371242343594
4.036 -0.813408325519916 0.3558295979793763 -0.0005273497904097544 8.768767083642935e-05 0.00010992023029262551 -0.00031219568382643724 -0.969293494578104 0.05507668238913437
4.036428571428571 -0.8200013558177661 0.35287234655175653 -0.0003350240263314677 -0.0003314543002528698 0.0002493605066376441 -6.771441329113779e-05 -0.9679652155803137 0.05150453656890983
4.0368571428571425 -0.8134577633715967 0.3651341182149544 -0.00036314617078465563 -1.30355610507632e-05 8.586854721992825e-05 -9.003060017004051e-05 -0.9704486451474218 0.05287485018592061
4.037285714285714 -0.8060437443301072 0.3725623152384485 0.00031423048917879256 -0.00035724295429838583 0.00013504200405884572 9.978125963280766e-05 -0.9631632860176349 0.05987163977241524
4.037714285714285 -0.8052808620397073 0.3724657153188603 -0.0003938125216529575 -0.00010819295380436085 1.24881201078057e-05 2.256506860805144e-05 -0.9721900485072573 0.05544515697954659
4.038142857142857 -0.7989655291824724 0.392544988687752 -0.0008022085039666952 -0.0002844982621042387 0.0003973713200409764 0.00023162912434796055 -0.9630008041616382 0.0626778234067153
4.038571428571428 -0.8025659263961739 0.3914321153932522 -0.0003460233651829558 0.00021171958405309248 -8.357096772679514e-05 0.00014610427250856377 -0.9595178282199041 0.06458307548483974
4.039 -0.795181000611822 0.39585953124384976 -0.00032021539500555284 -0.00030239058244377977 -0.0002712274232900903 2.49668707407441e-05 -0.9598462997539678 0.06344579259023791
4.039428571428571 -0.7885591920680302 0.4125974862939923 -0.0005900615919740486 0.00015397857622098638 -0.00025188612814415294 -9.200898658077498e-05 -0.9646865476218651 0.06916190354279574
4.039857142857143 -0.7929406305675316 0.4099020307442885 -0.00016782725116749048 -0.0003557355875836199 -0.00013631846811133262 -7.960766967306856e-05 -0.9686431546320796 0.06994871076266229
4.040285714285714 -0.7868670459289353 0.41239908563223543 -0.000316898868177574 -0.00016073126495982765 -0.0002446767791751475 -0.00010346713167452022 -0.9649938314840845 0.07379270173193442
4.0407142857142855 -0.7891566336828039 0.42429469477416326 -0.0005834392336652847 0.00011654355161881912 0.0003189622834122265 0.0001037303254209705 -0.9601766837464119 0.07581958270921482
4.041142857142857 -0.7746686313120954 0.42903054705047394 -0.0003894219749688611 0.00014244010922690047 -3.846180798499743e-05 0.0001654018553892067 -0.9688704886635279 0.08493285214781135
4.041571428571428 -0.7722821630559736 0.4364446404089636 -0.00033538236827169386 -0.00010308932580707269 -9.730780836426853e-05 -0.00023006178888816895 -0.965035877340784 0.08395935999446649
4.042 -0.770761105754304 0.44652383648157695 -0.00017131977255978244 -0.00012729321661321595 0.0003102159130111722 7.021193589430903e-05 -0.9629495063579593 0.08898522651727246
4.042428571428571 -0.7623037206948019 0.45009487296875805 9.637939645745039e-05 5.9979496505190195e-05 -8.471241695300145e-05 2.4073701104699756e-05 -0.9613292431847529 0.0912773825934145
4.042857142857143 -0.7655063065013874 0.4466861072726502 -0.00030460412941504366 -0.00039603174855573885 -0.00015952651750244468 7.556922289198748e-06 -0.9653434962115537 0.08771342277932538
4.043285714285714 -0.7586396257394179 0.4649849328574653 -0.0001893521951969006 -0.00011666295819815335 0.0002520369525799463 -0.0004933006668274871 -0.9655146485158559 0.08457666700646461
4.043714285714286 -0.7518293909967594 0.4659390238192193 -0.0008623780956276275 0.00019452278579336346 0.0003004202240677989 -3.675896904188728e-05 -0.9675015181403626 0.08321135984557482
4.044142857142857 -0.7503236654962806 0.4751897427657827 -0.0002202763680401158 0.00044522569544593553 -5.111606804972364e-05 0.00016317239841286948 -0.9617117321499482 0.0931749667652088
