!Created with skrf (http://scikit-rf.org).
# Hz S RI R 50.0 
!freq ReS11 ImS11 ReS21 ImS21 ReS12 ImS12 ReS22 ImS22
4.0 -0.8487872862472425 -0.2534796944088455 0.0006311861355433843 -0.0005180394199287123 -7.06236641486268e-06 -0.00013640143067268287 -0.9623008842150863 -0.13030424341592134
4.0004285714285714 -0.8568850232042506 -0.2478243546274994 0.0002462977206133773 -0.0001938871428387285 1.7214202269588626e-05 -0.00016214914668425117 -0.9711212250740779 -0.1222430557658511
4.000857142857143 -0.8603439030349103 -0.23830795727899215 -0.00015689089910677232 -0.00018463901128930508 -2.6605519250028913e-05 -0.00013154876029053078 -0.9681159156202663 -0.1161778046135637
4.001285714285714 -0.8546557196614207 -0.23182805052070776 6.284123414993852e-05 -0.00038666719074200947 0.00029278701156753705 -7.077939490038185e-05 -0.9648071199915412 -0.11698168284748546
4.001714285714286 -0.861992636455804 -0.22356632547446895 0.0002895782570255053 -0.00013043538389083268 -2.4561839824013796e-05 -0.00018266363902272003 -0.9663959777710336 -0.12082117012931229
4.002142857142857 -0.8593708403299831 -0.2231802143075959 0.0005111996090688647 -0.0005108945753737662 -9.514827524175364e-05 -4.65023005899609e-05 -0.9654090531386335 -0.11232775597724155
4.002571428571429 -0.863532250892497 -0.21318516975633695 -5.0543707488319686e-05 -0.00029949786994035616 0.00010894211914451507 -0.00013453974392843766 -0.9708805038599123 -0.10544797243804377
4.003 -0.867636185873005 -0.2016263509261413 5.366854787975077e-05 3.349610648881633e-05 3.8854564364435296e-05 5.112864293010112e-05 -0.9700181863377185 -0.10400856291698563
4.003428571428572 -0.8692861824407857 -0.19956928035293092 7.574572433843075e-05 -0.00014437644188623362 4.103224800191989e-05 -0.00018133177605242072 -0.9624492982219146 -0.09916251060300621
4.003857142857143 -0.8650977922733217 -0.18986621532753326 4.10461524017028e-05 -0.0001695779842679445 0.00010789391421203286 -0.00011233738950794797 -0.9701037288709663 -0.1127971797634818
4.0042857142857144 -0.8756424451297613 -0.18394673599553102 0.00025006630145609686 -0.00026038113824125293 -4.9190229880812826e-05 -0.0001773379092338792 -0.9663864495031623 -0.0993832947460686
4.004714285714286 -0.8728367635274203 -0.17284950310278832 9.649567495637241e-05 -0.0002592820345317854 -2.9398319723053837e-05 4.022707359051248e-05 -0.958854906035929 -0.10793884256880444
4.005142857142857 -0.8729407791746341 -0.16440329208398885 0.00031234718703657 -0.0004688570087015646 6.414203676260569e-05 -0.00042829693428701423 -0.9669853741784695 -0.09404726655602921
4.005571428571429 -0.8749304983740916 -0.16030798631548165 0.00024249328203637417 -0.0005452657559200995 0.0002800865266442445 -0.00012481618781820742 -0.9609227897214796 -0.09646404965513705
4.006 -0.8770169215898141 -0.15578385953756704 0.00014469239082037157 -0.0003718037204843026 -7.745690265471344e-05 -2.354546831803602e-05 -0.9720024548363765 -0.09244886169827665
4.006428571428572 -0.8775650807499134 -0.15112337704416295 0.0003208526622581185 -0.00038099466860011674 -7.634738733122069e-05 0.00016025610924287975 -0.9686855438807157 -0.09233315027415719
4.006857142857143 -0.882903879666707 -0.1386835953472948 4.958039217046785e-05 -0.00032504516097741026 -2.4551233810272595e-05 0.0002111769976646883 -0.965878617978413 -0.0856789494946818
4.007285714285715 -0.8835195918255864 -0.13275391238562603 0.00013642516188069575 -0.0004158052727794077 0.0001789431705027205 -2.5963661953006808e-05 -0.9695791355338316 -0.07827601235797958
4.007714285714286 -0.8811669237911505 -0.12559230654961068 0.00030611159285157976 -0.0005476016713564181 0.00013321861254561208 0.00012506722348312765 -0.9640963820607491 -0.08263280945281894
4.0081428571428575 -0.8837955211638778 -0.12452734857480009 0.00017338409755203327 -0.00026164658541177535 -0.00025885889716761797 0.00010408876110991901 -0.9681852239805572 -0.08915441771244852
4.008571428571429 -0.8854268341585555 -0.1094669763930633 -5.883238545066596e-05 -0.00034470465737210774 -3.883253435161795e-06 -6.561947699234685e-05 -0.9656999997265191 -0.07883241123106971
4.009 -0.8859481545713683 -0.10569185937872554 0.00012744311749504872 -0.00044494202544439625 1.6650152493986977e-06 -7.778498000404936e-06 -0.9747696777330898 -0.08560174423230885
4.009428571428572 -0.8836915807371836 -0.10090886396277533 3.654731698551814e-05 -0.0004824847377467624 1.0159765539933232e-05 0.0004375851306885989 -0.9735171414926905 -0.07524717503870659
4.009857142857143 -0.8855781475253477 -0.0903578784920831 0.0002866011131015003 -0.0001327217593086106 1.1987719609222719e-05 6.555416445123227e-05 -0.9667193457121396 -0.07063875070978526
4.010285714285715 -0.8904326574968414 -0.08181543460426867 0.00031370699556156414 -0.0004883320727655258 0.00011955258537886949 0.00011691576627999311 -0.9665828630193907 -0.07403479688166847
4.010714285714286 -0.887258166529879 -0.0762802498075276 -0.000264304179882211 -0.0007282984444869485 -3.358221732829656e-05 -9.771970590761196e-05 -0.9693196840585604 -0.07020084917708629
4.011142857142858 -0.8837014932042976 -0.07267028208916944 -0.00012030823319308858 -0.0004006287867441113 0.00019408383279314532 0.000273647674090386 -0.9695064996340101 -0.06549312769404536
4.011571428571429 -0.8859545751152033 -0.05820912475404167 -2.3374128250585746e-05 -0.0005143360557277054 -3.976347070428025e-05 -1.0472040930885112e-07 -0.9703768898134449 -0.06656253888268744
4.012 -0.8905010167405573 -0.05496209881276138 0.00010614164351576666 -0.00021575697175116746 0.00018099030815279323 -4.670972943434557e-05 -0.9745055604948788 -0.06265346859713677
4.012428571428571 -0.8871885463084327 -0.0460545652884323 -0.0001807427504286542 -0.0003290262795729121 0.00015495188867753988 9.763338028087433e-05 -0.9634762913121534 -0.05556840131055093
4.0128571428571425 -0.8944928528430404 -0.036094694203301 7.893477751286963e-05 -0.00014178680380178674 8.28287357475688e-05 0.0001312528925566528 -0.9632600147826916 -0.06195630078426861
4.013285714285714 -0.8850925342072792 -0.03174981881048282 0.00017110015104576223 -0.0002187650532321832 -0.0004306657530423439 0.00014701855647242354 -0.9652360085761302 -0.05759222791731717
4.013714285714285 -0.8892476218541019 -0.023246415804436947 0.00016034855533263693 6.362633997818894e-05 7.312254504211844e-05 -0.00014059361390059158 -0.976737829932822 -0.05229312975787853
4.014142857142857 -0.8870744040355553 -0.015041270460643545 -0.0004974730060956467 -0.0004373959875263743 6.012510465390482e-05 0.00011715249064544187 -0.9711699442464867 -0.04664346287086129
4.014571428571428 -0.8866836614218928 -0.013980681418096483 0.00020983699833559377 -0.0007611504527955092 -2.3904503141760884e-05 -0.00013102787755384196 -0.9691293879126092 -0.05209654101463057
4.015 -0.8955354082605117 -0.001284785165660273 -8.823722803776764e-05 -0.0005073270926159279 0.00013279548068417088 -3.7475976768330196e-07 -0.9642996078629832 -0.05175307605792377
4.015428571428571 -0.890389509314057 0.009795891608364252 0.00010368640695383372 -0.00033012324012659703 -2.2889434285052206e-06 0.00015448786794614966 -0.9719730520918628 -0.05000171905922516
4.015857142857143 -0.8896739027423799 0.016553594995292593 -0.00021019295432218133 -0.00036583990504570723 -0.00013869827354183462 -0.00021960762322726287 -0.970089451413636 -0.04743554889982069
4.016285714285714 -0.8893607096782328 0.022941275046216673 0.00022403099037202333 -0.0001805278349293041 0.00011319030426346862 -0.0001902048693643534 -0.9669765564482542 -0.04170142219013784
4.0167142857142855 -0.8914998416604121 0.02924495683500858 -0.0002019287546526151 8.528540952226056e-06 0.00013280732232135556 -0.0004254686830104572 -0.9649477968610322 -0.04659629219842457
4.017142857142857 -0.8867347958405183 0.03877175465835833 2.7966826381417936e-05 -0.0005040914092954395 -0.0003708374092882689 -7.403854695258482e-05 -0.959928031314217 -0.03800184010958775
4.017571428571428 -0.8925702247187364 0.04036563414503215 -0.00021443196097668785 -0.0005234217303556095 0.0002493286842530832 0.0001499291712712068 -0.974732540613898 -0.04083824089640268
4.018 -0.8876794779332265 0.046104703758476855 8.895370447023966e-05 -0.00019064795120606707 3.856609110268949e-05 -0.00017890037134166733 -0.9688454990180914 -0.039633332013438875
4.018428571428571 -0.8918310149608609 0.05874064875643731 0.00022560948416359405 -0.00044661089848443497 0.00012603950219327684 4.0103072619515414e-05 -0.9710679073953614 -0.03359833142792749
4.018857142857143 -0.8846158517342455 0.06583281531545981 -9.12974000803587e-05 0.0002391165642449266 -0.00012143889863273154 -4.3726595321444405e-05 -0.9615681596180801 -0.027670674223143656
4.019285714285714 -0.8820600100955036 0.07735323382504447 -0.0007782650215935957 -0.0005639793603491047 8.342238134515495e-05 0.00019740288508744965 -0.9722779129497103 -0.026491045429821617
4.019714285714286 -0.8880832628946294 0.08380486040365279 0.00011916916891894816 -0.0005461986779065094 -0.0001783424705626683 -0.00014094953377268504 -0.9637393068592502 -0.02858640980493688
4.020142857142857 -0.8878276769251479 0.08720078218930925 6.530729720566912e-05 -0.0002309822779240717 1.1635099216662951e-05 0.00013408257659235746 -0.9673216701626812 -0.024267767671426018
4.0205714285714285 -0.8852329315541574 0.10210215282108344 -0.00015838908063659844 -0.00047787327549417275 -7.169633155364996e-05 5.0564803670971e-05 -0.9678638205593971 -0.027084935722534235
4.021 -0.8847452651152867 0.09977320953595764 -0.00012998816329899804 -0.00012011254907337514 0.00017118472075665852 0.0001349480178132601 -0.9674031396336743 -0.021971495603618878
4.021428571428571 -0.8815735473765816 0.1128225043172377 -0.0003800295682953206 -0.0005953245606082778 -4.9557072970889124e-05 -0.00024338446135964176 -0.9692158850102575 -0.01971296330307215
4.021857142857143 -0.8824675585728528 0.11585022027613072 -0.0005452530705174441 -0.00027986641195904856 -6.538018565476356e-05 -3.5528915337625956e-05 -0.9672504067810664 -0.015734181249178424
4.022285714285714 -0.8733737750420091 0.12238411992037346 1.0324588426847607e-05 -3.848071093349638e-05 8.432281285731276e-05 -6.430591629796181e-05 -0.9755621975460173 -0.008160519517056682
4.022714285714286 -0.881777170778191 0.13635065788271916 -0.00046233196131055017 -0.0008501896569050205 -0.0002999905414014675 -7.448129839532906e-05 -0.9666131257353848 -0.013572050740010206
4.023142857142857 -0.8765408349450647 0.1425039131582526 -0.00039610554093726303 -0.0003166675009939177 -0.00018401920729832686 6.353428642543916e-05 -0.9677578269627674 -0.007724545092459789
4.023571428571429 -0.8771117424017923 0.14260707849346274 -0.0007789944400667543 0.00016493568427556227 -6.912326466708621e-06 0.00034188265222018823 -0.9617497962302977 -0.0038415808466700447
4.024 -0.8729274827902174 0.15443688425840704 -0.000384883595986253 0.00024272991399861205 -8.04079984715067e-05 0.0001618263631740012 -0.9710095301980257 -0.007933425909068662
4.0244285714285715 -0.8753284608421297 0.15992812707859588 -0.0006563827064886357 -0.00043005983917073344 -4.4980641989485545e-05 0.00013411751324143018 -0.9701288699901651 -0.003867172476606358
4.024857142857143 -0.8759846158286249 0.1720869146542987 -0.0003301748382400704 0.00028069461288536475 0.0001396384438593956 -3.0164021185140646e-07 -0.9675658653519403 -0.001773334257739818
4.025285714285714 -0.8738717243263785 0.17812094416671853 -0.00018561099654315218 -0.0004632793578714356 5.061268646302344e-05 0.00015572534600905632 -0.9657601088339327 0.0036127279774622626
4.025714285714286 -0.8722741429835957 0.18403852896741374 -0.00044069334667885606 -0.00016547742133486007 0.00019984380662967452 2.9029915428516342e-05 -0.9744933532407439 0.0088842526804295
4.026142857142857 -0.8740210680593492 0.19112672487558008 0.00021554003953215832 -0.0004883082292754015 0.00027755942798215555 4.558001979833012e-05 -0.9705175729094208 0.002814381211331586
4.026571428571429 -0.8622256616250652 0.20149973873675908 0.0003579005573383183 -0.0001211898785101631 -3.731176570226023e-05 -3.3323132680034236e-05 -0.9749994138173049 0.007903574156558534
4.027 -0.863779641684381 0.207751536351648 -0.0004708409856629662 0.00032941451251172266 -1.3223712976934578e-06 0.00024571143463733965 -0.9707256415811416 0.003857288707951641
4.027428571428572 -0.869701548465109 0.20989766901455367 -0.00030466069424958366 -0.000436152809920695 0.00019058281736159126 -0.00037396739109402105 -0.9653554029189856 0.016229067862647384
4.027857142857143 -0.8638358949805348 0.2152423456036857 -0.0003791656883596956 -0.0004025025800915861 8.253262630094091e-05 -0.00019636333897751925 -0.97375840847519 0.012562038442302241
4.0282857142857145 -0.8614754077831198 0.2310218344922595 -0.0003836340313679637 -0.00022590540658086827 -0.00015892967689916441 3.816942832478318e-05 -0.9730986073137156 0.02144820881339442
4.028714285714286 -0.8653689621898635 0.22880404853137062 -6.131356717033404e-05 -0.0001658181860251049 -0.00023590418489719724 4.830395225834493e-06 -0.9697184783325166 0.013493055895187948
4.029142857142857 -0.8586722183043259 0.24297988650960833 -0.00011490693538879653 -0.00015261644861434777 1.866696379882904e-05 0.0002620575986370082 -0.9679362578476516 0.022974398288892476
4.029571428571429 -0.8591571623895636 0.24681881232239025 -0.0004826344926082552 -0.0001855002601320553 -0.00010538646664161197 0.00012184103642113308 -0.9647049583436683 0.02228013615015634
4.03 -0.8519095556477447 0.2514671243301377 -0.00019150849996818974 -0.0004833295748484031 -4.577978344515433e-05 -0.0001987000828117237 -0.9724898677337752 0.03331560235395342
4.030428571428572 -0.8510961237874493 0.26252567795543774 -0.00048786461659687703 -0.0002275806378835729 -0.00011244430836517657 -0.00014018409465743492 -0.9701960952909277 0.029514186976020467
4.030857142857143 -0.8532164908422407 0.2662529503681958 0.0002485112978554989 0.00016116823556428322 0.0001631845490576077 4.8031596530939115e-05 -0.9721359270018414 0.02173237696764232
4.031285714285715 -0.8462201427686054 0.27619498006776544 -0.0004086590352948702 -0.0002132086275876902 0.0002561985320372502 0.00020947728511608465 -0.9675060436935445 0.03690641612215004
4.031714285714286 -0.8430391644673505 0.2767394364593459 -0.00027181602159588987 -0.0005308098916128689 -0.00026848375050881533 0.0002327398240084588 -0.963334262273751 0.02619722955523412
4.0321428571428575 -0.8401214046488531 0.2872875786012639 -0.0003504922417642054 -0.0005840652578042946 0.0001942959963950943 -0.0003294298297709763 -0.9717016112741181 0.035668312139223085
4.032571428571429 -0.8416725257141945 0.29489035658611795 -0.0004951428235392185 -0.0004271227030398422 -6.960256249348704e-05 0.0002796567771150664 -0.9656457334283367 0.044367956593775564
4.033 -0.8394277811552824 0.3031923651094327 -0.0005094040095595347 -0.0003205528498594677 -9.485210274205853e-05 5.581253615095288e-05 -0.9667766947796445 0.04613954994872511
4.033428571428572 -0.8416841394253014 0.3096402142133247 -0.00020877301412419722 -0.00020105063078662712 0.00011298566411324087 0.00012814305201940956 -0.9638270927581758 0.041000762165642426
4.033857142857143 -0.8349885611090849 0.3178239698223074 -0.0003452005044628403 -0.0003333255197486508 0.00012811693453298792 1.6014254456876108e-05 -0.9632940319428949 0.04371490949506306
4.034285714285715 -0.8277472434807706 0.32210344513142547 -0.0006439162479704367 4.8277444962554147e-05 -3.9437332139458734e-05 -0.0001552563151766477 -0.9652560638421287 0.04324020022905358
4.034714285714286 -0.8208716301521448 0.3341082761176003 -0.0005619118026773429 -0.0003305189686231462 -9.396492202519256e-05 0.00015733264646903422 -0.9676346386672614 0.05201151414338169
4.035142857142857 -0.8228167836165058 0.3365705065777879 -0.00045291751682796687 -0.00040272820569265126 3.678547180885634e-05 -1.8771666928357355e-05 -0.9673400708966461 0.05407597614175601
4.035571428571428 -0.8168827565783331 0.34504361345670786 -8.958736969709662e-05 -0.0005003392523616916 -0.00014575351074711716 0.00034293879209838606 -0.967874652100404 0.05750144472344785
4.036 -0.8127645421172508 0.355051050984404 -0.00036973289290259133 0.0001371697094690776 -0.00016516401175505047 -0.00045191133498727586 -0.9712437420411246 0.0572986592426584
4.036428571428571 -0.8217485369844815 0.3514379113779138 -0.0007814456264332132 -0.00030581081028342434 0.00015711407796846217 3.3015030105413186e-05 -0.9692300156589312 0.052163551467471106
4.0368571428571425 -0.8148317698977621 0.3648763913124823 -0.0004667455769909967 0.0002759317023178429 -4.082284365359232e-05 0.00016302281813911353 -0.9702061491823751 0.052125790349967255
4.037285714285714 -0.8069540543731732 0.37221952396977265 -0.0003307545639327717 -6.709572048690186e-05 5.943043937826711e-05 0.00029819810928131084 -0.9635913419648658 0.06016591579801828
4.037714285714285 -0.8053987541231066 0.3729340938344753 -0.0004213486710343857 -0.00029011013327345146 0.00029357478492285323 -0.00019599268553470914 -0.9702686066924645 0.05708566904704063
4.038142857142857 -0.7996260392572703 0.39093122277527576 -0.000353470889485117 0.00021436883595521487 5.747097499612197e-05 -4.872462484942936e-05 -0.9646785959834724 0.05940533242935192
4.038571428571428 -0.8016696526667038 0.39052803666434616 -0.00030552477198379465 0.0002207396085112985 -6.222826810563054e-05 3.381204391367325e-05 -0.9604255210071785 0.06579540542981771
4.039 -0.7971172831141621 0.3950819140626895 -0.0003207939482953558 -0.0003724867847015566 -4.686903937617098e-05 -0.00016897586535448615 -0.959144825887907 0.06613338454650539
4.039428571428571 -0.7889436645041185 0.4136050436945308 -0.00015142905517641158 0.00016156817547512134 -2.1966950152102274e-05 -5.0064021666919134e-05 -0.9652615673708373 0.06864233209092716
4.039857142857143 -0.7934732117577773 0.41278734183566396 -0.0006442335111798006 -5.3312685751551945e-05 0.0001113616496964829 1.0403539129210375e-05 -0.970105216941365 0.0686684223424421
4.040285714285714 -0.7871852526053826 0.40980362450678426 -0.0007222162245795538 -0.0002960553662221895 -4.68123924542068e-06 4.605100619141889e-05 -0.9612493158519071 0.07658184933268514
4.0407142857142855 -0.7869184513300931 0.4241843103727028 -0.0006668631191835798 0.0003551194714245815 1.1260057901754733e-05 -0.00011623318053934089 -0.957464885549728 0.07642295677638106
4.041142857142857 -0.7747588820447108 0.43022803511614877 3.1488548987415377e-05 0.00012697316953533334 -8.545615332127389e-05 0.0002970510043833745 -0.9688584070545724 0.08457166892402289
4.041571428571428 -0.7748558653057829 0.4357948686292804 -0.00021833528347290257 -0.00029996364256622586 -0.000278758251806234 0.00014928858770943624 -0.96712207848698 0.08549732620836567
4.042 -0.7692941710281954 0.4455514075887959 -0.0008257720463034367 -0.0002781526928851334 0.0002705766062354269 0.00039265766180961295 -0.9639791867587423 0.08925744319148977
4.042428571428571 -0.7645078058170394 0.451486646358418 -0.0005116983104035496 0.00014410767720144307 -0.00041158166789080435 -0.00021103875025897743 -0.9583901297757463 0.09373838747469863
4.042857142857143 -0.765124690291107 0.4450748793987088 -0.00010757962720805524 0.0001282831681090923 0.0001952202039874989 -4.85783260636658e-05 -0.9630922766118978 0.08982393353976875
4.043285714285714 -0.7590209416244308 0.4637627403717188 -9.404553422174415e-05 -3.587028634181402e-05 -0.0002727511827207518 -4.4252915288435046e-05 -0.9646581838161168 0.08578060379221168
4.043714285714286 -0.7518753234786335 0.46760323559256156 -2.3059647602863907e-05 0.00013155858574993867 0.00044899720329815487 0.00014784083098687991 -0.9643980810767485 0.0819713011561256
4.044142857142857 -0.7514459657020266 0.4755230055947596 -0.0004400092253540751 -0.0004285853805023472 -9.164122829258683e-05 3.635060462045166e-05 -0.9644778193969914 0.09625405289837395
