!Created with skrf (http://scikit-rf.org).
# Hz S RI R 50.0 
!freq ReS11 ImS11 ReS21 ImS21 ReS12 ImS12 ReS22 ImS22
4.0 -0.8483638189141445 -0.25145715333509017 -8.142398392783013e-05 -0.00018470529771450112 -0.00018111309647069924 -6.980391961587813e-05 -0.9624256622317087 -0.12929990102918193
4.0004285714285714 -0.8557750620668955 -0.24525367783406946 -3.074850427956237e-05 -0.00030582587004537165 0.00017617387275231937 0.0002172109475921195 -0.9703729585485618 -0.12417537034177167
4.000857142857143 -0.8590384675947431 -0.23532566379375205 1.954084554236987e-05 -0.0004138586673743285 -0.0003495497607359574 1.0567550065514661e-05 -0.9672171347492073 -0.11568549437763219
4.001285714285714 -0.8543491216809671 -0.22903588198497077 -0.00025136126336056623 -0.0001465205818430727 0.0002394804654043985 -0.0001376066800947795 -0.9634321575523342 -0.1155301311179054
4.001714285714286 -0.8613098902247974 -0.2215520587327629 0.0002330945728584678 -0.00033743599551060285 -7.228459223938147e-05 -0.0001990789658705912 -0.9653226934560671 -0.12058167832383748
4.002142857142857 -0.8581602736912213 -0.22075369216679552 0.00035897743738278235 -0.00016931821336070015 0.00020432147810543893 -0.00012123357202416475 -0.9658095912709728 -0.10909651237075976
4.002571428571429 -0.8626095360851531 -0.21144396131709745 -0.00024325284691059984 -0.0003824048982055872 -0.00026664312830939664 7.705396496064907e-05 -0.9714481701041002 -0.10624373914739757
4.003 -0.8668801377971626 -0.1999917202081101 0.0002540818483791345 -0.0002677990565219853 2.3169926931022194e-05 0.0001545075312214249 -0.9708608487796371 -0.10426669093933512
4.003428571428572 -0.8690707255493069 -0.19762806954779316 9.463310260719116e-05 3.656368804983803e-05 4.255194333667068e-05 0.00021769160353778241 -0.9627852643732313 -0.09828796598222814
4.003857142857143 -0.8635431568560676 -0.18715913261059847 -1.1172509529203439e-05 -0.0003448153334065536 0.00023344368043056555 5.4782294242004505e-05 -0.9720473612057328 -0.10818761345920684
4.0042857142857144 -0.8754922999084498 -0.1812909725416189 0.00039649135510407067 -0.00013297232216956338 0.00010487582619434639 2.0108377369198706e-05 -0.9641590184539817 -0.09918465143484491
4.004714285714286 -0.8710013521630435 -0.1708923553829776 8.608727242304451e-05 -7.393382001470669e-05 0.0002049886212709042 -0.00011426592989472625 -0.9602575153799537 -0.10874409870369932
4.005142857142857 -0.8725260910999328 -0.16428912048484065 0.000274157446339466 -7.614842872056277e-05 3.996144085405755e-05 -3.6320874794880365e-05 -0.968352487443206 -0.09567150097332316
4.005571428571429 -0.8741455346268826 -0.15723928320466055 -1.2428902769286393e-05 -0.00045363662886667205 -0.00010794589666372458 0.0001417199500283743 -0.9591418756348759 -0.0962418589234366
4.006 -0.8764000478596246 -0.1535553691267584 -0.0004164505739453868 -0.00021685014761988603 5.7642357583052884e-05 0.00017599950993199478 -0.9708013456741698 -0.09265314880883549
4.006428571428572 -0.8768413837425104 -0.1484837293578665 -0.0003061834345456763 -0.000469678796052585 -0.00013413307889911013 0.00010756041674339726 -0.9697106455755807 -0.09198215877497706
4.006857142857143 -0.8802239912613491 -0.13709789633754102 0.00020942225740703722 5.427803098651535e-06 -0.00015294957905306666 8.073494661877916e-05 -0.9639160912684239 -0.08692569733499725
4.007285714285715 -0.8827808389490813 -0.1295115660705523 4.952238338314575e-05 -0.0007493802767870411 4.0332641437565734e-05 0.00014810171907253788 -0.9694517690622563 -0.08023052292572735
4.007714285714286 -0.8810843523932465 -0.12496233965820001 3.263380565676954e-05 -0.0003768646218708906 -8.310748354982041e-05 8.88430796117131e-05 -0.9639712203867881 -0.08187955891115507
4.0081428571428575 -0.8814292434630876 -0.12255206255636827 -0.0002596189050693034 -0.0002757222560677153 -2.8273185996623202e-05 2.6319842844804105e-06 -0.9660287959912452 -0.08623990918689321
4.008571428571429 -0.8845146212539257 -0.10890946145333819 0.00015087441126504985 -0.0005103314891791166 0.00021064533380980765 0.00017927136670651248 -0.9637255244790744 -0.07869795373726401
4.009 -0.8854503219559723 -0.10202078727076669 6.228587232636025e-05 -0.00017379751459302626 0.00027624384479393854 9.46129447860474e-05 -0.976076870958219 -0.08432818174950028
4.009428571428572 -0.8842255251194602 -0.09815974172683532 0.00016434716471474045 -0.00022467030684926963 0.00011119437667252048 0.00016577866318664316 -0.9779154517400386 -0.07470778263643464
4.009857142857143 -0.8869285649215229 -0.08631468229382395 0.00016550868960279894 -0.0004857401895086741 0.0001867193786979655 -0.00020129568262318076 -0.967540841208638 -0.06976215234819708
4.010285714285715 -0.8877740510504282 -0.08049583537936948 -0.00018111472385124748 -0.00013450748770828423 -6.069386387159614e-05 2.8471158591548696e-05 -0.9647496205380488 -0.07477464972623306
4.010714285714286 -0.8884036344976847 -0.0760787430149379 0.00014747004248929086 -0.00031914130310183584 7.690205013285413e-05 0.00015945285508779002 -0.9694796782258186 -0.07176664806274183
4.011142857142858 -0.8840873720204163 -0.07050810876335051 -0.00014921313485967693 -3.8336337724312864e-05 -1.9865709924404176e-05 3.13557190395003e-05 -0.9681706589185702 -0.0666879401922716
4.011571428571429 -0.8835058658178025 -0.05652526992255301 8.377845234737086e-06 -7.45795818281455e-06 0.00013970780564922017 -6.786880604567971e-05 -0.9704047146589967 -0.06755822957459483
4.012 -0.8899772362974101 -0.05431029104635068 -0.00033067392992981894 -0.0005049739468954105 2.6584779007586226e-05 2.099868109367296e-05 -0.9761013654434119 -0.06341374119912187
4.012428571428571 -0.8882279382655555 -0.0448672139008492 -0.00024958289399548895 -0.00039842614697179347 9.988343440675707e-05 -0.00017659285063224752 -0.9640547774672904 -0.05613543412390377
4.0128571428571425 -0.8934191819673466 -0.03599224058765691 -0.00015748718440088003 -0.00034943074637160435 -0.00022553983071296594 2.5412133309083234e-05 -0.964444955958594 -0.0632214362881547
4.013285714285714 -0.8838693830369524 -0.03078461085251727 -6.510753626617183e-07 -0.0008932481916406047 -0.0002124541306400948 -0.00010263988327286969 -0.963346241060351 -0.05924541994427966
4.013714285714285 -0.8873023325842607 -0.02070037663373307 -0.0001750851967624095 -0.0003291723191433107 -8.993066554508797e-05 0.00012130159620385286 -0.9771853033096493 -0.04984160371403705
4.014142857142857 -0.8864713908126038 -0.012217556200481294 -0.00025158541446651235 -0.0005130397260708752 -2.4488124674724215e-05 0.00017080868223289558 -0.9712865383966508 -0.047274772192454434
4.014571428571428 -0.8859400035493171 -0.012791464806278541 -0.00013251869927558127 0.00011907343336199434 -1.261617604801016e-05 -0.00022680702663679941 -0.9709286977581526 -0.053359179714329824
4.015 -0.8943184209104105 0.00043709032542459483 -4.3526543425657246e-05 -0.00036801592214392146 4.285143193302007e-05 1.094945787156799e-05 -0.9657624004348148 -0.05029382321450803
4.015428571428571 -0.8912717581438525 0.011385360154626191 -0.00027209363179355063 -0.00034817698649513244 7.049253592219433e-05 -0.0003158012190398151 -0.972882930891042 -0.049298685528288956
4.015857142857143 -0.8902768541027877 0.016610498592357564 7.675058864949351e-05 -0.0004998736336060879 -7.923058563522116e-05 0.00012275572270656105 -0.9681369360288239 -0.04543057430443753
4.016285714285714 -0.889120311432638 0.02384584423471077 4.666218079913559e-05 -0.0003982280257674156 -0.0003810134577388199 0.00038739982490100283 -0.9663996364699695 -0.041699668033903375
4.0167142857142855 -0.8893458961616544 0.030378451321259294 -0.0008841416787545861 -0.0007975673009746156 -0.00023057220331342216 -3.6304792607714945e-05 -0.9659833577040979 -0.04800601632425478
4.017142857142857 -0.8867764941366382 0.039303817631804294 -0.0002745913653086109 -0.0007277967827908817 0.00010839864754550973 -0.00024315396126907212 -0.9608274772490674 -0.03923677532823241
4.017571428571428 -0.8908199894364656 0.04349181395209275 -0.00038296806228086506 -0.00021704712653184357 -1.2919710311821288e-05 -6.318416225293725e-05 -0.9719983325928002 -0.04245853923830496
4.018 -0.8843400808293441 0.04980760620103069 -0.00022550772649644195 -0.00022345727282755868 8.64547156143217e-05 -0.0005943662151690246 -0.9704694423163711 -0.04017065320546083
4.018428571428571 -0.890797572017255 0.05970241156152376 -3.418129216042154e-05 -0.0005506791194013997 0.00015596109218135124 8.655423886897782e-05 -0.9695807865176631 -0.033144899377496234
4.018857142857143 -0.8820022327725611 0.06814125742096729 0.00027586724694819774 -0.0007785146708971553 1.0970295299535964e-07 0.00023436397627729674 -0.962360688084765 -0.028023246408841646
4.019285714285714 -0.8819810870930959 0.07864860807605506 -0.0004328634568414376 -0.0007356873936227033 0.0001963427156877555 -9.215366274586929e-05 -0.9734277258331296 -0.027224107011130802
4.019714285714286 -0.8868999462131961 0.08593159980291387 -0.0001257130295701573 -0.00101384196949036 -5.3111020863052815e-05 -0.00015054803799550976 -0.9651490704134279 -0.0291247471173124
4.020142857142857 -0.8849016189232757 0.08884902242136818 6.241468186928104e-05 0.00016121738025962081 6.049167736903204e-05 9.673647467857699e-05 -0.9675044521059444 -0.025004362016881904
4.0205714285714285 -0.8850500121877972 0.10407132970891962 -0.0002877735642025995 -0.00018200085669488743 0.00019326267972657213 -0.00015912141431504 -0.9678127655186807 -0.02587412713932986
4.021 -0.8812034023697858 0.10386952548391455 1.4107669115973426e-05 -0.0006842462540121692 0.00010543919797127044 0.0003666006674632178 -0.9642500949020651 -0.02012962492771334
4.021428571428571 -0.8806724942702656 0.11377127258725377 0.0003060359529889877 -0.0007246196640627476 0.00031978024577863435 -0.00018959189897588022 -0.9682115147275719 -0.018861717767404584
4.021857142857143 -0.8822449378933285 0.11789035688431596 -8.436050857484714e-05 -0.0004231112312576145 -6.205640545583524e-05 6.536096701296921e-05 -0.9677559198492123 -0.01563453782254777
4.022285714285714 -0.8750414275966706 0.12121359751558845 -0.0004773693638419015 -0.0008521750562245241 -0.00015972298541583799 -3.8790527349397684e-05 -0.9762391369069855 -0.008369195926870522
4.022714285714286 -0.8799759002599251 0.13820056876984 -0.0002615902462610004 -7.550371761159474e-05 -0.0002448481238924871 3.9096029858588116e-05 -0.9653639256043811 -0.015369188735060855
4.023142857142857 -0.8771242133638405 0.14397589635367095 -0.0005419923501834506 -0.00025170905105773424 2.9439274142692583e-05 8.730815420694052e-05 -0.9687731796628734 -0.008306853027173619
4.023571428571429 -0.877779762562953 0.14574968199644764 -0.00010697685731482368 -0.0001719151317278407 -0.0001634780530792069 0.00011546568271565507 -0.9631745902260814 -0.006061629140175506
4.024 -0.870616217754323 0.15714702613393208 3.451920568557191e-05 -4.4067150345378023e-05 6.407652395734797e-05 -0.00015295340452752638 -0.9704769149254061 -0.005982061803453132
4.0244285714285715 -0.8719970982869879 0.15991038072992697 -0.0002862316094876271 -0.00036885673562542053 0.0003763600686248312 0.0002595018794228051 -0.9706116960990497 -0.003338599305747773
4.024857142857143 -0.8751705167626866 0.17179682097150648 -0.0003744665324433567 -3.1684286631061137e-06 -0.0001752485857564123 0.00012215034336198564 -0.966960721837023 -0.0009764687607008665
4.025285714285714 -0.8726176004805631 0.17979286959144847 -0.00030503147692670233 0.00010191769778423726 0.00028137755092649255 0.00016854361380274916 -0.9663956071371962 0.004778249940372269
4.025714285714286 -0.870255065248878 0.18730850894046006 -0.0005646696287731065 -1.3393232992882675e-05 0.00011962350322534478 -2.9632395306297774e-06 -0.9753453792654392 0.00853207257674146
4.026142857142857 -0.8724353886734747 0.1916314707047758 -0.0002827287854596339 1.3153959765139924e-05 0.00020665862878926195 5.258911937256981e-05 -0.9697504635786696 0.005615009303468686
4.026571428571429 -0.8590259185217339 0.20117725255719413 -2.0664266611492948e-05 -9.369064479239941e-05 0.0003099694063585942 0.0001487251059790335 -0.9737129836896316 0.01028958072261493
4.027 -0.8635159883037533 0.20745496216076503 -0.00011864407795548346 -0.00026195313509564874 -7.788875689334364e-05 0.0003208931729702796 -0.9682809196936724 0.00540791459969411
4.027428571428572 -0.8679677318262452 0.20917824272221128 -0.00021960475865977504 5.866409994951867e-06 0.0001510068551136487 -0.0001450571063528779 -0.9652678532694093 0.016558835474109447
4.027857142857143 -0.8598039600445778 0.21785819033612547 -0.0005847581023829284 0.00011320460592762307 -0.00017829357990181442 5.973449253398768e-05 -0.9762502260927686 0.012120662833341357
4.0282857142857145 -0.8601657726597925 0.23176637700379374 -0.000318783292425041 -0.00014448822220252858 2.7330824528811886e-05 0.00011735627118512222 -0.9711520945968923 0.022605792682480426
4.028714285714286 -0.8649658214403922 0.22856746309851614 -0.00016462473526670807 -9.799901070333799e-05 -1.975626292654915e-05 -0.0002019411904195475 -0.9682948281798021 0.013513848226369305
4.029142857142857 -0.8579793723136677 0.24387694946959074 -0.00020765941612752386 -0.0005736684785805859 -7.79701546456458e-05 0.0002577766165551244 -0.9676009694355275 0.024798113149929666
4.029571428571429 -0.8561821166092232 0.24719441578892137 -0.0001023555708212784 -0.0003120021636550983 0.00013040690940647668 0.0002379085038405089 -0.9642999220331602 0.020104468944231707
4.03 -0.8506066972986515 0.2535923541500825 -0.00024156115511117258 -0.0005391847821088205 -1.8124186741219047e-05 -5.67665378387278e-05 -0.9716252506430711 0.03357648903692994
4.030428571428572 -0.8515184209381733 0.2632382065615384 -0.000614318371561287 -0.0003919384741226689 -0.0001873923922950712 -5.680706004095063e-05 -0.970174109646938 0.02742448271922478
4.030857142857143 -0.8512812603429194 0.2676863137305183 -0.00026662324101112345 -0.0003587539588034719 -0.00018337262051639215 -0.0001726950868148088 -0.971315495602124 0.022361943282642422
4.031285714285715 -0.843685518222493 0.27784370594468705 -0.0004106618484979405 -0.00027986709206960313 7.171732511040789e-05 -0.00018649720291542775 -0.9679273078416006 0.035302473768492715
4.031714285714286 -0.8412129751698779 0.279070050123682 -0.0003082341123271718 -0.0002580776583299001 -0.00014324875756292242 -0.00029688634264940625 -0.9645837492684973 0.024041894457264398
4.0321428571428575 -0.8364518778196757 0.2898674029927034 -0.00011900411094278945 -3.830020962323944e-05 0.00011488483641831234 -4.0262976410352934e-06 -0.9719680768148893 0.03375280311713387
4.032571428571429 -0.8389927997382358 0.29718931671579507 -0.0004183970207780996 -0.0005147251869747549 0.00010519867677115296 0.00013411764538566326 -0.9665008336392711 0.045914649796542625
4.033 -0.8393790862668492 0.30153474227851595 -0.0003243413255844424 -0.0004175348723200106 -0.00015508029990966892 -0.00015239471642339262 -0.9657732023213784 0.04603955268390093
4.033428571428572 -0.8414994322019459 0.31124491378392904 -0.0002475079032489369 2.2920467769519893e-05 0.00017243479214035755 -0.0001513315632910982 -0.9638023348531874 0.03813429651678603
4.033857142857143 -0.8345624252843966 0.3180382530984755 -0.0006386066618224112 -0.00036426768705614227 -0.00010689635500656443 -9.011234989637021e-05 -0.9637747240950674 0.044019169064337955
4.034285714285715 -0.8250558671696326 0.3231940963199288 -0.00012874063787315256 0.0004601109704989046 -0.0002575159982662723 4.421022201695887e-05 -0.9644883355523144 0.04277578764090891
4.034714285714286 -0.8190850607777512 0.3361911355503399 -8.000436003056606e-05 0.00042439557451815266 -0.00025409818057702915 -0.00010973530602010045 -0.9680812904507542 0.052398384810998906
4.035142857142857 -0.8221591951899795 0.3382384636569799 -0.00010081097261230288 0.0001389721362734297 -0.0002809585376527351 9.30361939328368e-05 -0.9687295904238613 0.05279397206184152
4.035571428571428 -0.8147495296485433 0.3449802882392351 -0.0002978542756020374 -0.0003137869696797951 0.00019790511644403447 -0.00011714012849971377 -0.9677381835567296 0.05464981029805223
4.036 -0.8125113798781474 0.35509192142028634 -0.0004922772225980208 0.00018030699628458562 -0.0004030859287584701 -0.00027950388390389936 -0.9690228684646127 0.05741830150039599
4.036428571428571 -0.8203657393004681 0.35426353818745754 -0.0003770079855612462 -0.00033554507547083924 0.0004918909378114415 -0.0004046040358188698 -0.9671632179462882 0.05008597219655636
4.0368571428571425 -0.8128784510280601 0.3653991846153939 -0.00025063815863063377 0.00017338019396046013 -0.00019432035132530275 -2.7689660588073902e-05 -0.9704983458967551 0.05400417718957322
4.037285714285714 -0.8053259737758744 0.37374021238822275 -0.0002612173241631052 0.0001171912415926356 -0.00015863962683303692 -0.00019145474768111272 -0.9635877960849991 0.06000446579390832
4.037714285714285 -0.8038996394546004 0.3733649264443566 -0.0002807649396095882 4.657083078724973e-05 0.00010612011754903952 -0.00012169869205350345 -0.9701919286210512 0.056194319787575615
4.038142857142857 -0.7989110542062902 0.39383808840042184 -0.00010894878846693512 -0.0003202643480882708 -0.00017323652116184472 -0.0002719030452387407 -0.9639437652053958 0.06104340614331146
4.038571428571428 -0.8015959048256689 0.39379281280763073 -0.00035268559278766345 8.984144789901662e-05 -2.1742640534097398e-05 -5.692080146917367e-05 -0.9619599092392471 0.06423680338605381
4.039 -0.7957153413936969 0.3956976006082225 -0.0005527507872085705 2.0780650268290336e-05 5.1980841253246745e-05 0.0001337113071346601 -0.9583415982164212 0.06370907364004391
4.039428571428571 -0.7873202142155189 0.41446595562006133 -0.0003468505224944699 5.3580115806354834e-05 -8.68761980389689e-05 -0.0003345850719348549 -0.9623597285354594 0.06946350031543186
4.039857142857143 -0.7910851676512833 0.4118348328528516 -0.0003253695326687708 -0.00036470621228045825 -4.41121155718493e-05 -0.00016949586887198863 -0.9695558865114777 0.06972904353178737
4.040285714285714 -0.7872682815071472 0.4120164262714143 -0.0007230367080369619 4.734768181950283e-05 2.9196229116667285e-05 5.824381909771356e-05 -0.9636555572791442 0.07563615365832102
4.0407142857142855 -0.7868692374385654 0.4251769729812462 -0.0004600750300529203 -8.046177887460172e-05 -9.77700746834479e-05 -0.0003122137453594176 -0.9587561007864849 0.07741927633444898
4.041142857142857 -0.7730841391003611 0.4303810387911911 -0.0005395767889045454 -0.0002015549980196802 -0.0002188287734687614 -1.689212554959388e-05 -0.9683095731216436 0.08707745762742432
4.041571428571428 -0.7734284549011642 0.43680524759797673 -0.0003169285054896423 0.00015217438070640754 -3.4325944394852895e-05 0.000145466243718032 -0.9652951981835094 0.08229871494284408
4.042 -0.7689407685614219 0.44707260738886534 -0.00047582573872703037 0.0003620780216718644 -2.2763679409794844e-05 -0.00010543658359384186 -0.9621627360177188 0.09056343292877922
4.042428571428571 -0.7624905593861633 0.45010819065574653 -0.00043906407829005925 0.0003759330222245996 7.043062966038896e-05 -1.2620187501694519e-05 -0.9597448235907108 0.09335728694534433
4.042857142857143 -0.7645337686859616 0.4473469388631923 -0.00030482079725615305 0.000302815146413041 -5.110139920327818e-05 0.00020554800838759336 -0.9635421856248901 0.08751739992600473
4.043285714285714 -0.7579941915514633 0.4657191968012652 -0.00027543815514805876 0.00014888783946601265 0.0003891802418510883 -3.20120528419185e-05 -0.965489573030137 0.08654202766671336
4.043714285714286 -0.7500304409026518 0.46683106373658917 -0.0003295416993167572 -0.00022532202487801325 -0.00014242594185518722 -0.0001120525137223048 -0.9657280926895836 0.08474761214851052
4.044142857142857 -0.7510834738053407 0.477438319581243 -0.00033835291755319986 -9.862791690562927e-05 0.00013311558617235556 5.091397347498e-05 -0.9621632811092425 0.09691329716576849
