!Created with skrf (http://scikit-rf.org).
# Hz S RI R 50.0 
!freq ReS11 ImS11 ReS21 ImS21 ReS12 ImS12 ReS22 ImS22
4.0 -0.8274290493027874 -0.2511486978422466 -0.000680994178905277 -0.0007241411770121134 -0.00014342554983869495 -0.0002294135955955406 -0.961586412742433 -0.12989330329688406
4.0004285714285714 -0.8353835681282202 -0.24640474179951513 -0.00030558830500379666 -0.0005648962789541937 -6.207160406330677e-06 -8.467838493116784e-05 -0.9717632666851037 -0.12241280901040258
4.000857142857143 -0.8398945637748768 -0.236928237638545 -7.138781295404722e-05 -0.00045282035891864886 -8.392413133576498e-05 6.704289258089557e-05 -0.965283113354716 -0.11571485470550007
4.001285714285714 -0.8346121695400425 -0.2314482620289718 -0.0001192927080908432 -0.000753081794099403 1.1369806488579303e-05 -5.669416025593073e-05 -0.9640213555819106 -0.11689210048417478
4.001714285714286 -0.8398151489956763 -0.22394370708567338 -0.0006372456603579428 -7.14753401171314e-05 -0.00013929492059469763 -2.5816492746529446e-05 -0.9666425730928075 -0.12007015042370024
4.002142857142857 -0.8396358943098314 -0.2229107582550636 -0.0005188461491821875 -0.001124104400208659 -0.00022096393784525013 2.5622563967644072e-05 -0.9646675188878172 -0.11155948077289371
4.002571428571429 -0.8434392252757622 -0.21222532784007841 -0.0003761157468090598 -0.0005832578270767527 0.00012290774649918607 -0.0001337942687972283 -0.9708084555469898 -0.10650487172765144
4.003 -0.8456875718441745 -0.20046113933083715 -0.00024192036275436343 -0.0009831259774008628 0.000413253043029705 -1.7632606057394472e-05 -0.9689188834663031 -0.10440178729579677
4.003428571428572 -0.8488737471138877 -0.19748516740425837 -0.00011384078632623872 -0.000477592188767923 3.575491092082139e-05 0.00022574920976621346 -0.9617765328648736 -0.09833968525085499
4.003857142857143 -0.8454875196576408 -0.1902323665588784 -0.00036987602550611013 -0.0006821182257111954 -0.00014429651340227225 -0.00026907648887066767 -0.9696519714329476 -0.11000776990226913
4.0042857142857144 -0.8565625616617725 -0.18384225508558139 -0.00039683424863092514 -0.00048117126167246393 -2.340930898504525e-05 0.00013722587525619005 -0.9656868043058605 -0.09910787529532117
4.004714285714286 -0.8516631940746024 -0.17429011656740978 -0.00038482183835799943 -0.000380356739071391 0.00012065035785012932 7.48436515232965e-05 -0.9582353656268006 -0.10689962424724285
4.005142857142857 -0.8529476140876499 -0.16537784459175556 -0.0004112625684781441 -0.0005766407268215529 8.913788653156688e-05 -0.00016432675251790244 -0.9664238000606487 -0.09619662269422327
4.005571428571429 -0.8529222004557728 -0.16036935317604784 -0.0006315958062502896 -0.0004723061647476147 3.910036159309218e-06 0.00019068653810480553 -0.9596991212705235 -0.09491723669453345
4.006 -0.8567308504039128 -0.15676156157033838 -0.00015788942389340796 -0.0005146708270006867 0.00016153410739804972 -0.0001727980325951947 -0.9716048356160614 -0.09421250202849171
4.006428571428572 -0.8567797580713119 -0.15162301688624338 -0.0006997079434002329 -0.0006386605307281478 6.701232210545398e-05 0.00011234708798440805 -0.969213237271424 -0.09345940900511213
4.006857142857143 -0.8619176736256386 -0.14081796996581988 -0.00019164530989330863 -0.00041649601801726696 -9.469515571451721e-05 -0.00023043540356505954 -0.9646307459430351 -0.08713742525930208
4.007285714285715 -0.8638894542829662 -0.13231792021986447 -0.0006341117136064576 -0.000611423900703191 -0.00010191412163889629 6.073907959823233e-05 -0.9695253014446547 -0.07898990348738245
4.007714285714286 -0.8608254884515656 -0.12814790378039773 -0.00017084707694381624 -0.0003857657484431881 1.919157751501294e-05 -9.863571084035737e-05 -0.9615676385884682 -0.08173303901476141
4.0081428571428575 -0.8623639240155325 -0.12603123340334585 -0.000418200031797767 -0.00039319543929724636 -0.0002794350037208811 -2.059622202864963e-05 -0.9676460102253713 -0.08851691562837058
4.008571428571429 -0.8641283566382693 -0.11227152272742262 -0.0003578536248855425 -0.0003651053335660972 7.549795043148781e-05 3.48110334386508e-05 -0.9649841657807454 -0.07603695863122784
4.009 -0.8674596638797383 -0.10725522566505787 -0.000188547822926588 -0.00048009435316081827 9.937773210810043e-05 -0.000162923022423114 -0.9751264706692253 -0.08560969549506996
4.009428571428572 -0.863027083687711 -0.10232560991786552 -0.000591659885174754 -0.0002659308270422441 -9.62369108161696e-06 6.193529961894327e-05 -0.9754804906731982 -0.07541857749463003
4.009857142857143 -0.8654389504175016 -0.0932301335420004 -0.0005425059058617356 -0.0005342184215847095 -8.207048535380113e-06 -1.8145084756439477e-05 -0.9655853174829078 -0.06941976541437843
4.010285714285715 -0.8675544894759104 -0.08588598428889484 -0.0002593064594201344 -0.00047343392871988446 4.826339231250486e-05 7.356534711802751e-05 -0.9657622862711731 -0.07229720697309214
4.010714285714286 -0.8688822952000879 -0.07887073466529862 -0.000664352194702703 -0.0007049224935836074 0.00026732685868019387 5.950120786570155e-05 -0.9692626066053069 -0.07194202878582813
4.011142857142858 -0.864211473444891 -0.07536335211015413 -0.00019386687902181335 -0.0005732137885094889 -0.00019503843981114703 0.00012130179113954782 -0.9692736664267559 -0.06524920835085839
4.011571428571429 -0.8664872688671453 -0.06134361137994582 -0.0005029234489108693 -0.0004320911311408482 1.9125276812260424e-06 6.578789471209201e-05 -0.9717175563112608 -0.06620030418251507
4.012 -0.8718814438341778 -0.059512600940784546 -0.00029666979905893046 -0.0003549663360808548 -0.0001608700095623179 0.00021143659774184716 -0.9747542813440474 -0.0634542819630414
4.012428571428571 -0.8675130826716275 -0.04869931820317884 -3.088464638512594e-05 -0.0004242521709214257 3.2233773549883214e-05 -3.513077881448135e-05 -0.9622054717038463 -0.055585362769096335
4.0128571428571425 -0.8752941711199456 -0.03910744959772739 -0.00044904949166305703 -0.0005708344542267773 0.0002704330749753876 0.00027808591217036026 -0.9645396949503471 -0.06296320785184972
4.013285714285714 -0.8643742610552011 -0.03508683667177256 -0.0007303955085042681 -0.0002526895675316708 -0.00013788163881981466 0.0002014221123976758 -0.9632260902205846 -0.06014445517115737
4.013714285714285 -0.868900962338204 -0.026377492162572066 -0.0006663704585513331 -0.00033289123895420905 0.00031865680713877314 3.552445740510787e-06 -0.9765247615935497 -0.05186616439480223
4.014142857142857 -0.8690346645315112 -0.018792685733078743 -0.0009259230143721646 -8.980607209492616e-06 -2.6373164757362724e-05 -0.0002766432714048691 -0.9708951491088235 -0.046552374568342034
4.014571428571428 -0.867164998708398 -0.016433772891712835 -0.0008115148276337916 -0.0005048798398050429 -5.044105331854447e-05 5.9021315402214e-05 -0.9695303951452363 -0.05245136472120151
4.015 -0.8761895741161356 -0.005101587173136337 -0.0005917991241077253 -0.0006065252423402216 -8.727222263922788e-05 0.00013727742541025639 -0.9657719833816545 -0.049728573748915234
4.015428571428571 -0.8716240151590601 0.006501734520493322 -0.0004350263253248507 -0.0002851148653040063 0.00010009055395946933 8.352250300203638e-05 -0.9718217054019821 -0.04772267394827146
4.015857142857143 -0.8702161518526985 0.012764630038603468 -0.0006750775364257777 -0.0008413665194655735 -5.394082925516195e-05 7.322172564129373e-05 -0.9711722863353671 -0.04633717958410971
4.016285714285714 -0.8698526644888647 0.016925025160995203 -0.0008588766900600579 -0.0008510014806036602 -0.00030790884758378643 -0.0001266737610220162 -0.9655535067595991 -0.04180442073684327
4.0167142857142855 -0.8700791311040158 0.023930880091105056 -0.0012363193505555278 -0.0003233398646517815 0.0001355138491879764 -0.00022095699936247324 -0.9644151771952897 -0.048208122342165545
4.017142857142857 -0.8665749230060864 0.031454933301184346 -0.0005990117284298501 -0.0003721207672675431 8.396578107816885e-05 -4.408784507751147e-05 -0.9626879630599546 -0.039544318886523995
4.017571428571428 -0.8723422575946816 0.03609892287266519 -0.0005845471354517062 -0.00041467942443826545 0.00020684264009024328 0.0001587892506650207 -0.9733521319585352 -0.040257697729407384
4.018 -0.8674734696027453 0.043034702595181586 -0.0008955079106823395 -0.00018118149308960825 0.00015122071712784794 -0.0001305548031863152 -0.9696737424246107 -0.041280769970160607
4.018428571428571 -0.8720789040079189 0.05108583604505755 -0.0007771877927915044 -0.00036619683339989727 -3.700307157274363e-05 0.00015418088964991465 -0.9714928249147382 -0.034061790142528366
4.018857142857143 -0.8648702620995042 0.061099471234388004 -0.0007273114091351625 -6.843135476591673e-05 -5.375296506604666e-05 -7.209521677740381e-05 -0.9623528642989029 -0.026598288203499867
4.019285714285714 -0.864775466425579 0.07096886475773523 -0.0005224500075685252 -0.0004647798906502307 -0.00010913847494208663 2.0622558407883937e-06 -0.9737244458550177 -0.029286604267366373
4.019714285714286 -0.8691913900207283 0.07844611553382498 -0.0010878460596013032 -0.0003749983896386166 0.00018309772228194637 -0.00014816103544694676 -0.9642052436922911 -0.02876020660190698
4.020142857142857 -0.8682331308181107 0.0797505177795279 -0.0006019606532827664 -0.0004496720387271098 -0.0002935705976065998 -0.00024962734432872573 -0.9689298926231644 -0.02431106128254944
4.0205714285714285 -0.8672489708736638 0.09660006988244112 -0.0007030340460446681 -0.0001873438903939091 0.00010457224898649696 -1.5846932365124675e-05 -0.9671973310234034 -0.026847536020544148
4.021 -0.8607611868222145 0.09455533929332544 -0.0010161632289324533 -0.0002796349934332491 0.00021816128485074371 -5.3925562076708036e-05 -0.9646730193458491 -0.01920807592575481
4.021428571428571 -0.8618961126330199 0.10674234081206688 -0.0006488151450206411 -0.0001944617678534091 -2.044785518754574e-05 -9.900533266775145e-05 -0.9702579529570854 -0.019856890405853797
4.021857142857143 -0.8636019191489882 0.11128801297473052 -0.00040113178318755836 0.00019817626907789643 0.00016868377799351383 -0.00030854804915662697 -0.9677596563249262 -0.015150186950589003
4.022285714285714 -0.8570578474847497 0.11427918270217231 -0.0005479571246813104 -0.00020525885709518616 1.3431639837247859e-05 -0.00015182476709088368 -0.9755053451546233 -0.009903979104825454
4.022714285714286 -0.8615474422954562 0.13176148689744663 -0.0008701662426271577 -0.00012679527537172184 -2.5023985693756676e-05 -0.0001269211432825071 -0.9652732508641361 -0.014410310554940926
4.023142857142857 -0.8588286413831772 0.13419912793889927 -0.0007542914174535325 -0.0003464666483982588 -0.00021021465631013362 -5.837212193537271e-05 -0.9688763649477423 -0.00865274242459914
4.023571428571429 -0.8588620793190427 0.13551151652399956 -0.0007283792458557453 -3.079950134189475e-05 0.00016790079139084808 -8.656177319175865e-05 -0.9620940096806706 -0.0048133873619034505
4.024 -0.8537499277497999 0.148348955045013 -0.0008504720166326098 -0.00014268624581041352 -0.0001634579959078617 -0.0002535767172610914 -0.9702422509877756 -0.006738182285868598
4.0244285714285715 -0.8568267551564824 0.15310048046058766 -8.317657390721497e-05 -0.0002259603851240577 -0.0002459112231214713 -7.637466619367776e-05 -0.9707127009212284 -0.003578925096884548
4.024857142857143 -0.8571347864196419 0.16379754635328414 -0.0005563338642057642 -0.0001343363948457631 6.702986050333251e-05 -6.657607605130938e-05 -0.9678822501907473 0.00020061021222003692
4.025285714285714 -0.856277947869634 0.1706663964973744 -0.0006981926448418303 -0.00027482564738728974 7.838471452785876e-05 -0.0003156013523698789 -0.9663167987133835 0.004155350635541609
4.025714285714286 -0.8524032347489472 0.17941811818986378 -0.0008238558358775551 0.000312261368309655 -4.7008814576772626e-05 -8.925117389952587e-05 -0.9761673869666153 0.010531190604085512
4.026142857142857 -0.8557922071443982 0.18199022860337896 -0.0008582567202554067 7.3959265306590925e-06 0.0002479355524390296 -1.1354727101466845e-05 -0.9696517979746079 0.003566296700556415
4.026571428571429 -0.84147763454823 0.19230879851905258 -0.00033818408198867214 0.0001224217422839317 9.519149679301844e-05 -0.0001553413690705451 -0.9750995496570152 0.010085917712294919
4.027 -0.8442468164538209 0.19634668793646026 -0.0008333317259787699 -2.2005799240842376e-06 -6.742315489664502e-05 0.0003364348047056319 -0.9720101136761229 0.005668623663712707
4.027428571428572 -0.849712259420518 0.2006338869164315 -0.0007234542756395573 0.00015610580690547093 0.00017985753465521735 -0.00036018016967715675 -0.9667152996930868 0.01433784927036288
4.027857142857143 -0.8448436462874789 0.20681329421575767 -0.000559432684827069 0.00028023578159866046 -5.356258057449285e-05 6.862171915639819e-05 -0.9749672892430326 0.011933225272075543
4.0282857142857145 -0.8432205629829955 0.2226324187753223 -0.0005834005227401318 0.00035163351781431385 -0.00010311691750109243 0.00012454248077869434 -0.9694445556500879 0.020758428473358684
4.028714285714286 -0.8462727199881288 0.21954001958881186 -0.0005978038485567842 8.539217893156107e-05 -5.350470513073283e-05 8.727966293674428e-05 -0.9697557888258281 0.01347550836279685
4.029142857142857 -0.8413625566453369 0.23301484723797705 -0.0011702813013532442 -3.94152110933435e-05 -8.307456636656325e-05 -9.459811024703933e-06 -0.9669886564683448 0.022763759830057566
4.029571428571429 -0.8398838446195744 0.2365847252362904 -0.0009313985885556559 4.6305658039735784e-05 8.440053756917336e-05 0.00017040662341350185 -0.9634387351760008 0.022093533443612354
4.03 -0.83362947524748 0.2436637133829983 -0.0007267224461470826 0.00012949779448881278 -8.463330109093208e-05 -0.0001051024406102959 -0.9723128327787218 0.030911597730239524
4.030428571428572 -0.8327594124612947 0.2541841509211896 -0.0007656319898227726 -0.00016298079721754425 0.00022361871574856122 -1.6547457797145505e-05 -0.9677649332600666 0.027918196538560806
4.030857142857143 -0.835373660562263 0.25810334706498733 -0.000631681818814029 0.00014470461800756307 -9.887872109406518e-07 -5.8278727944105825e-05 -0.9727958242877374 0.022358715015508453
4.031285714285715 -0.8268294201508912 0.2662626331953335 -0.000735353015613904 0.0006142799037274796 8.94045568931587e-05 -0.0001783737648534789 -0.9681668459832106 0.03499030035581962
4.031714285714286 -0.8242845059920092 0.2672144830311183 -0.000987362422503315 0.0001829642514314502 7.12120558450014e-05 6.91702837907471e-05 -0.9634032148511249 0.02657391372263699
4.0321428571428575 -0.8210549855906356 0.27708778842740506 -0.0006219194495169233 0.00027813422992784654 9.34711842339384e-05 -5.54825188416931e-05 -0.9718880177279713 0.037029108435285576
4.032571428571429 -0.8213200780163712 0.28556574979549143 -0.0004449350944618516 0.0004026711783085852 -0.00010045561725330893 -0.00014361799450550482 -0.9646820271863756 0.044840000609780675
4.033 -0.8209369494025884 0.2922184144392562 -0.0006483051265085651 0.00014287420187833547 0.0003577819194032775 -0.00011880347904494214 -0.96646333174138 0.0465127017338053
4.033428571428572 -0.8244290448752566 0.30114585961130524 -0.0006398078385987672 4.421671914030604e-05 4.973534786578503e-05 -3.1612457745276594e-05 -0.9630898053345741 0.03850361240353637
4.033857142857143 -0.8169665470870799 0.3071953804812657 -0.0007837430582003235 -1.744690578891583e-05 -4.503581737945609e-05 8.401629187617498e-05 -0.9619783844340116 0.04374530080388145
4.034285714285715 -0.8098644780508758 0.3115161072840922 -0.00043937568668873505 0.0001616194461763016 4.513792485538156e-05 2.4492389668398165e-06 -0.9671038687400019 0.042120435520380646
4.034714285714286 -0.8044219839142013 0.32367927573509 -0.0005015034118542272 0.0002825663458174991 -9.82340777783108e-06 -0.00038151208959835356 -0.9699587605223935 0.05115653130399728
4.035142857142857 -0.8049999970436604 0.3287016104431171 -0.0009730467802012701 0.0004782506930515421 -0.00024874545473663347 -0.00014011752016407947 -0.969939879187241 0.050981944414258525
4.035571428571428 -0.8003636524712215 0.33450361042147114 -0.0005400286667651792 0.0003978492778931867 -0.0001675745497879492 0.00020913130181230598 -0.9665695164177126 0.057028574095232286
4.036 -0.7978720204990266 0.3441754550596101 -0.0006676395603388586 0.0002895468223305425 -6.675016421213472e-05 -1.6668131262554005e-05 -0.9700415888963717 0.0570249524037838
4.036428571428571 -0.804220777777274 0.34181476482725615 -0.0006957791389219186 0.0002304064218961009 0.00010417753835770771 8.251862050800446e-05 -0.968540742732082 0.05313344960403995
4.0368571428571425 -0.7972224963924708 0.3536756026311731 -0.0004964846875866326 0.00040333050298221266 5.330300405189455e-05 -4.1954728752561746e-05 -0.9697949910191287 0.05233968413878801
4.037285714285714 -0.7891936087604957 0.36315656447233857 -0.000364468854626628 0.0003975542830599474 -0.00018857672795835593 -0.00027270719986734936 -0.9625538512603692 0.05849972901390678
4.037714285714285 -0.7885582427953854 0.36295512635962357 -0.0005998365060075592 0.0005683304914329763 0.00014872225089816612 -0.00012990895697684714 -0.9689753142242445 0.05663063573944682
4.038142857142857 -0.7826783362512056 0.38170586856132155 -0.00039714398553786066 -0.0002363646779905669 0.00011109437478683245 9.015356827328413e-05 -0.9633254981849806 0.062126344722520065
4.038571428571428 -0.7842001046678938 0.3803548481319959 -0.0006109992193548014 0.0009483587910824737 -2.1919987482253592e-05 0.0002424749595381253 -0.9603270439542482 0.06646535801690985
4.039 -0.7802480438710947 0.383601946805403 -0.0001800555147608887 0.0005161213654171064 -0.00013526653072468077 7.839210542839349e-05 -0.9586379340199345 0.06545989522659165
4.039428571428571 -0.7728041200061252 0.40156405107987875 -0.0007829468572763681 0.00029042421335326145 3.283642761234846e-05 0.00011161615530129023 -0.9649931301165072 0.0695003628121016
4.039857142857143 -0.7764100830034324 0.3982454519060572 -0.0004759206980706296 0.0003176250455341528 -0.00011582051887228745 -0.00026466610632398194 -0.9708676765422029 0.06981936299278217
4.040285714285714 -0.7714325675428338 0.40075620388389904 -0.0004944106155095062 0.00015535178069291878 -0.00011833212473223342 6.688157337194684e-05 -0.9633363494917406 0.07444310664684022
4.0407142857142855 -0.7700573087800993 0.41397161062958465 -0.0005729853324901817 0.0007245147213276045 -0.00014476953616617092 -0.00015777370311495295 -0.9582499439114824 0.07604486059027257
4.041142857142857 -0.7584022501049638 0.41565040151003163 -0.0006893882772886371 0.0008223175229756217 -0.00013435917745573952 -8.288095107783699e-05 -0.9705804281825372 0.08378199952073652
4.041571428571428 -0.7564967964407693 0.42348228194598686 -0.000323148550038525 0.0003939280669407074 0.00015029045226976995 -6.58511713875024e-05 -0.9644523386873415 0.0846979112128773
4.042 -0.7540167657685033 0.4349446183793286 -0.0005835657502856106 0.00039596280787921906 -9.967568478714009e-05 3.301831096704429e-06 -0.9636021987768826 0.09139844222687378
4.042428571428571 -0.7471908042191473 0.43749750991885267 -1.3273953649503505e-06 0.0004628185051627644 0.00012185902166631204 0.00025117576831771215 -0.9586262648325652 0.09186875107964217
4.042857142857143 -0.7487630497415853 0.4329737882785847 -0.0006692508825474422 0.00056184674182404 -0.00026581500388256807 -2.2171306465689914e-05 -0.964962076858191 0.08736423658880639
4.043285714285714 -0.7428719061745841 0.4510534337456951 -0.0005888493825459413 0.00021595191177547213 2.295827529729099e-05 -2.911165600542847e-05 -0.9651828777845867 0.0866013958939881
4.043714285714286 -0.735822096477934 0.4530280273729031 -0.00025649685292181525 0.0005184376514953388 6.174143979459553e-05 7.272589042820566e-05 -0.9656133399209708 0.08555212916747756
4.044142857142857 -0.7377019664675513 0.4613889658598445 -0.0006919302876442903 0.001057115431112282 2.197365459104301e-05 -0.00034183710852697126 -0.9614825175450881 0.09676913814053006
