!Created with skrf (http://scikit-rf.org).
# Hz S RI R 50.0 
!freq ReS11 ImS11 ReS21 ImS21 ReS12 ImS12 ReS22 ImS22
4.0 -0.8415549697661158 -0.25016042563776364 0.00011583011908323639 -0.0005783882601737334 -0.00013516600584660297 -8.609817404548598e-05 -0.9642604075146747 -0.13014106858589647
4.0004285714285714 -0.8483175687388556 -0.24292387452979766 0.00014873175079940272 -0.00022962274852394513 -5.426315955407279e-06 0.00030532910357721724 -0.9700614186689845 -0.12161035816053177
4.000857142857143 -0.8510131442038131 -0.23474032071925457 0.00020524416391416709 -0.000330632169433122 0.00011035802017882941 0.00010817663265055502 -0.9671290900241926 -0.11737536645845138
4.001285714285714 -0.8450809747895961 -0.2283118813338284 0.00039028190582346536 -0.00022588009632410069 6.551624029931372e-05 -4.8258911649025304e-05 -0.9633278776240405 -0.11668134570659204
4.001714285714286 -0.8539265796515404 -0.2222645894616194 -5.447168933300286e-05 -0.0007843539159245096 0.0001198958923334666 0.00027414940423007157 -0.9658431191689536 -0.12064886852196348
4.002142857142857 -0.85146749285052 -0.21847835315984143 -2.2959819742238687e-05 -0.00045569448799441466 0.00018968342597322607 -0.0001045240501549832 -0.9631035032790771 -0.11030074018325228
4.002571428571429 -0.8552595728561584 -0.21013857192804294 4.8663250859534634e-05 -0.0007116496722874796 0.00020486103278714843 -0.00019995997879675145 -0.9696409967483606 -0.1041870590000447
4.003 -0.8596386730171903 -0.19902192222375217 7.76905504708053e-06 -0.0004325179285943787 -0.00015880114815597618 8.882011972424462e-05 -0.968949882342638 -0.10369571428994036
4.003428571428572 -0.8608370632243325 -0.1951346892880857 -0.0003228110907541735 -0.0007599965672350032 3.984394981574903e-05 -0.0001245869259102998 -0.9606818456712245 -0.09644612416917922
4.003857142857143 -0.857556098349884 -0.18710518344522764 -0.00018593989187010862 -0.00023309173142779625 -1.6107134053422707e-05 0.00015790598171342584 -0.971095836643533 -0.10859781343446205
4.0042857142857144 -0.8686538399799612 -0.18019873571845654 1.070609693191971e-06 -0.0006797070386119381 -4.926201336817599e-05 1.527780963153529e-05 -0.9651036258904665 -0.0975196734672121
4.004714285714286 -0.8621061384223929 -0.17086068461050094 -0.0001073286689770815 -0.0005859222823955956 -3.758366650800807e-05 -2.935413257426073e-05 -0.9598113058872939 -0.10684413296829663
4.005142857142857 -0.8652091324135721 -0.16071198754170657 -0.0002498173398369508 -0.0007998910698832101 1.0461451414298503e-05 -4.985336696491417e-05 -0.9684762729135914 -0.09574910250643692
4.005571428571429 -0.8672450303644448 -0.15611427277663142 -0.00013177081660939606 -0.00040776659369133264 6.0724961615123145e-05 4.3215477805236734e-05 -0.9604163002036789 -0.09328054032100026
4.006 -0.8689155472320336 -0.15387654987965818 5.6208197030350193e-05 -0.0008594903596284093 0.0002980406418111397 -0.0001673001838744424 -0.9719298608356799 -0.0920080721138641
4.006428571428572 -0.8683613603795644 -0.14761904759084923 0.00013798892034658705 -0.0007554376593608052 -0.0001783347958917755 -0.00010532198715783055 -0.9685781347923346 -0.09032104522001477
4.006857142857143 -0.8739572201905796 -0.13630674550177396 2.6150243206020836e-05 -0.0004744513590702542 0.00016021333196485036 -0.00013189153177981376 -0.9648775016706045 -0.08574727653628962
4.007285714285715 -0.8759128216723961 -0.12818601064881416 -0.0002712292293742236 -0.0006442391297362757 -0.00024517054010765225 -2.7038752167551057e-06 -0.9685369606264507 -0.0795431385691868
4.007714285714286 -0.873129111526503 -0.1239447174026188 -1.4559257789513984e-05 -0.0006683570935304215 -2.6179145266104865e-05 0.00017793743513280506 -0.9632151123924823 -0.08050882395116313
4.0081428571428575 -0.8739671076994344 -0.12130663339576099 0.0001224905425047313 -0.0006431109942944951 3.7929749178950114e-05 -9.852731268342048e-05 -0.9688334581221625 -0.0854949542734787
4.008571428571429 -0.8768687253857369 -0.10795319264513686 1.5787142068965905e-05 -0.0001176581692180977 -0.00024274216764621107 -8.691962446656972e-05 -0.9642852634694505 -0.0760360199811777
4.009 -0.8778819426676506 -0.10137417137168997 -0.00023666780607300566 -0.00017830225706628276 -0.0002285919343321683 -9.44231256467774e-05 -0.9761733076020971 -0.08524320406047778
4.009428571428572 -0.8764610435180739 -0.097854545124076 -0.000390174640369491 -0.0005781972641947755 -0.00019605546390632795 -8.224077780005713e-05 -0.9750216092576494 -0.0747900627483642
4.009857142857143 -0.878411009357044 -0.08644884197603271 -0.0003355764734078101 -0.0006366897194933471 -4.699039646548235e-05 -1.5649046123631304e-05 -0.9660719912620319 -0.06736589019456204
4.010285714285715 -0.8801738356288823 -0.08066735331173759 -0.0004922325633045967 -0.0004884518260200053 -0.00024040584928959244 -0.00010275147232689585 -0.9649338361975802 -0.07214285291430748
4.010714285714286 -0.8803721747869688 -0.07394173836393517 -8.330851471466784e-05 -0.00046308902451702483 -0.00034353954330508475 -1.7340988980396173e-07 -0.9688398590338531 -0.07031871947065695
4.011142857142858 -0.8758394193391822 -0.0707292726829494 -0.0002916565361805374 -0.000380943129003444 -0.00037193157189752195 -3.460323686431283e-05 -0.9699620864357542 -0.0664179235764456
4.011571428571429 -0.8776849737145725 -0.05579808032475734 -0.00010624534800083667 -0.0008339656506058253 -8.308498521098113e-06 0.0003206008926901295 -0.9712525791511817 -0.06486855889705966
4.012 -0.8822310690544934 -0.05393622226047049 -0.0005095737973663435 -0.0007956121807980293 0.00011697253468634312 -8.355634390165928e-05 -0.9745212356243149 -0.0617289494260268
4.012428571428571 -0.8793702324513174 -0.043701430976984396 0.00015437495805176488 -0.00042209402750874634 0.00031023362905244846 -0.0001038077533272615 -0.962963989221805 -0.05511631509023072
4.0128571428571425 -0.8866899129291286 -0.034341144623675934 0.0003134698226691124 -0.0006023568261818858 -0.00022035988467410282 -8.737220672906742e-05 -0.9655319930296727 -0.06251971350708328
4.013285714285714 -0.8763190886800271 -0.03163855637336506 0.00015869339904202523 -0.00027139923592316216 -0.00013049600722381938 6.392068300697762e-05 -0.9622249184608298 -0.057990192066580404
4.013714285714285 -0.8789320953683123 -0.021479128695249653 0.00012893254021929007 -0.0004195104405749808 4.291499084134012e-06 -3.803709991422778e-05 -0.9738238268659712 -0.050996527319939255
4.014142857142857 -0.8794404557327944 -0.013813639876964578 -0.00018973695134887487 -0.0002067650870404622 7.468727300188321e-05 -3.549683845732502e-05 -0.97117511186244 -0.0458310466941876
4.014571428571428 -0.8786446912321803 -0.010625054508042379 0.00018333832813091918 -0.00029931315232557137 3.294368051666862e-07 0.00027085567841730516 -0.9688759215979895 -0.051359240700298216
4.015 -0.8867280224391929 0.0016169066638399762 0.00011510316097816153 -0.00015947253295509436 0.0005640742113018 -0.00024049509020245845 -0.9654879085935496 -0.049357684476248116
4.015428571428571 -0.8825274925090212 0.010414093190881542 -0.00045548931170361317 -0.0007059661468071689 -2.3599719757366594e-05 -0.0001713865800289283 -0.9721549073939625 -0.04918433215323693
4.015857142857143 -0.8819181725268773 0.017672950701809038 -0.0007556020518518186 -0.0004021180662324705 5.294573521428529e-05 8.578413693581344e-05 -0.970594264300477 -0.04436031262443576
4.016285714285714 -0.8807190884926784 0.0244744293007892 -0.00017677658089914453 -0.0004566691288513371 2.5839619648814818e-05 -0.00017741668079720402 -0.9639186148046092 -0.04230820081896848
4.0167142857142855 -0.8798131171179295 0.029168066655724318 -0.000498535818957119 -0.0005842104014413329 -0.0002182898871383608 -0.00028739238996958557 -0.9639409395592649 -0.04992704548892545
4.017142857142857 -0.8789406799839649 0.03863576755081822 -0.0001437464948128225 -0.00024195636995274285 -3.19953477857419e-05 -0.00011649292639490084 -0.9623557764392784 -0.04004730696099991
4.017571428571428 -0.8837537134613839 0.04221704883615756 -0.000635278882354381 -0.0002627545679374212 -0.00029322204862374874 -7.182231309089631e-05 -0.9717317836962913 -0.04070105970072944
4.018 -0.8772565937025568 0.04941033942071079 -0.00037115639793236705 -1.644493337782123e-05 0.00015830981354860623 2.615384743177142e-05 -0.9704929866181681 -0.04087952709782434
4.018428571428571 -0.882461243804084 0.05811776217614799 -0.00031323530817811896 -0.00030340035084941815 -8.522633446716937e-05 0.0001923893021397749 -0.9709015740964861 -0.03226899141716871
4.018857142857143 -0.8746179463693878 0.06672874473641273 -0.000492809532130457 -0.0004333164749903865 -1.6487208727924034e-05 0.00017185248590089358 -0.9624258515316753 -0.02604251787221074
4.019285714285714 -0.8731531588106386 0.07765068372765195 -0.000787252654885149 -0.0006370571648679749 -6.67914350311787e-05 3.873816597139004e-05 -0.9705164954867391 -0.025813741910820098
4.019714285714286 -0.8795203713971824 0.08357394104442725 -0.00021615795562963082 -0.0003228061856634843 -6.611334068331233e-05 -9.514805554784393e-05 -0.9668534977411575 -0.024738499318408297
4.020142857142857 -0.876827711113485 0.08925003725190156 -0.00038549741236919933 -0.00021455881167637523 0.00010237556025693565 -0.0001773920958643084 -0.9678650615649823 -0.021270004760082287
4.0205714285714285 -0.8780250183880473 0.10248862671521797 -0.000760601299997629 -0.0003697064358986881 -0.00018549421816305985 -3.733752499374588e-05 -0.9691285427668768 -0.024765351462199353
4.021 -0.8735361698739892 0.10209088220646394 -0.00045829634525990114 0.000201017868075753 -0.00033020970932580164 -0.00022782419641837698 -0.9637369049332063 -0.019815808298484967
4.021428571428571 -0.8716710736667236 0.11476986919174356 -0.0003014590544091605 -0.00010134329157959666 0.00011332711228999385 -0.0004764276926893942 -0.9694907910441044 -0.01802969910960634
4.021857142857143 -0.8753333733542151 0.11597389080563963 6.643596627535548e-05 -0.00021630170101371606 -0.00019463088431791533 0.00012249448585163278 -0.9687397241458964 -0.016426991265712405
4.022285714285714 -0.8653499130554865 0.12160311116707358 -0.0003584491294537219 0.00018450804770669027 9.542058756699677e-05 -0.00017497985268083845 -0.9745543607361937 -0.008837605957384715
4.022714285714286 -0.8715471289933997 0.1378116887178284 -0.0006584807730631005 -8.032636005096387e-05 -2.4609135029834735e-06 -7.622801771171125e-05 -0.9664950524900626 -0.013710074407740299
4.023142857142857 -0.8665334873428692 0.14368926023688064 -0.00040584715180397437 -0.00046486830526308093 8.059003380724178e-05 -0.00036351756461513454 -0.96808782187161 -0.005379679005208341
4.023571428571429 -0.8703587294535462 0.1445105533427283 -0.00019840675369410293 -0.000845144178731904 -0.00021344696304124333 0.0001460799813590065 -0.9604066799898084 -0.003423556569237212
4.024 -0.8612611994105722 0.15577586535859148 5.665120414849523e-05 -0.0004942836866645483 3.892324573300028e-05 -8.777410926186467e-05 -0.9700603249587807 -0.006428468102659575
4.0244285714285715 -0.8665831970511652 0.15866723099827929 -0.0005318811164591173 -0.0005379884040390873 3.81175614639626e-05 -0.00018615920408018033 -0.9703934195027016 -0.0027720911736234238
4.024857142857143 -0.8677847167072192 0.17023546375509502 -0.000707845988756604 -0.00035331187309179925 0.0002855572037430257 -2.410856403389718e-05 -0.9668195892157113 -0.001341165812954728
4.025285714285714 -0.867018600253734 0.17870430397823736 -0.0005928230924843854 -0.0002923593078989233 0.00034998681368442734 -8.810772248339757e-05 -0.9660067357002886 0.003461037842115404
4.025714285714286 -0.8628664658320806 0.18456967905814384 -0.0009605452950380432 -0.00027159091454398416 0.00011552037770729508 -0.00012928743030646717 -0.9751410847181734 0.009399042878335215
4.026142857142857 -0.867378905954395 0.19152474954860482 -0.0006411367233305667 -0.0004214379206649896 0.0001489331717094761 -0.00018196920339743573 -0.9694106887562596 0.0037552802334701327
4.026571428571429 -0.8514700684965458 0.19883777184129967 -0.0004413202349687849 -0.0003025502460609353 -0.0001404494559834491 5.294920667897666e-05 -0.9726844501706283 0.009060737308823438
4.027 -0.8545948010487077 0.2056162247862656 -0.0002605266795306414 -0.00022090498762848234 0.00023591694758245645 -9.594045460716118e-05 -0.9703395269143643 0.008003061184423736
4.027428571428572 -0.8604517785291542 0.20730138331946188 -0.0004799034138351004 7.58374567204721e-05 2.0882690027520746e-05 -0.00021301758465594247 -0.9659478400133295 0.017575976869526763
4.027857142857143 -0.8547419966161355 0.21511534709448382 -0.000559540267769873 -0.000482509131903876 -0.00023640906779808104 0.00015001258306943332 -0.9744057088398669 0.01275658105557718
4.0282857142857145 -0.8532142188853096 0.22992027214238855 -0.0003208679682407694 -0.0002644059442175507 -9.458065710269885e-05 -0.0002325759654175238 -0.9706208506657449 0.023468551977145757
4.028714285714286 -0.8575389378820487 0.22766102982877037 -0.00047133754058889125 -0.0003363138154596541 5.050492419801507e-05 -4.2847143818381064e-05 -0.9703007415698071 0.015149311139286562
4.029142857142857 -0.8503655935829201 0.2423015458592175 -0.0005522828030429062 -0.0007254676671586484 -0.00012217668468549804 -0.00016815919041688788 -0.9678762465142822 0.02513575713810212
4.029571428571429 -0.8502149453525613 0.24362113978024194 -0.0004875107173548466 -0.00021824986180320001 -1.474767751825645e-05 0.0001275058230478042 -0.9620166545579795 0.021888654983445163
4.03 -0.8441722437972675 0.25308822840038475 -0.0010050529958041086 -0.00021999529122190362 0.00014178842839674923 -0.0004435464315186212 -0.9723651085698544 0.03458841935132318
4.030428571428572 -0.8430301214860746 0.2641661141064304 -0.0003708871624762861 -0.00018474403642509716 8.03309309793096e-05 -0.00027419124225912353 -0.9692129580014978 0.03030826210140926
4.030857142857143 -0.8436264224535485 0.266395717824018 -0.0004775055719148506 -0.00030370998062634536 -0.0005942251248739094 -0.0002214410170471759 -0.9724516825768321 0.02415797935467096
4.031285714285715 -0.8369011322457787 0.274655201025887 -0.0006939449874456027 0.0001888508791025706 1.3047216179833519e-05 -0.00026407120946200926 -0.9665636574881662 0.03791915927422007
4.031714285714286 -0.8338805384372127 0.2779559429463954 -0.0003284933610662 -8.285482347348143e-06 0.00013061372046425473 -0.000135188482758056 -0.9628619092709695 0.02560771992852091
4.0321428571428575 -0.8294139030087115 0.2877213376816513 -0.0006730331388288397 0.0002813317645721061 8.592110479792691e-05 -0.0002408795132718048 -0.9732468467714396 0.03565695378072325
4.032571428571429 -0.8303296179900558 0.29253414151008716 -0.00011850886220462725 0.0005169083464879522 7.512653584141463e-05 2.9550868524033952e-05 -0.9661199957079317 0.04558839682136285
4.033 -0.8304983825758011 0.3018103758908586 -0.0006941246632925312 -0.0005522069530083406 0.00010093870356494457 0.0002601971865315753 -0.9634781289147251 0.046059664869776355
4.033428571428572 -0.8348095619320591 0.3111544560243204 -0.00012352444937443091 0.00018443987259831882 0.0003964487460566859 -0.00010635575378904252 -0.9632760195220164 0.03981820720713363
4.033857142857143 -0.8255024211358389 0.31740841279835297 -0.0006571911997340293 0.00020173767081468937 -0.00014759980281260073 0.00033513587735708425 -0.9632500648308947 0.044024577693552835
4.034285714285715 -0.8183219820312139 0.32054882021215986 -0.0007551918506103831 0.0003459151890231996 0.00019451012705568206 0.00021051480905684512 -0.9666015931617059 0.04309701659419221
4.034714285714286 -0.8119571585015409 0.3346464008939703 -0.0004220173146177181 1.6892901212342257e-06 -3.126387691788409e-05 -0.00014326808776713272 -0.9677295840608541 0.05282144879649219
4.035142857142857 -0.8162133156895847 0.33552525672724526 -0.0007763445060987236 0.00020652630141877862 -0.00020824921886642371 0.00019724500545972818 -0.9671323203615239 0.05087964178783587
4.035571428571428 -0.8092033635078584 0.3436050064730409 -0.0008527930600295138 -7.086893407731816e-05 -0.0001018096809164859 -0.00042638814601669156 -0.9657134395808673 0.057024325669879646
4.036 -0.8061815067486116 0.35279372128372605 -0.0006909943550391558 0.00031838401404115285 8.255379660890279e-05 6.216733686972254e-05 -0.9702179942894892 0.057893879651371764
4.036428571428571 -0.8128318432999556 0.3519166849872865 -0.000961719668249802 0.00011932891100674414 -0.0002939003714711017 -4.7968762396613145e-05 -0.9663460277296131 0.05221037838267609
4.0368571428571425 -0.8066351014910359 0.364580396969587 -0.0006948169611960733 -0.0004066284938950169 3.488834012649163e-05 -0.0001468514873531414 -0.9695755172483226 0.05703854600420061
4.037285714285714 -0.799568722476403 0.37130554728692916 -0.0007629676783693142 5.669872661343803e-05 -0.00012602636942297092 0.00014317019197830565 -0.9615663327775928 0.061452241060182475
4.037714285714285 -0.7968029836368296 0.3713115435943591 -0.0006807550045843623 0.00013442055409582261 -0.0001303690992022246 -0.0003556178867292983 -0.9701862571637612 0.058390627996417505
4.038142857142857 -0.7917755710478002 0.3907812299102915 -0.0003225472292340123 0.0002916175425019329 6.823766619079122e-05 8.095110719509962e-05 -0.9636991198121925 0.06200576588011095
4.038571428571428 -0.7943276632880433 0.38995326781216455 -0.0005450289957436509 0.0004054207632526867 -2.230861673987462e-05 -0.0001983089796620158 -0.9599095082319871 0.06687707585690716
4.039 -0.7865597765214727 0.3926942956673913 -0.000609271469248907 0.0002574511856258868 0.00039344139969573556 2.4055269305952463e-05 -0.95817485147336 0.0642839993166904
4.039428571428571 -0.7817845814489105 0.41073830218840157 -0.000543366090152265 0.00017661818008324389 4.902434916487865e-05 -8.369671840525623e-06 -0.9633816278611268 0.06956651970338712
4.039857142857143 -0.783880996053637 0.4092994088257266 -0.0007889731330587921 0.0005937946591701463 0.00020983240496314103 0.0003232196977304346 -0.9693188470801971 0.06954682630289584
4.040285714285714 -0.7800463450259679 0.40936650301719163 -0.0006069075782483364 -0.00011376755337372347 0.00033409901620725415 7.284588415880736e-05 -0.9627837759623723 0.07545116973342171
4.0407142857142855 -0.7779634035013551 0.4220182558451527 -0.00022645644690449495 6.738960444490744e-05 -1.396058102062582e-05 -4.034117416285033e-05 -0.9600849183537179 0.07532412575054455
4.041142857142857 -0.766130125211756 0.4265948790182485 -0.0008071201465692044 0.00025993281516954216 0.00047443093954104124 -9.781420629432877e-05 -0.9683991349018843 0.08672470523821249
4.041571428571428 -0.7644011848486179 0.4337298036010663 -0.0004747784185999394 3.130742737477524e-05 -0.00018433552291224193 0.00016642845211131254 -0.9656205486108611 0.0848571864970737
4.042 -0.762349031867972 0.44259365503408804 -0.0009388237475149761 0.00025839653103480856 -0.00013889414562210224 9.405852734816539e-05 -0.9607187617290875 0.0917923632615892
4.042428571428571 -0.7575607461341893 0.44659331973521865 -0.0005881202219258058 0.00029057167602668824 -3.414158084006666e-07 -0.00011742042222672008 -0.9601211783555588 0.092375504859117
4.042857142857143 -0.7579032195172604 0.44334231895868376 -0.0006991335252578042 2.4990098401693447e-05 -0.00013871661760648954 4.1835484378235894e-05 -0.9647173098665983 0.08782258868930444
4.043285714285714 -0.7513464465302414 0.4615676093419028 -0.0006448686858076639 5.553601212946911e-05 -0.0002099213730382535 -0.00015034139200229433 -0.9649246188928452 0.08662192065584645
4.043714285714286 -0.7443265221420449 0.46217950694553717 -0.00018777684028549137 0.00012928848899030224 0.00023137942184483002 8.248657647616197e-07 -0.9661394641421808 0.08145731387730691
4.044142857142857 -0.7439139327015879 0.4718311038881827 -0.0005082136113360552 0.0005220406652054881 -0.00020188771023667455 3.3286161419303135e-05 -0.9626206940233927 0.09780004526236193
