!Created with skrf (http://scikit-rf.org).
# Hz S RI R 50.0 
!freq ReS11 ImS11 ReS21 ImS21 ReS12 ImS12 ReS22 ImS22
4.0 -0.8412115856736497 -0.24804925109169185 0.00032654739341868267 -0.000717959265691205 0.00018890010737292 -0.00012451751120120568 -0.9638481003269689 -0.13113468332902325
4.0004285714285714 -0.8487100865557394 -0.24210420416829437 -5.396735237887294e-05 -0.00041365262851173623 -1.7831000462638214e-05 7.887056664937637e-05 -0.9713631615723225 -0.12157668370065365
4.000857142857143 -0.8530686010250851 -0.23167684329885133 9.39229017913587e-05 -0.0003880242858622438 -6.0916449484906385e-05 -7.039582590590038e-05 -0.9673965362914478 -0.11611107249832059
4.001285714285714 -0.847446910006178 -0.22609115747404268 1.692115911095664e-05 -0.0005236358310242684 -0.00010081422818495853 -1.8062996599688615e-05 -0.9635275774254566 -0.11708092082899019
4.001714285714286 -0.8537602560931675 -0.22047146412991522 0.00022883713180105528 -0.0002737860641077617 -7.083126466353432e-05 -0.00010696233256700064 -0.9673620437129479 -0.12019694359579301
4.002142857142857 -0.8522007032383642 -0.21925577598846194 -4.512947632160608e-05 -0.00032966522533471886 -1.8869364704164626e-05 0.0002679338691115165 -0.9650854158095804 -0.11265794171842138
4.002571428571429 -0.8556184939748137 -0.2076017777642172 7.106521346495288e-05 -0.0004603986143768018 -5.5959834389682595e-05 5.912870243731008e-05 -0.9717629363491663 -0.10533297569665934
4.003 -0.858483163826515 -0.1974581685203716 -6.675745275005263e-05 -0.0005721900520180656 -5.1945142133577204e-05 -2.3062261041368257e-05 -0.9689175987953503 -0.1036014030258855
4.003428571428572 -0.8617960628282801 -0.1934433626627296 -5.50892721029019e-05 -0.0005644739067914059 -8.556364529957129e-05 6.211322010787634e-05 -0.9641492504806585 -0.09881995530139276
4.003857142857143 -0.856867327398172 -0.1862657504788703 0.00021697020591826218 -0.0006648784981009149 0.0003094253271399435 9.100091193758212e-05 -0.9714189057333935 -0.10971799334083539
4.0042857142857144 -0.8684832206586702 -0.17785965160442543 0.00017454438456039316 -0.0004445711110540532 0.0002996962816979464 0.00017491571548875927 -0.9670598098099746 -0.09822265435782315
4.004714285714286 -0.8646340516623945 -0.170476736124455 -0.00010721782952519831 -0.00036424100285122263 0.00011874845263430674 0.00015758223222197708 -0.9593537062169151 -0.10761697737770888
4.005142857142857 -0.8652929540167285 -0.16179695041313716 -6.516549411823804e-05 -0.00042727396131743607 0.00019331916999392387 -0.00022157808763200178 -0.969275248047538 -0.09531984547434717
4.005571428571429 -0.8673079268457801 -0.156451948557086 -6.871052088211424e-05 -0.0005707278990452198 0.00025772413208737237 0.0001946929312048426 -0.9595642731543672 -0.09382137730259539
4.006 -0.8701979409524584 -0.15244966217400285 -0.00027849603328605304 -0.00011468695365270592 -6.762776591537929e-05 7.791677196332839e-05 -0.970150136170629 -0.0914690067885969
4.006428571428572 -0.8702550634629137 -0.1462013237063055 9.397237381454324e-05 -0.0004854938420320563 -0.00013511660628432937 -0.00014755438819568395 -0.9698738531430151 -0.09197078252609374
4.006857142857143 -0.8754277635563021 -0.13490721109598744 -9.362791135807439e-05 -0.0003165202956291651 0.00012130460311750281 -0.00015400975974449337 -0.9656001928213928 -0.08574335885790375
4.007285714285715 -0.8740113069172213 -0.12885793426861247 -0.00011274994249812336 -0.0002964284377622962 0.00023314330631404938 -0.00014712651722934367 -0.9675269425285068 -0.07976372051769078
4.007714285714286 -0.8741218535617136 -0.12364644398607832 -4.032623248998726e-05 -0.0005367726660371177 0.00010882196353897066 -0.00011064262783077697 -0.96426160087402 -0.0817285443309391
4.0081428571428575 -0.87583663479591 -0.1211527057911791 2.0122949599551988e-05 -0.0004982191036219302 0.0003600459678567467 9.434896691872832e-05 -0.9672913529936363 -0.08831348749444333
4.008571428571429 -0.8777383942393703 -0.10581396453992829 -0.00039784354851572833 -0.0005186556465000156 -0.00023120925360634213 0.0001008253001681506 -0.9653204842243532 -0.0799843042087224
4.009 -0.8792475380660454 -0.10151053034728921 -0.00034212659635351024 -0.000688258195268979 -0.00021920482182187482 -0.00015497057585147476 -0.9746050896111513 -0.08495843807421961
4.009428571428572 -0.8762720050156761 -0.09753877824635218 -0.000290752226533797 -0.0005616125746831673 -0.00012815052452658186 0.0002783121235342809 -0.9779347759539185 -0.07490452237126949
4.009857142857143 -0.8790429662860003 -0.08580995396510786 -0.00039752208030249635 -0.00031784160887567755 0.00019480979251849183 -5.048995207704753e-05 -0.9671229905760639 -0.06888325097041513
4.010285714285715 -0.8815255876605329 -0.07946747511483296 2.0925788549697883e-05 -0.00025515407512423957 4.699955148822017e-05 -0.00014602407484769434 -0.9647344111279249 -0.0731792405007364
4.010714285714286 -0.8807499638019968 -0.07340722941616548 -0.0008452253141751039 -0.000647570695635945 3.9629849647191914e-05 -6.0243347632144736e-05 -0.9692350917475463 -0.07171862475457698
4.011142857142858 -0.8767087860465123 -0.06947694946117029 -0.00016935653061286363 -3.911002429103741e-05 -0.00010912903789206858 -0.00021019550771992723 -0.9702862595078883 -0.06640344626517339
4.011571428571429 -0.8776544902014018 -0.055375203199483164 -0.00028884978557867854 -0.0007925656367555132 3.69840078003832e-05 -2.0309229375667618e-05 -0.9703043783441959 -0.06709751399683984
4.012 -0.8831199156911455 -0.051357728440282864 3.564911613745388e-05 -0.0004543775986762236 0.0002143602890078602 0.00015249504232894015 -0.9752791192228407 -0.06304854677375604
4.012428571428571 -0.878327483873166 -0.04224686107484586 0.0001478484484374334 -0.0007862707595598699 3.919183469703099e-05 -9.377975706913112e-05 -0.9612989222618473 -0.05656440338552892
4.0128571428571425 -0.8865718122617205 -0.03352942457872451 -0.00026865737115770293 -0.0006413793526340455 -0.0003023622518149435 -1.952508902085495e-05 -0.9652228809703489 -0.06354513830936696
4.013285714285714 -0.8768276683388863 -0.0290668640430156 -0.0004987480409167772 -0.0004592096469207417 0.00022531263349509712 -0.000143435044799624 -0.9640293285544651 -0.058729524751728567
4.013714285714285 -0.880082444441434 -0.01963849392271281 -0.00027958112922024734 -0.0002232085255708266 -0.00015803638463999506 0.0002610953704960257 -0.9763397517759013 -0.05123848533825067
4.014142857142857 -0.8792145394190738 -0.013021860293355114 -0.00026090892159976207 -0.00014540702667292872 -0.00017472070952883806 -0.00021155886620191836 -0.9702345291599491 -0.047161517317623594
4.014571428571428 -0.8780164892697536 -0.009674434299479954 9.325578382601667e-05 -0.00020973638401639 -0.0003145893668248383 9.561274202421016e-05 -0.97104719623478 -0.05237825842366416
4.015 -0.887078978327645 0.001704016440863606 2.7542428421435767e-05 -0.0006280622476379407 -5.000903024996448e-05 5.503249352587548e-05 -0.9649400268641695 -0.050730247499638365
4.015428571428571 -0.883728411800054 0.013742875244946941 -0.00039313642900774565 -0.0003995714954430931 7.971685062922097e-05 2.8737459904706104e-05 -0.9720748645874789 -0.04937626807090995
4.015857142857143 -0.8829003399763 0.01850034559839731 -0.00041121017659297203 -0.0006782363291985989 -0.00010552697507637046 -4.37630163441512e-05 -0.9688375168005197 -0.04533752160511728
4.016285714285714 -0.8804717363190986 0.02404989177984559 -0.0005588619690192548 -0.00015312533224338422 -0.0003103454854932859 0.00016873831990205513 -0.965538973855795 -0.04297560484111648
4.0167142857142855 -0.8811475270705063 0.029480543594081244 -0.0005292364784295461 -0.00048653808955762955 0.00019948737080246519 -0.00017802670736086315 -0.9642423316096759 -0.048595314158180886
4.017142857142857 -0.8775047928154436 0.03906368706911434 -0.0005118701470588809 -0.0004079486546673823 0.00019667688449422568 0.00010793495194337702 -0.9619885445126825 -0.040443211514861355
4.017571428571428 -0.8837020017348768 0.04481048678034828 -0.0006629062011416392 -0.00025468337179271783 -6.535600203189453e-05 -0.00016401044444532359 -0.9708858450249395 -0.04245922902166041
4.018 -0.8779049201943405 0.05017361270019194 -0.0006341588958251362 -0.0005839857118255195 -0.00033949296580441474 0.00029323946364925933 -0.9709019056291581 -0.039830631492812504
4.018428571428571 -0.8834055543140751 0.06020791626124256 -0.0003915582260160548 -0.0003057653849901237 -0.0001401840974108374 -0.00016950756292153518 -0.9706777608357281 -0.03500652885218828
4.018857142857143 -0.8749202307567355 0.06848888418775052 -0.000719727678327835 -0.00044328797838278153 5.725381719995326e-05 0.00014009977553734233 -0.9626186417293712 -0.025560867665877965
4.019285714285714 -0.8758442514700558 0.07712278955201075 -0.00026271286812149625 -0.0005486988731859027 -0.00011587453115497724 -6.658717168323469e-05 -0.971144326096504 -0.028300238735225927
4.019714285714286 -0.8803240836918688 0.0846192130072526 -0.00048749780672116685 -0.00033073264099679924 -0.00019326892246805067 -0.0001628433622550619 -0.9648907182310127 -0.027143346200604112
4.020142857142857 -0.8795375714343037 0.08838569622434667 0.00025943442270099965 3.5506736908142077e-06 -9.771385291985439e-05 0.00022974709624793538 -0.9679138528125466 -0.02436055961013713
4.0205714285714285 -0.8764841211907705 0.1026690917093551 -0.0004750215290482969 -0.0006893021608073022 0.00017240414162467035 -0.00024671002946220576 -0.9687460219714413 -0.025745250075594885
4.021 -0.8738298115788268 0.10212270669233552 -0.0004578868157178139 -0.00043390518699946523 0.00017752221526359747 1.7543526696183047e-05 -0.965004156731901 -0.019920995840338972
4.021428571428571 -0.8714496043507016 0.11381359969605627 -0.0005959424137988348 0.000206874895577811 -4.684899471373076e-05 -5.033283274553507e-05 -0.9691982591831904 -0.01863959938727269
4.021857142857143 -0.87530596299105 0.11833758687633351 -0.0004577734281635717 -0.0001850639945192239 0.000306678558292296 -9.573852942902074e-05 -0.9653600482607251 -0.01456197366562934
4.022285714285714 -0.8665105000595539 0.1228397043415125 -0.00025127215356007305 -0.00020309372516433635 0.00018627634194637215 0.00022879385215719494 -0.9760735266657756 -0.008099962862353444
4.022714285714286 -0.8707292806838425 0.1374560877193793 -0.0005828370765080555 -0.0004779765180622152 6.255799570370382e-05 0.0002762254830946635 -0.9661349384325199 -0.014296526561538325
4.023142857142857 -0.86937368543727 0.14454177562439666 -0.0006532530239402116 -0.00036641535850422103 -0.0001270603482450342 9.211477899373344e-05 -0.967135803505042 -0.008197887156671822
4.023571428571429 -0.8699810508181497 0.1433826060796325 -0.0008019484971632922 -0.00018429162806691393 0.00017198350046924283 -0.0001395730485811553 -0.9652672876103436 -0.005344165967279364
4.024 -0.8656780901605348 0.15621515112703724 -0.0005511551769828871 -0.00014267836028908994 -2.3170833620325135e-07 9.47140690936734e-05 -0.9712305671369446 -0.007637339409139072
4.0244285714285715 -0.8680445896208914 0.16005607082317577 -0.00045673283742797105 -0.00018852976323662475 -0.00011510003210404767 -3.335364263039486e-05 -0.9685747491868468 -0.002601022556454493
4.024857142857143 -0.867226528945254 0.17346203575364902 -0.00038893461192060963 -0.00030792676538644685 -9.750913236293624e-05 -2.5060639090921667e-05 -0.9664019826624071 -0.001590166203634635
4.025285714285714 -0.8663895459443641 0.17961992533831675 -0.0005414727571528766 -0.00038509530570645235 -2.6669613826298043e-05 0.00019140427004404157 -0.9651709016386626 0.0037606278061221104
4.025714285714286 -0.8635875522023643 0.18569696251039858 -0.0005957993768773172 -0.0003536539434947386 0.00014767923384211758 -7.41167534550625e-05 -0.976696076422349 0.00889565143165621
4.026142857142857 -0.8658847379641607 0.19275864325649414 -0.0002562606020287408 -0.0002953678010671269 -0.00012533673921201135 -3.0222565751864762e-05 -0.9703555488047848 0.00555096938798351
4.026571428571429 -0.8517944348123471 0.20015951519950637 -0.0005434102860047123 -0.00036983386921017196 7.848309438634045e-05 0.00013862454429781475 -0.9732740411566401 0.006412970353065282
4.027 -0.8556952928348701 0.2096092733819763 -0.0006466599352097106 -0.00010161663971333349 0.00023273815001791966 0.0001918056064018974 -0.9696595194759753 0.005030042846423527
4.027428571428572 -0.8602464534980008 0.2098369548262915 -0.0007101636954760835 -0.00011575246925065445 8.982830257848875e-05 0.00023167972297992386 -0.966811922613325 0.01686173344327743
4.027857142857143 -0.854756246388527 0.2170907972819682 -0.0005186945132790333 -0.00020225776582014142 9.013486775807154e-05 -3.2323684923109055e-05 -0.9739845388130441 0.011544174007973187
4.0282857142857145 -0.8551120533610179 0.23138156601985832 -0.0002598615698944966 -0.00041879656295066843 -4.799438025881184e-06 -0.00033841201662401576 -0.9700893524936198 0.021019714811244018
4.028714285714286 -0.8573594306080655 0.22800238661296987 -0.0004830306485545612 -8.232128985034787e-05 0.00020032929541967452 -0.00024876176178256337 -0.970517616340506 0.012305554459228783
4.029142857142857 -0.8502443293045847 0.24353861224017945 -0.0004587910198361355 -3.792942425098868e-05 -2.106367622195274e-05 -0.0002456588655993183 -0.9682911289338562 0.024171698529878962
4.029571428571429 -0.8490229045761448 0.2460697452416724 -0.00016535132301155142 -0.00010096039977958439 -6.205535175167903e-05 0.00014800441208981898 -0.9643098475290155 0.021853038298519967
4.03 -0.8432075540883315 0.2534441702162821 -0.00023652729225017528 -0.00011337735123427979 2.9811910193464346e-07 -0.0002930429765813865 -0.9736827791740342 0.03184788737312345
4.030428571428572 -0.8428801769824024 0.26543327670391353 -0.0007353034991437587 -0.00028105371425373273 -9.528486278572029e-05 -6.184758186012106e-05 -0.9687401814168367 0.029722153680607134
4.030857142857143 -0.8450498832205084 0.26795602662040896 -0.0006422602196252567 5.612242259444241e-05 -4.2813224323298365e-05 0.00012022435364135121 -0.9736650226754748 0.022697615525983955
4.031285714285715 -0.8384578887377566 0.27408345853281674 -0.00042447262835454695 -0.0004541133583150045 0.0002615847013355654 -1.8787265885967677e-05 -0.9671246437001019 0.035032887002787234
4.031714285714286 -0.8341931670714243 0.2794252902421591 -0.000419708795252835 0.0002637188454677845 1.0127961774247098e-05 -7.053414324066991e-05 -0.9661120675471137 0.025225493797280417
4.0321428571428575 -0.8292167193804535 0.2870732329494706 -0.00024275305343060704 -0.00039157903733968573 0.0002335251340143774 4.386743630517151e-05 -0.9702353863956344 0.03689909796850275
4.032571428571429 -0.8319400567027387 0.29559202661639766 -0.0005327394762492605 -4.4842879100624566e-05 -0.00010926828699050024 -0.00020626086958541265 -0.9642968110965193 0.04520134259953722
4.033 -0.8299574047036306 0.30017109608659903 -0.001030003239089621 -0.0002733600680528652 0.00023189660311780173 -0.0001268566595293967 -0.964889704339033 0.045632197172500465
4.033428571428572 -0.8339161397666159 0.31040701990760705 -0.0005799416375822226 0.0001553291973209988 0.000301996990988375 5.6809457727382816e-05 -0.9640176829383929 0.04026367997577527
4.033857142857143 -0.8269269101026947 0.31613796523466664 -0.0005612599650363159 2.2764601042120295e-06 -0.0001375078959785788 -0.000136484575112817 -0.9628135928281153 0.04541397201048426
4.034285714285715 -0.8182529113901507 0.3203337504131165 -0.0003265381965502684 -0.00023212078546150998 -1.191664438239111e-05 -0.00014424290809199623 -0.9659250905450735 0.04217667493905772
4.034714285714286 -0.8120173225372064 0.33413433924627006 -0.0005485389722336222 -0.0002584081026878096 -8.44190461422707e-05 -0.00031400919682842034 -0.9656123592047173 0.05227352939843467
4.035142857142857 -0.8147077178317353 0.338013750944354 -0.00042762821317227366 0.00014935150436653333 -0.00012134112336826676 -0.00020307907864726903 -0.9679336697282941 0.05238028425889241
4.035571428571428 -0.8086631368997126 0.343108151342129 -0.000648321049379403 -0.0004768683502900993 -0.00028601266980565087 -0.0002651396373069979 -0.9667051143939818 0.0562773954799743
4.036 -0.8045539417216291 0.354066356433184 -0.0004040952945149544 4.482396211118806e-05 -0.00012103711131285763 -0.00021515056545708946 -0.9702078525419626 0.05565552855365425
4.036428571428571 -0.8115732178873726 0.3522446760114781 -0.0005589459544727849 -5.076158069833586e-05 0.0003041824799184383 0.0002297812750075305 -0.9677771493000057 0.052690003971035064
4.0368571428571425 -0.8052877512769049 0.366029996126458 -0.0008407271681651206 -0.00010359239326170123 -0.00015863596900374285 -4.978115777999061e-05 -0.971193088337982 0.05286481015237955
4.037285714285714 -0.7981797285799206 0.3714256971643266 -0.0009654045312006936 -0.00012274177945276334 -2.2063535694447008e-05 6.330537123946613e-06 -0.9637818656639098 0.05863412559007258
4.037714285714285 -0.7976221898753308 0.37202842612496634 -0.000560056360025728 0.000287733126339481 -8.666075182915705e-05 -0.00016432168691756988 -0.972131105279936 0.057498187070905635
4.038142857142857 -0.7934628480695586 0.39138773065549126 -0.000612524766177892 6.624375989183142e-05 -9.415622812445102e-05 0.00010434859451083666 -0.9628370736197527 0.061848613723877954
4.038571428571428 -0.7927699127072282 0.39044948064641416 -0.0002036409013551357 0.000275586934609797 -0.00014362197704847777 5.258373482737273e-05 -0.9601144552232552 0.0688818419490626
4.039 -0.7873271279264131 0.39351077195945455 -0.0005231129730877083 0.00041445012788035736 0.0002673466354200764 0.00016172366806987417 -0.9608166166570554 0.06511552883993096
4.039428571428571 -0.7811595119485494 0.4123351516155768 -0.0007394114041314319 0.00047328195420136027 0.00013715818304152897 -0.00011103821351376377 -0.9628918862690353 0.06844651519337674
4.039857142857143 -0.7846945132050046 0.41024575854294576 -0.0005508882457532946 -0.00031007238543412087 9.941542343123286e-05 0.00046257610280227334 -0.9706615576775907 0.06938438514607821
4.040285714285714 -0.7805410981509316 0.41019337338516243 -0.0009100642490417993 -9.245376819916298e-05 4.439416019633908e-06 -0.00020217373005019946 -0.9644007646537878 0.07594568778693211
4.0407142857142855 -0.7792024482543433 0.4232329925238548 -0.0005184402716974771 -0.00012521365450837246 -1.7494946165482875e-05 2.6510446438147533e-05 -0.9598121983107165 0.07644903621939578
4.041142857142857 -0.7664481940018076 0.42772919831430284 -0.0005686856190155748 -0.0003100382556517508 9.155266443937954e-05 0.00010115320980045908 -0.9701506588205797 0.0847160404040199
4.041571428571428 -0.7667408582393574 0.4341242338593248 -0.0007170848750834813 0.0003296010226361495 1.247540502994774e-05 -0.00022289769609563315 -0.9649875175735072 0.0851704393754655
4.042 -0.762748185697968 0.4446874451480273 -0.0009746833724471253 -0.00024618701618039435 -9.46429610433722e-05 -0.0001690958069799982 -0.9620964658138561 0.08819431663661183
4.042428571428571 -0.7575492574588378 0.4499414219638527 -0.0007199530084866021 0.00014093451757528165 -0.00010804069183666222 -1.661903159850208e-05 -0.9586093898032122 0.09390732000410609
4.042857142857143 -0.7569901357334463 0.44432289302574296 -0.0005048927087604245 0.00028156985582184814 6.279088340791808e-05 -0.00013448376388406838 -0.9656265306714442 0.08804295057035004
4.043285714285714 -0.7505383614840505 0.4628996153474455 -0.0005674653356935582 0.0004712772093922092 7.896128124551171e-05 0.00029485391633732474 -0.9641234513433864 0.08530090339634677
4.043714285714286 -0.7432370898173036 0.4641023099938981 -0.0009098904477395513 0.0008343252603960692 -1.948938366480915e-05 -0.00023442441613980892 -0.9669516323794961 0.08174577125931
4.044142857142857 -0.7441219294232823 0.4725445156428868 -0.00048089633051251983 0.0002819617035031921 -0.00012655006011730034 7.225226187710701e-05 -0.9622004466238705 0.097533548326312
