!Created with skrf (http://scikit-rf.org).
# Hz S RI R 50.0 
!freq ReS11 ImS11 ReS21 ImS21 ReS12 ImS12 ReS22 ImS22
4.0 -0.8411122320077453 -0.24924217549243147 0.00027951689662021053 -0.0007882539817811668 -1.9268545603285034e-05 -0.00018520250556601237 -0.9627406553194209 -0.12987233537558232
4.0004285714285714 -0.8479112417374227 -0.24432761393086042 -6.995925525588395e-05 -0.0001435216149418452 0.00012497833071757053 -9.58068963857788e-05 -0.9713860541029251 -0.1225657450714778
4.000857142857143 -0.8527708522690209 -0.23485226963088987 -0.00012197393031674558 -0.000596498210041591 6.075718793296756e-05 -0.00011388902465371195 -0.9675982699203267 -0.1158006241054943
4.001285714285714 -0.8456414684994543 -0.22905219039370223 0.0002542102562719961 -0.0002734783620458887 -0.00020292320631190065 3.930334043023563e-05 -0.9628986982610888 -0.1152851266066051
4.001714285714286 -0.8524159184182957 -0.22188787294284149 0.00029539608324958427 -0.0005113092632138496 -8.851054818127977e-05 0.00010067047994209061 -0.9655780663773802 -0.1210644869025319
4.002142857142857 -0.8520189763428644 -0.22089967307980748 0.0002225615581105352 -0.0004940451516348857 -7.393257222044193e-06 4.43831548080335e-05 -0.9645273252323808 -0.1107430865076435
4.002571428571429 -0.8537602813660694 -0.2107362092445357 -0.0004347996316218545 -0.0005072980957657404 -9.08543000820113e-05 0.00044847640720981514 -0.9707798446316189 -0.10654420877061696
4.003 -0.8581059287375772 -0.19948561166157147 0.0001787464003120685 -0.0006981981380411309 -0.00013395626003337836 -0.00023280329078110383 -0.9694289759701264 -0.1045311353984001
4.003428571428572 -0.8610623156883085 -0.19568238109871647 0.00017380539091833093 -0.00042176111550844926 -0.0002700544262128896 -6.488009851182385e-05 -0.9619165042264785 -0.09982213757931808
4.003857142857143 -0.8572089037836288 -0.18912423602094755 6.853189985961809e-05 -0.0005119997992249589 -0.00014384864514065216 -0.00014050383587247076 -0.9712269156350094 -0.10966822965561793
4.0042857142857144 -0.8655238502049111 -0.18073222118192572 -0.000329652169168247 -0.00040481880244412497 0.0002838583651706066 0.00025819961893533937 -0.9643985270669456 -0.09932465684168845
4.004714285714286 -0.8636979640146463 -0.1728213000607025 -4.650754686862672e-05 -0.0002777596769217178 -0.000287811726296258 0.000115985053501927 -0.9609942728989086 -0.1072543748839381
4.005142857142857 -0.864552072333078 -0.16389099383119854 0.000318082363637843 -0.0005930902801407893 0.00030733686861617347 5.419838956856612e-05 -0.9669522932369552 -0.09433019322559832
4.005571428571429 -0.8670529460091292 -0.15741032415352324 -0.0001144085587193128 -0.0005062613572378072 8.621044819982194e-06 0.00013747805067275932 -0.9607564085361954 -0.09494465825538725
4.006 -0.8688474870384769 -0.1519400277708446 -0.00018159790279027995 -0.00032596635929611593 -0.00017883873774191282 -0.0003012402062588981 -0.971117590293295 -0.09357697240031439
4.006428571428572 -0.8691716455062608 -0.14939041105125153 -0.00019401082995836283 -0.00071006033655315 0.00010442972361498065 -1.3720352627399214e-05 -0.9693423076141867 -0.09277099534225619
4.006857142857143 -0.873170459650275 -0.13669340608844063 -2.5342517189846324e-05 -0.000353069743345031 0.00012126254060901553 -0.00014841728394089236 -0.9653750750143092 -0.08561183066722912
4.007285714285715 -0.8751153007865164 -0.12961824333127872 -0.00013367623995633188 -0.00034047508685036606 -3.204842169394892e-05 0.00010777599184144681 -0.9668031437172732 -0.08100287242345873
4.007714285714286 -0.8723141121815282 -0.12499786670907878 -7.843999331750045e-05 -0.0006508918460198011 9.936755881184642e-05 -5.1740274443048286e-05 -0.9622859952689524 -0.08269838958759614
4.0081428571428575 -0.875379731069004 -0.12295601993720394 -0.00028885388070960534 -0.000449037989045954 0.00030998582612565013 -0.00018931959785505013 -0.9676436257029223 -0.08811207343740199
4.008571428571429 -0.8781010007083063 -0.1080098701934436 -3.4905373796492275e-06 -0.00011344429861613633 -0.00024278474368903794 -0.00020022155494734916 -0.9635952373040321 -0.0774791957437314
4.009 -0.8784726199981414 -0.10316333630005699 -0.0003107624174950789 -6.869878416389254e-05 -3.0255531553482095e-05 0.00011424275256851629 -0.974397101867538 -0.0852130440111033
4.009428571428572 -0.8755698552478403 -0.10082317446555485 -0.0005950803797822892 -2.9985393016517813e-05 -0.00013916391413607517 8.890714942113678e-05 -0.9751966818346106 -0.07584382999046022
4.009857142857143 -0.8794836202920694 -0.087879007994704 -0.00025678369545031486 -0.0007680278272745508 -3.7398172957581705e-05 9.45142311487017e-05 -0.9672270234359296 -0.06826033137699032
4.010285714285715 -0.8796284498193372 -0.08097319834707921 -0.00018573336411355397 -0.00037785063818846404 0.0002185608393728527 -6.860618134186619e-05 -0.9654652675006175 -0.07465087590529419
4.010714285714286 -0.8795316630527725 -0.07552243882807623 8.392687177778308e-05 -0.0006118926617826378 0.00016138681133245653 -0.00018194725633473925 -0.9694567046159552 -0.07122644528097362
4.011142857142858 -0.875230974844169 -0.07094101757591892 -0.00013003223842279895 -0.00034704055492862954 -0.00013239964626518438 -0.00022833009019855498 -0.9685321509074498 -0.06477429497000653
4.011571428571429 -0.8778548257708597 -0.05855963859887881 -0.0001421080291839093 -0.0006073717099685615 -2.154288640057717e-05 0.0001758755674357089 -0.9700388933703775 -0.06707085404116837
4.012 -0.8814513939446713 -0.05362042986644052 -0.00019311599525798133 -0.0004304200660827232 -0.0001365235544169098 -1.9389325663429133e-05 -0.9755553110224489 -0.06261725384758739
4.012428571428571 -0.8803476092801195 -0.044992070920266296 -0.00021084131213854694 -0.00024238062375180533 0.00018181564356521652 0.00028124595710064495 -0.9620007388798512 -0.05505356470847465
4.0128571428571425 -0.886071797187775 -0.03530683294697335 -0.0007001366529184818 9.525974005088166e-05 -5.7514785029566104e-05 -2.124632805818166e-05 -0.9657072610728296 -0.06358609882450093
4.013285714285714 -0.8770134166383776 -0.0320935237899968 -0.0004218074199076055 -0.00016282418319062884 0.00011744426923766669 -5.086857156636276e-05 -0.9612974790561457 -0.05727131379629776
4.013714285714285 -0.8800909029772581 -0.023176271777277317 -0.00040774430758357073 -0.0005055310125452612 -0.00018353024820886012 0.00012344653785984134 -0.9754512364094392 -0.05123297268971314
4.014142857142857 -0.8806761386720837 -0.012790458708988066 -0.000466215196996014 -0.00040688204175541527 0.00017326730138151003 2.120867795850544e-05 -0.9709109487244865 -0.04699948011188766
4.014571428571428 -0.8796709467480128 -0.013132164596994775 -0.00014177653425642987 -0.0002095303121418357 -0.00011926068719198175 0.00039004787859765944 -0.9709213033467359 -0.051372006775764215
4.015 -0.8877946840430319 0.00017697118956532378 8.579748930279676e-05 -8.241458806172598e-05 -5.395644202244627e-05 -0.00021492983047956458 -0.9646084362838405 -0.05092692654145787
4.015428571428571 -0.8828371076358649 0.009684722840218934 -0.00037569326492276257 -0.00015645571695890894 -0.00018063395995473512 -3.2092959535551636e-06 -0.9725444280988146 -0.049094508456586756
4.015857142857143 -0.8831051718070649 0.01759748010913764 -0.00036718762250986564 -0.0004978835323707194 -5.925774510744644e-05 9.160899984372025e-05 -0.9723095155137487 -0.04425356756157588
4.016285714285714 -0.8810883595921812 0.02115818633384525 -0.00039762045185821594 -0.00033838332502449597 5.7590290169296715e-05 9.071086219341484e-05 -0.9637462870158563 -0.042194560898541726
4.0167142857142855 -0.8802123361879352 0.029718002790241945 -0.0004904705716311139 -0.000412581516770218 -0.00019945250092500411 0.00033056388531886366 -0.9627042260024306 -0.04971779781726769
4.017142857142857 -0.8775528323122331 0.03696687919574658 -0.00032772371016307486 -0.00047606251460098696 -0.0001300866402964716 0.0004473147764246918 -0.9611854166277443 -0.038305911202893034
4.017571428571428 -0.8833077059985784 0.04137754939196297 -0.00014809217070379868 3.061965275516561e-05 -0.00019900319548866893 -0.00017705223793304964 -0.9730670614795026 -0.04003687210353891
4.018 -0.8781013910289445 0.04650835548081809 4.7812061981250186e-05 -0.0002889307247974922 1.4114492706063719e-05 0.00020291670453618057 -0.9708640971639897 -0.040890009396258975
4.018428571428571 -0.8822698343085759 0.0584624755742299 -4.279887031251873e-05 -0.00027107598711336643 0.00013905256134734642 -0.00011644279746829379 -0.9713153561317386 -0.03258713415439737
4.018857142857143 -0.8738627576704271 0.06590835817088661 -0.00020764386818949927 -5.165593496758523e-06 -5.9221635504934424e-05 -0.0003257380431882394 -0.9611478237238258 -0.027061515375299924
4.019285714285714 -0.8755894398994262 0.07526608718105418 -0.00017916316352922063 -0.00022366000008064728 -0.00015225908208912106 6.218492716701734e-05 -0.9730781254865419 -0.0256655726858511
4.019714285714286 -0.8784989433784526 0.08451872056180955 -4.77198055054054e-05 -0.0006057711542181534 5.071763226170443e-05 5.307813693816117e-05 -0.9647750295102986 -0.028189775850265778
4.020142857142857 -0.878139441623047 0.08702729196710933 -0.00027784786398962687 -0.0009086096932487244 1.1872171511122659e-05 0.00010208240182253487 -0.969430801447705 -0.024177205806595155
4.0205714285714285 -0.877405568009732 0.10156641084071343 -0.0002916200694288979 -0.00052886711915295 0.00024576937886973545 -0.0001708378316462026 -0.967704503345944 -0.024750666253226312
4.021 -0.8735949050944603 0.10181193033020214 -0.000709216772609303 -0.00031930554720741434 0.00011415465282128598 -0.00017264544751938415 -0.966261763826998 -0.018740055237202177
4.021428571428571 -0.8734056030955457 0.11385153144065252 -0.0007606193533748154 -0.00012834465208823773 -0.00011981502418665922 -0.0002739099193755338 -0.9694981997522016 -0.016946371827618604
4.021857142857143 -0.8755105992982808 0.11620255767872634 -3.1760523931220546e-05 -0.00029397472241349167 7.552162661935387e-06 3.7996155026310113e-06 -0.9668835184302944 -0.015823766367391245
4.022285714285714 -0.8662092641817611 0.1204380970618815 -0.00017089352865640108 -0.0003299215431933077 2.504661695291919e-05 -8.389094932906318e-05 -0.9759358883059203 -0.0089622200218184
4.022714285714286 -0.8725194980795191 0.1358845460665724 -0.0008413271177714962 6.054030515561706e-05 0.0003466579143927227 0.0003533986454119961 -0.9659471715769956 -0.013158576810295412
4.023142857142857 -0.8677367032652641 0.14130935885017926 -0.00017777896243640078 -7.791682902759891e-05 -1.1842147573944786e-06 0.00014115402547840318 -0.9667134898962083 -0.008661825662783817
4.023571428571429 -0.8702488413354204 0.14343602292452984 -0.0007737416458337593 -0.0004529168490704495 9.965563289077068e-06 -0.00021065555024477078 -0.9602564330578145 -0.00428444794923536
4.024 -0.8655416569272507 0.15516176564911183 -0.0008863660818450939 -0.0005318919789027874 -5.522539432826618e-05 0.00037522568474760245 -0.9711254020844597 -0.006167368496862694
4.0244285714285715 -0.8676058886867332 0.1574720516103787 -0.0006730761194580448 -0.00068073498203742 -4.806109218873164e-05 -0.00017691128411189693 -0.9707085186814972 -0.0021194754081677526
4.024857142857143 -0.8667425665783979 0.1708214531127126 -0.00036854100792760996 -0.0005552529067956158 -3.810581924169374e-05 -6.983107104717856e-06 -0.968794575189195 -0.0009071903569032105
4.025285714285714 -0.8665381046500186 0.17824150376984046 -0.00034662003263108887 -0.00011315995374700755 0.0003356812670957235 -0.00012642677028051224 -0.9657506736907132 0.0021660781780362516
4.025714285714286 -0.8630797354802148 0.1822900098046748 -0.00035412905310107075 -0.0001543393776100506 6.515942819311682e-05 3.1779028807111925e-06 -0.9768448478969567 0.012140500392512972
4.026142857142857 -0.8665870846754781 0.1897788824744271 -0.00023920343076639945 0.0002035400173382408 0.00030004215879564995 0.0003116606535814266 -0.969773087688215 0.003922679873159363
4.026571428571429 -0.8522368860706301 0.19893748166381942 -0.0005349173571062079 -6.90407757900278e-05 0.00030922974481422804 0.0001258984010362171 -0.9710995845730495 0.008971013257123123
4.027 -0.8548739397007198 0.20526462751241545 -0.000496558899226522 -0.00019787691619547942 0.00015331488119118162 -0.00039949986244027695 -0.9695836649770029 0.006738095542172328
4.027428571428572 -0.8606335004286103 0.20718360336299066 -0.0006398573901776252 -0.0004233200734949506 3.681338777088497e-05 3.5028610010063496e-05 -0.9647941704418699 0.016406031182876948
4.027857142857143 -0.8533832209655592 0.21415014589836548 -0.0005590498385294387 -0.00022367882533227076 9.797888236407395e-05 -0.0001147679176799592 -0.9745650138381613 0.011704062142542358
4.0282857142857145 -0.8535196862718093 0.22890432467610788 -0.0004246157718883143 -0.0006173732286114079 -5.179693055494578e-05 -0.00016012918450194287 -0.9715153014717377 0.024415075064389932
4.028714285714286 -0.8564665784624215 0.22765166233495232 -0.0002775550918446629 -0.0003681674611324658 -6.475884703339855e-05 0.00018143657174654983 -0.9705474074024694 0.01223235522694554
4.029142857142857 -0.8505396132259158 0.24068258625846328 -0.0004914494427460963 2.4585977318070516e-05 8.02507002974069e-06 -0.00023552130892376296 -0.9690928954688544 0.025400019243381686
4.029571428571429 -0.8498656683788788 0.24529357208969993 -0.00037749786727550604 -0.0004026639368371436 0.000342863337717775 -0.00018745196806230625 -0.9649211408317355 0.02152612921182753
4.03 -0.842961850092421 0.25196222913801053 -0.0005513496594977746 -0.00011910015228446944 -2.4274972168850814e-05 6.033014862193129e-05 -0.9725209206576889 0.03198815620052621
4.030428571428572 -0.8432214633106121 0.26199271569659116 -0.0005720336064213916 5.894314922279231e-05 8.67120143468265e-05 -0.00013076652682074516 -0.9691459991385132 0.02840993849712672
4.030857142857143 -0.8440040567259156 0.2651523202542739 -0.0007794100252811011 0.00023419961318933984 -0.00018986825631673793 -0.00012528696009235624 -0.9707334529188195 0.022819850489749115
4.031285714285715 -0.8377213478679058 0.2740378166000533 -0.0003657465053624377 7.409532823729582e-05 9.204566111611108e-06 0.0001051283346380038 -0.9681364124350317 0.034789627997308586
4.031714285714286 -0.8328545188182694 0.2757667094136106 -0.00039845735937515584 0.0004644613293963332 2.9935947326243384e-05 -0.0002611495031934392 -0.9642907903921498 0.024191177932492796
4.0321428571428575 -0.8317168763580856 0.2866359765231822 -9.08992761444618e-05 6.953188116573553e-05 -6.12029040649963e-05 -2.9448246662263805e-05 -0.9736258360912018 0.03638763292154437
4.032571428571429 -0.8328280845960276 0.29458199392278944 -0.0003663821092062277 -0.00019913720342715956 9.59477405869845e-05 2.6074989777956916e-05 -0.9652950794428018 0.04430008921821008
4.033 -0.8323229590355783 0.2995044954513481 -0.0006707671039899226 -0.00016090858933309914 -4.4782764372365025e-06 0.00022693916097039007 -0.9653830188842928 0.04521832290154705
4.033428571428572 -0.833974246587219 0.3085974310956976 -0.00048386873206206183 0.00031249128791493476 -0.00017249164896887938 0.00015723866506766433 -0.9614766673448139 0.04036056690591636
4.033857142857143 -0.82567905638228 0.31413992587419587 -0.00017549624209303721 -7.2825768951289e-05 -9.608065319743305e-05 -0.00012187640053185779 -0.9639691660268673 0.04419351481221791
4.034285714285715 -0.8204586949007947 0.3192705536604489 -0.0006795961541480736 -3.5288420304601376e-05 -4.736503295322475e-05 -1.634898914375967e-05 -0.966475656654522 0.04406022127291678
4.034714285714286 -0.8127887734750899 0.33363537019623196 -0.00039517420779108895 -0.00012099312236319375 0.00030597412490847927 0.0001802857681022299 -0.966501745884322 0.05169244827855625
4.035142857142857 -0.8160811935708628 0.3350728811602732 -0.0003632659742950103 -0.00031931686860267513 -8.139282304879264e-05 -0.0001361435679577731 -0.968332215472816 0.05210762374427135
4.035571428571428 -0.8089267635676541 0.34243579210444297 -0.0006076019070996036 0.00023109186322746238 -0.0002617377983643861 0.00014507690064652565 -0.9681252012608633 0.057644940346866756
4.036 -0.8070758612093236 0.35261007244515674 -0.00020980902810148624 -0.0002698437450186024 -0.00020690928115061 0.00019065614265352464 -0.9695454231010605 0.057745643009641454
4.036428571428571 -0.8131187512010629 0.35027934470971395 -0.0004205186298270493 -7.173173259932321e-05 -4.226686447558336e-05 6.0335568108173054e-06 -0.9685158105592558 0.051277512769452194
4.0368571428571425 -0.8065682665096573 0.3618462607654548 -0.0004233977144661415 -9.723199396984166e-05 -0.00011034928968254036 -1.1786472323774083e-05 -0.9709676618140501 0.05340899086316703
4.037285714285714 -0.7999427157431392 0.3707104661870867 -0.0005535582149014956 -0.00023836458198743283 2.8618706035055425e-05 9.684793937426684e-05 -0.9637204438208441 0.058730426263365255
4.037714285714285 -0.7962867178764238 0.3694914882036755 -0.00013496020133778382 -0.0002185429482828674 0.00024551372952704836 -8.300808292805181e-05 -0.9701361896717056 0.055810513923518726
4.038142857142857 -0.7913149415193413 0.3907507658636153 -0.0006174536500394116 0.00030017004921439167 2.7122842848177938e-05 -3.492396310315861e-05 -0.965257694564389 0.061511480518805915
4.038571428571428 -0.7933340122562963 0.38804897248212755 -0.0001918845159441802 -0.00011654234496584264 9.793455487536785e-05 2.9293382568952316e-05 -0.9619951391479323 0.06561391607303449
4.039 -0.7882438010832169 0.39012131242262915 -0.00043903050266391806 -0.00031416257274291136 0.00021913950769245595 -5.4597912763483576e-05 -0.9586407238847275 0.06548185293150287
4.039428571428571 -0.779925823333439 0.410544961686506 -0.0005357403379407885 0.00038336491602702124 0.00017569572634580248 -0.00014006185749720733 -0.9641698418907404 0.0691121392913493
4.039857142857143 -0.7844712603393722 0.40784184837664544 -0.00016570537166501654 0.0005049093508942775 0.0003168044898989437 5.498328109863497e-05 -0.9695130796764092 0.07072365063013993
4.040285714285714 -0.7793207254413425 0.4086646018691037 -0.00047649674855082156 0.0006538781282711718 -2.310863185401419e-05 -0.00042610017863259727 -0.9625487382677503 0.07526545067163981
4.0407142857142855 -0.779197907304788 0.4211101380613509 -0.0004121144523117979 -6.230799305864161e-05 -0.0002565728412677655 8.989503590376285e-05 -0.9589425884899189 0.07660474067621935
4.041142857142857 -0.7666774026812871 0.425781994667565 -0.0005984774911757149 -4.618859220468449e-05 -5.872609556641625e-05 0.00011786884039879075 -0.9697689232404313 0.08563824549078287
4.041571428571428 -0.7650506800936926 0.43196496983414245 -0.0002812943908406452 -0.00018684641082739086 -0.00023410059683260745 0.00021046077134714622 -0.9668332888305905 0.08573727496256735
4.042 -0.7623014761875146 0.4419717292142493 -0.000999355256012337 0.00016596377229701937 0.0002387653474317327 8.001873549344865e-05 -0.9626442122635338 0.09063816700550995
4.042428571428571 -0.7579445975536853 0.44544496357672947 -0.00022765041275792157 0.000316191523514532 -3.3413684809941874e-05 -9.230705558597308e-05 -0.959305570447573 0.09118352809549769
4.042857142857143 -0.7576924560139724 0.4432951824352449 -0.0002074799576948655 0.00013839270074756844 3.8664938409958695e-05 -0.00017551830000144688 -0.9633004117899725 0.08830645604581208
4.043285714285714 -0.7509685599591862 0.46003210385381327 -0.00023231187219301323 0.0005899960795978948 -6.493798565008053e-05 -0.00022306042808756626 -0.9641858900255532 0.08635775538408826
4.043714285714286 -0.746807952096996 0.4620189807437166 -0.0004733959964174171 0.0004639244875094986 4.2834479275088004e-05 -6.235106430130201e-05 -0.9668937771343601 0.0829957911068791
4.044142857142857 -0.746330910209208 0.4713259696089924 -0.00014424811485030698 0.0006139992043997808 4.8735891972325496e-05 0.00020121115545973145 -0.9627760133917707 0.09738777707505206
