!Created with skrf (http://scikit-rf.org).
# Hz S RI R 50.0 
!freq ReS11 ImS11 ReS21 ImS21 ReS12 ImS12 ReS22 ImS22
4.0 -0.8492874083415264 -0.25177088746492404 -5.5944519803423034e-05 -0.00014943193951360843 -6.824698534745498e-05 0.00018300376951519565 -0.9627396374066677 -0.12984333345555593
4.0004285714285714 -0.8549130040148445 -0.24558298338965795 0.00037221164272189096 -9.707478343064882e-05 0.00016980333195942571 -0.00015342761718226488 -0.9700050271334516 -0.12181815207782482
4.000857142857143 -0.8590463941948634 -0.23539419412522417 8.434739469415782e-05 -0.00037488772476365883 -5.922707483778123e-05 -9.094622317123179e-05 -0.9658283210334448 -0.11592162753136868
4.001285714285714 -0.8525808977638801 -0.2309133134409082 0.00013774569566861168 -0.00011172306081953475 0.0001102314437154804 -0.00020105161209847737 -0.9644745915614181 -0.11646905231723377
4.001714285714286 -0.8607992301224414 -0.22397350866390225 0.00022772557747284018 -0.0001998462267673486 -8.177329360936614e-05 -0.000307767213306057 -0.9663056838894591 -0.12118087057041439
4.002142857142857 -0.8584282248815435 -0.22148225692286544 -7.493727182646553e-05 -0.00014308127725331783 -1.7513516551355966e-05 -0.00018521786541992734 -0.9643542343613437 -0.11006922237968136
4.002571428571429 -0.8620205565589583 -0.21156535043678362 7.28534641745169e-05 -0.00018878681686330676 8.527903141518006e-05 2.6156273197912486e-05 -0.9710917018584568 -0.10557134677746709
4.003 -0.8657445823591182 -0.2015229779731828 -0.0002175958976673093 -0.00013799421822165617 -4.7201189901917695e-06 -0.00021757791662388803 -0.9698620785650147 -0.10431527234204395
4.003428571428572 -0.8676183144000388 -0.19616967589765483 0.00042660108670764175 -0.000173571729562601 -2.111089135524105e-06 0.00024068500028193399 -0.9635194454038895 -0.09921240764904234
4.003857142857143 -0.8631424658715033 -0.18806040759746928 3.261145477714026e-05 -0.0005574689543746352 4.523659423489948e-05 -4.373231798041758e-05 -0.9698260901581525 -0.1101362865055733
4.0042857142857144 -0.8752884832709643 -0.18179983121913434 -6.754423940012787e-05 -0.0004108314779722719 -3.0775615895570333e-06 -4.131466053335206e-05 -0.9642056431686585 -0.09776933543148776
4.004714285714286 -0.8705459751720893 -0.17189279640540728 -0.000217704814052895 -5.860289840286566e-05 -0.00023278102523095835 0.000325406733974327 -0.9600568122643532 -0.10734588640826916
4.005142857142857 -0.8709460583583192 -0.16453797879128954 0.0002517633074391099 -0.0006218260446741727 0.00022650302982101528 -0.0001576049956037006 -0.9680787078467245 -0.09610322694168766
4.005571428571429 -0.8727567316904852 -0.15830174212370982 -4.475449916221256e-05 -0.000534841248444068 -3.9943099702245416e-05 -1.4285316146826342e-05 -0.9606850727818549 -0.09595264575229306
4.006 -0.8764896977655167 -0.1556620596924501 0.0004636394575348595 -0.00012614181476216992 0.00010729947971568393 0.00018207189564259737 -0.9717136494568881 -0.09264892211379451
4.006428571428572 -0.8773165306730207 -0.1494125873226914 -0.00015134694506605502 -0.0004798885646400046 -3.8295356008294295e-05 0.0002188650360223004 -0.9697159689690734 -0.09188115900644185
4.006857142857143 -0.8802997249219274 -0.13686015937332918 0.00010290595627100337 -0.00024039932114729398 7.564278097108342e-05 4.517036022380137e-05 -0.9641152753710646 -0.08669565929079032
4.007285714285715 -0.8830857882475054 -0.13098655005896934 0.0004098853714781358 0.00010144381785362691 0.00020232785199550667 -7.730929442387665e-05 -0.9684918977053452 -0.08013712434475481
4.007714285714286 -0.8810661745240064 -0.12589052045848637 -9.120111923435616e-05 -0.00013806265373459374 0.00021555452374974118 0.00013948145840586774 -0.9635274827649212 -0.0834527357754122
4.0081428571428575 -0.8817856843954556 -0.12316377088373275 -0.00014644225583306046 -0.0009989925665058557 -0.00012245099459280294 0.00019828813555766332 -0.9664135958113725 -0.0879128542850422
4.008571428571429 -0.8833669221677575 -0.1098068195576724 0.000277835951295532 -0.0004995832759481812 0.00020267043423526202 -0.0003339698602347549 -0.9643654022831427 -0.0770047314384832
4.009 -0.885396306282438 -0.10333924232204496 -0.00020688446789693377 -0.0004620006113708587 -3.6699211253158354e-05 -0.00012395915194705545 -0.9745869632495021 -0.08485917964683305
4.009428571428572 -0.8830283042103864 -0.09906428392853599 -0.00014709671283653607 -0.0005840959480513211 3.4995149782298075e-05 -0.00011579063267818105 -0.9772152375280475 -0.07496267431353244
4.009857142857143 -0.8852877697276146 -0.08868240618931755 -0.00037586442288644234 -0.0005885866337965752 3.313942912575256e-05 -0.0001668929856575134 -0.9674130907901103 -0.07061191263280533
4.010285714285715 -0.8882545350557853 -0.08076898234741153 -0.0003639311352552664 -0.0002896664448835082 -0.0002523780371721994 2.1111492585875648e-05 -0.9644689653823295 -0.0711609323782448
4.010714285714286 -0.8875716592834496 -0.07540981939987534 0.00042116346807013864 -0.0002113271427043628 3.3373292126199194e-05 -8.759974142615082e-05 -0.9694412383803575 -0.07122393278681312
4.011142857142858 -0.8830192883179853 -0.07115578682952721 -0.00011766141776687212 -9.765174072861847e-05 1.870942627762171e-05 -0.0001371752713284792 -0.9702359495034847 -0.06604262784549962
4.011571428571429 -0.8846476339802348 -0.05734534207214435 2.4926849531747674e-05 -0.00024719505849903024 -0.0002029138306742809 -0.00033881382538029724 -0.9728189603424078 -0.06515440659787998
4.012 -0.8880717977745154 -0.05644561724278422 -0.0001926280864849944 -0.0006604938068251907 -0.00013441847501018985 -0.00022346841241962628 -0.977364513701211 -0.06463863683383073
4.012428571428571 -0.8881318556139451 -0.04508246081678818 0.0004992633666082803 -0.0004756851421042306 -5.288855696479051e-05 0.00018827089526133746 -0.9632710845754385 -0.056388193565906075
4.0128571428571425 -0.8936736417653215 -0.035268371033177204 -0.00013911238366097633 -0.00021729017763589772 7.41435945655577e-05 -0.0002474338851907059 -0.965215633366753 -0.06411288628345528
4.013285714285714 -0.8829671877804236 -0.030453702663453444 2.4706071331806486e-05 -0.0001937603260015677 6.063558449503717e-05 -0.00015747216902843456 -0.9630575551796089 -0.05670211452387574
4.013714285714285 -0.887680552042645 -0.02231682115660037 -0.00019595216932946936 -0.000547350321968985 0.00014885240802028105 -1.0484594095381209e-05 -0.9751914164952746 -0.05187710075311294
4.014142857142857 -0.8872799135580147 -0.013878516933808658 -0.0002000330957315865 -0.00039187045159083645 -0.00029124268887184736 1.3328511908580626e-05 -0.9725934013628973 -0.04724967155162681
4.014571428571428 -0.8840878197746423 -0.012330175067138962 -0.00022055298424184322 -0.0003674462820142772 -2.355858741386098e-05 -0.00014761710461337691 -0.9685776973209755 -0.05273479386477193
4.015 -0.8954087885408218 0.00044105872379673325 -8.70465751623063e-05 -0.0002185103982092526 0.00015491581006026818 -3.828594024691544e-05 -0.9667657870581117 -0.05022312744749579
4.015428571428571 -0.8900208936413455 0.011925957427946058 1.2901961567732604e-05 -0.0005648878543818507 3.40300088552471e-05 -0.00017632154189203055 -0.9720445845135272 -0.04850510362700908
4.015857142857143 -0.8895787707248438 0.017786133826417916 -0.0002513232798471985 -0.00028490274266031944 -8.040402236898882e-06 -0.0004907998282259873 -0.9698044689245501 -0.045833796994054064
4.016285714285714 -0.8887074193012954 0.022552207884580344 -0.00034797670628338866 -0.00038318830132117544 7.003676725611787e-05 -0.00022878119100823546 -0.9640514222904076 -0.04151602618475673
4.0167142857142855 -0.8885114977229325 0.027453437014398927 -2.293988079616192e-05 -0.00014852312718168048 -3.126471505398839e-05 0.0001928109270270196 -0.9644994692830644 -0.04879740049140029
4.017142857142857 -0.8862445147340964 0.038561573772340735 -0.00012320912438483952 -0.0001063540833452608 -0.0002612171228465741 -0.00014645427502599155 -0.9619152877859016 -0.038577360857973995
4.017571428571428 -0.8900479601148722 0.04174996548219481 -2.5899597236237144e-05 -0.000713616859461063 0.00040219369666062005 -0.00037225159192557635 -0.9725665307488708 -0.04258762385559145
4.018 -0.8869918882320423 0.049562215755584144 -8.666970765609997e-06 -0.0001986883921312981 0.00033602632480427024 -3.428210462881544e-05 -0.9694804390756887 -0.03990038181655534
4.018428571428571 -0.8906976205470987 0.05803157347846995 -0.00011341553337255973 -0.00051132825246582 0.00010496626981240787 0.00032386328692184655 -0.9732649939542373 -0.03549930299817633
4.018857142857143 -0.8810143879636779 0.06755368690254387 2.5741368155559457e-05 0.00016011085758362012 -5.657250089309838e-05 -0.0004538435346340112 -0.9639228035539779 -0.02551104916339949
4.019285714285714 -0.8808219652111253 0.07793371387522152 -3.725723604550901e-05 -0.00020326074615590462 0.00012184523412591083 -0.0002700583304314566 -0.9702286242425888 -0.02657075873713282
4.019714285714286 -0.8872375033480866 0.08455826450765035 4.90570755027628e-05 -0.0005984267511153981 -8.148248582962287e-05 0.00013959182024394893 -0.9657637110902378 -0.028430217953347724
4.020142857142857 -0.8846658691400784 0.08958011009175508 7.360977100331578e-05 -0.00031144339250794494 0.0003366254383835209 -3.4704283826245376e-05 -0.9697652268094398 -0.025897357540480535
4.0205714285714285 -0.8845768621425346 0.10349919128251338 -0.0003495488257161085 -0.00015971400789619177 6.629168430767337e-05 8.04864898644422e-05 -0.96835631024422 -0.026838949591107397
4.021 -0.8802536822457179 0.1003481139312271 -0.00041357689479638176 -1.2930971548181791e-05 4.0580493638373716e-05 8.400820664364242e-05 -0.9659140556833865 -0.019396157664460636
4.021428571428571 -0.8799782215113882 0.11335479238922844 -0.00017676500198123568 -0.0005386572804552029 6.80810048321151e-05 -1.9932833893108182e-05 -0.9698049015797402 -0.019071947329088637
4.021857142857143 -0.8821422274330247 0.11664602989717753 -0.0002025946216769648 -0.00019743961451500647 0.00016817005455451196 6.855524097182764e-05 -0.9675994198989998 -0.01665857334603382
4.022285714285714 -0.8745172352393249 0.12222529832968562 -0.00016611001193186947 -0.0005949438819383421 2.578452941786826e-05 0.00015380126337090618 -0.9743190058824007 -0.009119422652764308
4.022714285714286 -0.8783601599536881 0.13736373752714107 -0.0006795879715794781 -0.00015570950506196853 -2.23728454044563e-06 1.236372719822198e-05 -0.9648635156175506 -0.014122496678931881
4.023142857142857 -0.8740895653486189 0.1409191644479191 -9.954869033832444e-05 9.358952873600756e-05 0.0002585905608950893 3.177254462949514e-05 -0.965065118072637 -0.007712459901610234
4.023571428571429 -0.8759682282952687 0.14346497572346556 0.00022074814076901273 -0.00031211475290606193 4.2229229448791074e-05 -1.6292234309812176e-05 -0.9618278124216556 -0.005733608562314853
4.024 -0.8716779347570639 0.1565955572086387 -0.00036256486252553597 -0.0006270532442211567 7.532748071547168e-05 -5.259631231326737e-05 -0.9704084351453989 -0.007143081172828244
4.0244285714285715 -0.874485555703221 0.16040859428128446 0.0006761147694453008 0.00012659172291144355 -0.0001691167579244578 -9.367037145133433e-05 -0.9712852823869514 -0.0012602436415354472
4.024857142857143 -0.8759746141190302 0.1715343562057984 -0.00016138283343698393 0.00012429140537280155 -0.000290219428797063 7.726467122944289e-05 -0.9657880979452285 -0.0008328762602086829
4.025285714285714 -0.8727212642208969 0.18087940919477197 -8.074572406618109e-05 -0.00044088426833331504 -0.0001286059057837694 -7.563285137394774e-05 -0.9674197735996117 0.003423204337167067
4.025714285714286 -0.8709230951403485 0.18706234340314376 -0.0002836027770524447 4.630502715056926e-05 -9.144393879490261e-05 -0.00018631955544274548 -0.9751950461439475 0.008676478869608782
4.026142857142857 -0.8728348842479622 0.1917975016548488 -0.0003044995752433909 1.7730443115258087e-05 0.00023220559160386985 0.0002974638549490326 -0.9684094965878508 0.00230328921282113
4.026571428571429 -0.8592869726772666 0.1992983500806361 -0.00038578286887478005 -9.301228787579517e-05 -0.00017147868307257124 1.4944496724353667e-06 -0.9744302362138475 0.00991635413645984
4.027 -0.862829634525366 0.20751789888989686 -9.055769035911961e-05 -0.00045140284255152475 0.0001262663401565388 8.33568951255567e-06 -0.9704079552243023 0.004736279839026251
4.027428571428572 -0.8668272600143637 0.20902041432919444 -0.0005486077466573363 -0.00030518587530453586 0.0002886879856218642 -0.0001588585863154637 -0.9653012128446447 0.014710278601463313
4.027857142857143 -0.8630073646806217 0.21719906280735513 -0.0004769640068500466 3.9753560595512764e-05 0.00027643265956088015 5.648023192226968e-05 -0.9738371966154046 0.011858249284953245
4.0282857142857145 -0.8603567378059104 0.23232779311731305 -0.0003219239671545969 -0.00048224153537735286 0.0003794994186407331 -0.00018550355802890377 -0.969190319820557 0.02203869624321959
4.028714285714286 -0.8646928456820202 0.22967961977072193 -0.0001003648686646188 -0.00017370071529814113 -0.00015187592128335046 7.229915300145953e-05 -0.9694515379334635 0.013841405756831088
4.029142857142857 -0.8575184008574549 0.24404804014114478 -0.00018813172243875714 -0.00011751804041874579 0.0003751387555566791 0.00033224169931736746 -0.9660859028784459 0.023879334918050648
4.029571428571429 -0.8561116210853735 0.24638266751484528 -0.0007395524775083346 0.00026512853538293037 -0.00021109153908472513 -0.00018266482834911142 -0.9630913059563934 0.02055428504753411
4.03 -0.8505370557248288 0.2526055987058747 -0.0002528634753164845 0.00020595424587108592 0.0002071729326889457 -0.00031795980223393774 -0.9717349844780152 0.0333475958529898
4.030428571428572 -0.8500049427598918 0.26439209532793523 -0.00025166137707287317 -0.0003272543363647211 3.215807074059966e-05 1.7281748379151455e-06 -0.9696485120938315 0.027947904673839105
4.030857142857143 -0.8522228679309182 0.2667541181884069 -0.00016647241313695108 0.00017041119595369593 -0.00012593383631499913 0.00040130788558553703 -0.9712579733345158 0.022614577027240547
4.031285714285715 -0.8435648826289246 0.27581985334030884 -0.0001619975767318133 -0.00020142124700187996 -0.00031709665665501194 -0.00016031364202843872 -0.9664973518493137 0.03429229210477396
4.031714285714286 -0.8407258384023368 0.2768463969423103 -0.0007423668132919987 -0.0003633628369111936 0.00022458937244147328 -0.00010221680694970664 -0.96598781461954 0.025217177272640865
4.0321428571428575 -0.8377980005381188 0.28773165351796304 -0.00036526175185301976 -0.00012986816161017332 0.00013881544763229644 -0.00030583326447829754 -0.9733162814905311 0.03537585544242216
4.032571428571429 -0.8398654194321414 0.2954085619004192 -0.00026640833505401956 0.00010229182982458733 1.3889614432441216e-05 -2.5862302789081037e-05 -0.9657795784248674 0.04253664182927951
4.033 -0.8389364445437174 0.3017523087603709 -0.0001040661228010134 0.00018245654313114038 -0.00034396104963170407 9.897653038407255e-05 -0.9636125872463464 0.043936990738718776
4.033428571428572 -0.8424516663617492 0.31127145877293927 -0.0003636052323583731 -0.0003180539833382597 0.00022063352665980222 0.0001442376052025572 -0.9616904874007334 0.0389600963304783
4.033857142857143 -0.8333409808522746 0.31612830551810533 -0.0005372920781257416 -0.00011188523623361915 4.634204625902314e-05 9.819808038369247e-05 -0.9631992440621833 0.045530582246071816
4.034285714285715 -0.8262462641321467 0.321350693990049 -0.0004769652617413162 8.199186619438146e-05 -0.0001657253505095252 -0.00011307246335612826 -0.9678565939745699 0.04323247180527999
4.034714285714286 -0.8198737686490187 0.33449445930668603 -0.0003375040911390876 -0.00013510788735976654 -0.00013065137826270606 5.445607360976227e-05 -0.9657189609746765 0.05089786819777585
4.035142857142857 -0.8218373240177947 0.33885580484091815 -0.0006113366888908891 3.8629691467621536e-05 -0.00011591867712628173 -0.0002922283011683807 -0.9690836713042138 0.052049367351417804
4.035571428571428 -0.8149465042828691 0.3449737771143159 -0.0004983073406639947 -0.000384433996951919 -0.0001422039877875385 0.0002262258788276952 -0.9663010513248081 0.056152566311535715
4.036 -0.8129919363206775 0.35422352388574696 -0.0007364856007443251 0.00013671024732134335 -0.00024617196132874203 3.482803518062857e-05 -0.9715201576488581 0.056448688669865785
4.036428571428571 -0.8209608567331939 0.3533115867251534 -0.00059990441231796 -8.99404542954e-05 0.00033572194568431 0.00014652442368248545 -0.9693849319912498 0.05254517541163497
4.0368571428571425 -0.8141326273021203 0.3655707707014017 -0.0007569641491537738 0.00031842360152087626 3.843888933784251e-05 -6.124435053731045e-05 -0.9711645536048048 0.05217764435336268
4.037285714285714 -0.8049739415393601 0.37376852416018 -0.0004920903289519158 -2.022452350655794e-05 -0.00015154258754283535 0.00026628247761919117 -0.9643325904688443 0.05864847888958543
4.037714285714285 -0.8030321149544284 0.3739471606256877 -0.00021193097372139633 -2.9512614005906294e-05 0.00010273969784650687 -2.4678386154477524e-05 -0.9696898173354148 0.05570476876247572
4.038142857142857 -0.8005790754057817 0.3932862904368045 -0.0004728179310050654 0.00018720032296179774 0.00029444636549872576 -0.00023562286378045588 -0.9623931228386124 0.06158913550911135
4.038571428571428 -0.8005865839672714 0.39105527867511103 0.0001658050903062039 0.00028095686857230323 5.9944227607209997e-05 -4.040257215384495e-05 -0.9597929351883419 0.06573305086215066
4.039 -0.7958793192623783 0.39354578839934684 -0.00034794149600635924 4.8757837190343696e-05 3.333334673938186e-05 -5.9209926906578294e-05 -0.9585443443504279 0.06409366413646356
4.039428571428571 -0.7883234677923834 0.4130843848314721 -0.00017510303828078438 -0.0002706789102684928 -0.0001228578748617297 8.580623355470818e-05 -0.9621250380166019 0.06981212523920675
4.039857142857143 -0.7916692956194233 0.41173716458091586 -0.00014727143413096353 -0.00017282716744059526 -9.186329852659248e-06 0.00012474215236931484 -0.971670328046044 0.0710266933445396
4.040285714285714 -0.7863943533773972 0.41334831447526765 -0.00011853423595996476 0.000189178379669525 -7.868867810312885e-05 0.00017934836201150754 -0.9648621368962267 0.07492939404825054
4.0407142857142855 -0.7865243916252155 0.4245656666072881 -0.0005272618008733828 -0.00045645739143448195 -0.00012934853430002582 -0.00012479111975199553 -0.9600952281874767 0.07711714190366084
4.041142857142857 -0.7738103145673586 0.4291502463587016 -0.000568115261984402 0.0001614264407858981 0.00025863051011617547 0.00020105512905124338 -0.9678736065697093 0.08526656934703715
4.041571428571428 -0.7723173905546848 0.4355133914386597 -0.0008188226856057071 -0.00018875534583352694 -6.814253345343552e-05 4.999603895173162e-05 -0.9663578019815978 0.08351486402284938
4.042 -0.7696292567664658 0.44604021660878224 -0.0008671940007145954 5.512774563926562e-05 0.00013087713715847054 -0.0003987349744562697 -0.9630112764564359 0.09056456985109718
4.042428571428571 -0.7646184961753567 0.4479624430229407 -0.00015749604969765506 0.0004144102937072659 -0.0002468458658954064 7.151550606820276e-05 -0.9602735613121737 0.09048962627214836
4.042857142857143 -0.7640054637154436 0.44751892673862315 -0.0005814611466929442 0.00025023701830849686 9.731856915067856e-05 0.00012032085123758942 -0.9640681801835093 0.08858089744652085
4.043285714285714 -0.7576021641971489 0.46413900947234116 -0.00032564193496566803 -0.00023672107701478586 7.610541517498728e-05 6.226477359427669e-05 -0.9642832534802636 0.08518823073488341
4.043714285714286 -0.7499634364500366 0.46539369427105276 -0.0005328813528666065 0.0001971145897126324 0.00022852358222519856 0.00038635127083075604 -0.9659560699849623 0.08294292537226929
4.044142857142857 -0.7516753646285348 0.4758871416612879 -0.0006987663018361362 -0.0005728722643853532 -0.00024509312465226214 0.000512877517614266 -0.9636248459155954 0.09633267509777384
