!Created with skrf (http://scikit-rf.org).
# Hz S RI R 50.0 
!freq ReS11 ImS11 ReS21 ImS21 ReS12 ImS12 ReS22 ImS22
4.0 -0.8460840182447995 -0.2523042725364938 0.00022838847780763896 -0.00011871289846006536 -1.6569669085795213e-06 0.00033367703310578027 -0.9636823985950792 -0.12935088658651084
4.0004285714285714 -0.853870656369641 -0.24605086739032678 1.2415863979953934e-05 -0.00017712178534572958 -7.781557901877698e-06 6.253947960665155e-05 -0.971553106359872 -0.12337801007147133
4.000857142857143 -0.8587698743684553 -0.23553238624328932 0.00029442338061144317 -0.00021478106829213566 0.00028388485186443694 -0.00023862925839343108 -0.966758381154188 -0.11623048225509647
4.001285714285714 -0.8530329987568471 -0.22942282921071025 9.282915254590025e-06 -0.0005483547732710608 0.00019329632494671063 -0.0001521924510088373 -0.9656917058698842 -0.11603905228884476
4.001714285714286 -0.8590226957831423 -0.2220270677752831 0.0005055264387914812 0.0002359263150953181 4.555687089769409e-05 3.3325423653455006e-05 -0.967231223523182 -0.12166992949275951
4.002142857142857 -0.8578711837243709 -0.22196004362321284 9.844363128677462e-05 -0.00029117360146721456 -0.0002595537076108024 0.0001703421893350895 -0.9647777730635888 -0.11193155272114329
4.002571428571429 -0.8602188841370216 -0.21181101183256795 -0.0001137914896878884 -0.0005864673669617889 0.00020161780631708864 -3.54345885625833e-05 -0.9699611343596338 -0.10509364995135764
4.003 -0.8663973782076241 -0.20106642515604317 0.00010396191033827109 -0.0006598053707136112 0.00013035273361141026 -0.0002622843946910222 -0.9697285500956816 -0.10386184328601313
4.003428571428572 -0.8662679017426123 -0.19630656933054044 -6.736914959736858e-05 -0.00027184144175998107 -1.506124610231533e-05 -0.0001158839839146999 -0.9611652486228153 -0.09782039637447815
4.003857142857143 -0.8637160405656563 -0.18740608910455528 0.00016854238191844307 -0.00023560436870332247 -6.789490061275982e-05 9.019313991711982e-05 -0.9710603600679997 -0.11251232719118813
4.0042857142857144 -0.8746705207512782 -0.18118670017599917 0.0002983533597628257 -7.646718102035106e-05 3.9353225227477775e-05 -0.00012633108148845033 -0.967610227054895 -0.1001452751939728
4.004714285714286 -0.8695764394772618 -0.17122740596810815 4.052279613267781e-05 -1.3420390455832977e-05 0.00015096827136744622 0.00011213539351858878 -0.960340285916139 -0.10896723421349623
4.005142857142857 -0.8719247370593999 -0.16235251837370102 7.321613963014897e-05 -0.00048583687528171133 -0.0002020532587893722 -9.67048822180155e-05 -0.9684358439119279 -0.09628457421577077
4.005571428571429 -0.8738310307571585 -0.1591363982251324 0.00014750298365550033 -0.00046509257887699713 0.0001538414815805869 2.4559903835056172e-05 -0.960126063945892 -0.09419558398660721
4.006 -0.8743000185996016 -0.1538940132124789 8.73990995516092e-05 -0.0004004938942532913 -7.64586437086816e-05 -0.00028529984966883505 -0.9723361160707392 -0.09392830183934008
4.006428571428572 -0.8755214350808868 -0.14916375372100382 -0.00011928953044302913 -0.0004798439743302301 7.530115575005222e-05 -0.0005262721840410518 -0.970710776442648 -0.09333711619993074
4.006857142857143 -0.8793917498429273 -0.13646055405605245 9.453733371466405e-05 -0.0001639318637205488 0.00010084201261019836 0.0001278304216447502 -0.9637981876405405 -0.08543260539310288
4.007285714285715 -0.8807059805940716 -0.1300873813185237 -0.00018424983371733637 -0.0003093890926972564 0.00015244049050841698 0.00010257088770613602 -0.9675626583094775 -0.07962576582448455
4.007714285714286 -0.8790510883475158 -0.1255510327351647 -0.0003590734289884977 -0.0004344564387690694 0.00032603823521080836 -0.00010831860975491922 -0.965254944255277 -0.08347097961873087
4.0081428571428575 -0.8798626574872057 -0.12279110146193474 4.777673246518573e-05 -0.00020640425244995565 -3.909243093741061e-05 0.00016843550605720388 -0.9689208781821508 -0.0872673309672545
4.008571428571429 -0.8837518690900041 -0.10826074349518608 -0.00014816203167074258 -0.00019126644361867732 0.00039899588525949887 -0.00018760421684833002 -0.9657656880984071 -0.07759535165420171
4.009 -0.885247252330329 -0.10472329185928494 0.00028589365427327765 -6.088417054233106e-05 4.817443976188797e-05 3.4843081032493824e-05 -0.9749426096016583 -0.08460992306601298
4.009428571428572 -0.8822137276908834 -0.09870573757872458 -6.403750939376452e-06 -0.00019240770970287526 1.923106244188183e-05 -0.00014132281814856226 -0.9771552228952984 -0.07721731377248432
4.009857142857143 -0.8844429408263998 -0.0889622393924358 -0.00014067744516773275 -0.00018359308862136073 -0.000300360738054533 -0.0001693667377104519 -0.9674935807020055 -0.07069916584340799
4.010285714285715 -0.887373617392693 -0.08125955858120981 -0.00012153638392734908 -0.00023010948335181603 -0.00010659115711072928 0.00012264851641807047 -0.9646143236047432 -0.07488684286853045
4.010714285714286 -0.8871781607263022 -0.07641475298951333 0.00021560347653025574 -0.0004397032721159683 -1.9850058429167278e-05 0.00027673767680496314 -0.9687698215595311 -0.07334726661015901
4.011142857142858 -0.8823938828832094 -0.07095496306089744 0.0001459814286531948 -0.0006106495694782374 -0.00012209221596778814 -0.0002182923095189759 -0.9708464140371945 -0.06491235945341721
4.011571428571429 -0.8836060850442792 -0.058312597092719964 -5.879562088940647e-05 -9.216561305311093e-05 1.8877397024626326e-05 -2.0697081565118265e-05 -0.9711816085276085 -0.06715659237077036
4.012 -0.8894404929181747 -0.05416121475419447 -0.0001743114850114906 -0.0001854774497708717 -0.00018326658753451582 7.709363872576142e-05 -0.9747358072536089 -0.0632967687565512
4.012428571428571 -0.8853639576581344 -0.04518864024605147 -0.00014718481298634797 -0.0006444890847192197 0.00011319162389718733 -5.662618189412666e-05 -0.9638931668644443 -0.057250436757992657
4.0128571428571425 -0.8906609840006037 -0.035576566106838854 -0.0003091849595383369 -8.761096315821637e-05 -0.00031324927166123293 -0.00019073062401111403 -0.9645911927153685 -0.06300162885340597
4.013285714285714 -0.8821418650445632 -0.031776017917502 0.00019177620512572473 -0.00019380917374702542 -0.00015757700285775998 0.00013143510217789506 -0.9636950453961215 -0.058470704750152716
4.013714285714285 -0.884826498523613 -0.020535030593571472 2.4247640472807514e-05 -0.0004098932603309145 2.7739937786440757e-05 -6.171691180187697e-05 -0.9762590882072016 -0.048709215364203695
4.014142857142857 -0.886043894681089 -0.013519199050243453 -8.620852715093486e-06 -0.0007781451335529696 0.0001509363071811455 0.00011379935615017954 -0.9717487186674475 -0.04727317234930692
4.014571428571428 -0.8840786559170865 -0.013174638722953354 6.462167236156419e-05 -0.00013755711121148006 -3.83963895077549e-05 4.376485889915692e-05 -0.9716520513582614 -0.05460403157484712
4.015 -0.893485115831762 0.0006181898397654036 -0.00025537528516068815 -5.92421959156417e-05 -8.910935018408007e-08 -0.0002807025565203685 -0.9649158828115836 -0.051550081354140465
4.015428571428571 -0.8901596451198429 0.010820483874587759 -1.2136057165486748e-05 -0.0004684644434161701 -0.00016591838981578865 7.236821625522598e-05 -0.9721167936882373 -0.04913493616203841
4.015857142857143 -0.8868636233690129 0.017617428313252317 -0.00017790561168111124 -0.0006155797702342919 -0.0001321531040997844 6.462052417429822e-05 -0.97111387495811 -0.04559667229626626
4.016285714285714 -0.8874889194906023 0.02331287141882963 -0.0002080598138177988 -0.0002674930547454273 0.0002633515657209445 -2.2490922781870237e-05 -0.9658609286472226 -0.04216247847778424
4.0167142857142855 -0.8867619708780207 0.028322825875655693 -0.0001069388464689635 -0.00021651068389906837 -0.00025532853730472445 0.0002533416182193201 -0.9665583128106706 -0.04942847826097533
4.017142857142857 -0.8836260147859976 0.039035629986830626 -8.169605188802407e-05 -0.00041242864255854565 9.524723719429135e-05 -8.962283838926665e-05 -0.9627942194989669 -0.040077819224411684
4.017571428571428 -0.8904245666792855 0.042492146144743885 -0.0004785963854036307 -0.00024937426624970204 0.00031542352114739635 -1.0330763566754842e-05 -0.9729524315118989 -0.042451247118489695
4.018 -0.8854825666073755 0.049186777543750226 -6.874217777751326e-05 -0.0003970036836708059 0.00012613268922470226 6.375476785459851e-06 -0.9722132502713559 -0.04038113760726569
4.018428571428571 -0.8896019188694825 0.05785696536034661 -0.0003845676971379614 -0.0006399564770358232 -0.00013612070452049372 0.00021661680907168483 -0.9715312371761061 -0.033717841358013034
4.018857142857143 -0.8826273249112587 0.06648626803012826 0.0001114433293332824 -0.00021738452904949068 0.00017525992468151252 -0.0002989674999898675 -0.9608216398082524 -0.027346272647616743
4.019285714285714 -0.8796735057372889 0.07866481485770598 -0.0001254862786706253 -0.00010951645651808963 -5.2323789124723025e-05 -0.0001593118124631419 -0.9721571883706412 -0.02930878694156868
4.019714285714286 -0.885503690833539 0.0849262541256047 -0.0004484711182240101 -0.00032484158964734335 -0.00022030457741799926 7.761030278487222e-05 -0.9637886860958891 -0.029538792406461994
4.020142857142857 -0.885430798672938 0.08772885040499205 -0.0007209185028836401 6.535817628121267e-05 6.762849355447655e-05 3.607144779003814e-05 -0.9685749050126996 -0.02743769960355579
4.0205714285714285 -0.882038710870966 0.10259843586771478 0.00027011659645728736 -0.0005934257381791085 -0.00017603129361604787 4.081135650774602e-06 -0.9690256715913205 -0.026548607007665398
4.021 -0.881392792297937 0.10084442998840042 -0.00020700215540862528 4.661910888594414e-06 0.0002766454480464748 0.0002296501090029577 -0.9659603589940915 -0.021670885405895037
4.021428571428571 -0.8795396646196453 0.11404192349460124 -0.00042419116978262533 -3.6919916651067236e-05 -0.00012978103786119775 -0.0001716000287652766 -0.9693507204979209 -0.021470160631729966
4.021857142857143 -0.8814369293735873 0.1165691793523033 -0.00010397197632786343 -0.0002674937732706953 -0.00010785651204466741 -0.00010532414601515744 -0.9668052840961949 -0.017676003427590667
4.022285714285714 -0.8738716059975894 0.12039722424094945 0.00028974305513134146 4.708483833084752e-05 -7.929714128956187e-05 0.00041941878942048196 -0.9747514196649 -0.009097089933309481
4.022714285714286 -0.8785063842615204 0.13735492247930609 2.0357481018896862e-05 -0.0005582148732967905 0.00014941705753690072 -0.00020527456278269965 -0.9660523310429076 -0.014666739028544857
4.023142857142857 -0.8735997904220979 0.14172580823504566 7.901549207284112e-05 -0.00021672005782385988 3.323890516288469e-05 0.0004025704705125299 -0.9674287720740207 -0.00843796054972368
4.023571428571429 -0.8749500756550134 0.14281742584331367 -0.000527342557997468 -0.000719599919516801 -0.00028576311288933397 0.0006403425299860127 -0.9613513885521449 -0.004244428476605645
4.024 -0.8693282987265484 0.15537327761603723 -0.0005247965129160994 -0.0003469325042209226 0.00013308864140420157 -8.758922116909103e-05 -0.9710332912435952 -0.010170599898832297
4.0244285714285715 -0.872593319706538 0.15947963612241706 -0.00046478508732788755 -0.0004662891081651632 -0.00019083003248534006 6.370417794826474e-05 -0.96973963441555 -0.0037632720224322993
4.024857142857143 -0.8721067021060819 0.17110321098907877 -0.0006947357087102132 -0.00017511354797035845 0.00011168147012261735 -0.00021660676496519432 -0.9676870112877729 -0.0028413993267504267
4.025285714285714 -0.8717972568675557 0.1792885268720521 -0.00014882390942810478 -0.00029137643445161383 -0.00012897360096246097 0.00037602297942179134 -0.9672354634541669 0.0027413164750699206
4.025714285714286 -0.870125734959772 0.18488823094669127 -0.00017796421377630256 0.00021559972422383985 -3.2375922918608434e-05 7.943883489854427e-05 -0.9763851777337311 0.009191689262638284
4.026142857142857 -0.8732425813097774 0.19135910905097853 -0.0009316625103420676 -0.0007029976985973271 6.28263150567155e-05 8.724052052981557e-05 -0.9701009214833408 0.0029644916379967367
4.026571428571429 -0.86004086489416 0.19978823418356398 -0.00014346830363876152 -3.518138402414051e-05 0.00016779874454261523 -0.0001158253251324348 -0.9741736172490747 0.007481224159013314
4.027 -0.8627474417880518 0.2075859004587939 -1.0987548734381327e-05 -0.00032008675721256346 -8.721501264222659e-05 -0.00015349747247396425 -0.970410130999136 0.004213637537561519
4.027428571428572 -0.8663306118939 0.20609278586849206 -0.00042198474406977024 -0.0001750930981983469 5.877243684917557e-05 0.0002727931551293881 -0.9665532345286652 0.015144154868932688
4.027857142857143 -0.8598740449151568 0.2161507727515885 -9.533807219901164e-05 -0.0004429651148288704 0.00010105948614771156 -6.260566013335381e-05 -0.9762593993841494 0.01121043799112141
4.0282857142857145 -0.8601409195476551 0.23062663126582567 -0.00026782535196659613 -3.9660154796525095e-05 -4.0633745337899786e-05 -6.786180033464887e-06 -0.9725019893285655 0.02263202542359125
4.028714285714286 -0.8637168008355853 0.22985213261382526 -0.00013043595329227382 0.00032564569515520494 0.00010537298689391653 0.0001412134070591542 -0.969578784140521 0.013555560558205502
4.029142857142857 -0.8570937890897563 0.24462859851432214 -0.0005277034659356937 -0.000444427379445018 -0.00011152836871742631 0.00032361605969567813 -0.9699090554482372 0.022987208242468644
4.029571428571429 -0.8552139701720174 0.246377484462447 -0.0005491041281034919 -0.0003834586302529481 4.6287051655039234e-05 7.101199805961922e-05 -0.9637319668967431 0.020142820251020307
4.03 -0.8502674909728867 0.25230520446426524 -0.0007561121506616487 -0.00010265817379712917 -4.227080491082697e-06 -0.00012821357714075976 -0.9725498513099775 0.03220407153370631
4.030428571428572 -0.8490354001208976 0.2627777881576305 -0.0003116383069109162 -0.0003023976540057453 6.949706301202625e-05 4.0491387849592546e-05 -0.969128077696173 0.028642771133909548
4.030857142857143 -0.8493792271761734 0.26684186922256986 -0.0006821785898766152 -0.00032502254474896046 -0.0004268767370639646 6.246648235507138e-05 -0.9713903245992414 0.0214432801420809
4.031285714285715 -0.8435583908091394 0.27523183832500375 0.00011659727964542983 -0.0003813583514983611 -0.00023849075969161902 -0.0003402125904023016 -0.9682896634935793 0.03330050544338368
4.031714285714286 -0.8403465042230774 0.2771494424263808 -0.00023593844161667153 -0.00017994051574862823 -0.00013471732653632 -0.00013977942019475 -0.9640687189186696 0.024995699289666325
4.0321428571428575 -0.8358398140384583 0.28636610835404974 -5.3070007731211266e-05 -0.00018656203668278236 -1.2796896408878037e-05 0.0004206189775262005 -0.9717085159334916 0.03471075988675627
4.032571428571429 -0.836194605332153 0.2950749098866372 -0.0009001216479366652 -0.00021259094625254398 0.0001827327902092358 8.76326852824841e-05 -0.9665167010302163 0.04401395692057424
4.033 -0.8371097862681948 0.3012763968053602 6.887359041144035e-05 0.00015049209356980233 -0.00015439846563137038 0.00014949504954836474 -0.9658733670419895 0.04442595044371041
4.033428571428572 -0.8410773764506092 0.3105976141615789 -0.0004169788247218593 0.00025858724995624614 2.77503138392124e-05 9.571261668027996e-05 -0.9636334899003542 0.038840524389813204
4.033857142857143 -0.8315992773209677 0.3156460380408456 -0.00022611637442042175 -0.00020575388959813233 -0.00017574050128795304 -2.73040041095745e-05 -0.9642902711870812 0.04435420619312899
4.034285714285715 -0.8239196595229842 0.31983984616560385 -0.0004452303470352836 -0.00010579833819877922 -8.454645082582035e-05 0.00018508680983193529 -0.9665397110123018 0.04097289145190961
4.034714285714286 -0.8201115859319528 0.33578360011965985 -0.00042203423044374303 -0.00039892447617903895 0.00012071694500838757 -2.060572473089675e-05 -0.9656297164895286 0.05243517306448623
4.035142857142857 -0.8200686263528222 0.3370198480375212 -0.0004494537192690898 0.00016122802341019842 -7.980331712743614e-05 8.602688161731247e-05 -0.9691168912062113 0.051465561536817174
4.035571428571428 -0.8150036082178963 0.3447747484749887 -0.0007894130186480619 -0.00041566677815763265 -0.00019094180961903062 0.00025839447979262973 -0.9668616171119495 0.054044599310639235
4.036 -0.8118434026572254 0.35484206458463396 2.205448274312146e-05 -9.980549471113546e-05 -6.236201070191257e-05 4.6839131372769125e-05 -0.9686077238429265 0.05622484790291232
4.036428571428571 -0.8181187037680172 0.35387619140325327 -0.0004412851958155504 -0.00021180248400313396 3.7965198280335876e-05 7.755816059215365e-05 -0.9694908397417347 0.05114909531364982
4.0368571428571425 -0.8130620366434045 0.3654594076588248 -0.0005381124403609038 -7.113013116493001e-05 -0.00022883666484001795 0.00013750691564460364 -0.9708188875264602 0.050259035151410864
4.037285714285714 -0.8034042128632544 0.3714662965569796 -0.00048687497734089364 -2.6848891416682017e-05 4.388091499797508e-05 5.00644974672853e-05 -0.9631219959687916 0.05854542929348728
4.037714285714285 -0.8027275436785332 0.37286466958848485 -0.0003144347244901489 -0.00016547299323204582 -9.977314056055258e-06 -0.00019280884829965758 -0.9703521500337151 0.05597806533444941
4.038142857142857 -0.7998150451216277 0.3927142264700035 -3.3735507554676674e-05 -4.536228614408344e-05 8.280314992987459e-05 0.00014711018890565443 -0.9646732226196869 0.06286581777046865
4.038571428571428 -0.7990858526685535 0.39179342210993523 -0.0006350728423407372 -0.00014121066236132495 0.0002241134185981412 -2.057976963979453e-05 -0.9604906862286193 0.06783213547690847
4.039 -0.7935013587957054 0.39483989829697486 -0.0007807217879328547 -0.00019216836221416138 3.980345735392509e-05 2.2599084998436425e-05 -0.9591300333294797 0.06310956439811322
4.039428571428571 -0.787168303587442 0.41208349618013246 -0.0007503220670743705 -0.00016950200566281237 8.723443787472725e-05 -1.0051266138388272e-05 -0.9642979815120802 0.06894075136129324
4.039857142857143 -0.7912308073252718 0.41104034300806686 -0.0003509824168657047 7.468080190016218e-05 -7.561025822179802e-05 4.394622239955746e-06 -0.9703932519252407 0.0682537640240532
4.040285714285714 -0.787468108263812 0.4113848078719044 -0.0004585661708811813 0.00010932984708271721 0.00025206216203922785 -0.00011737655974796828 -0.96413044870273 0.07449001800046035
4.0407142857142855 -0.7866542109568233 0.424179828572367 -7.369820021630774e-05 0.000293660997644144 0.0002160468679646957 -0.00033771396727493334 -0.9589615719603497 0.07656701836693623
4.041142857142857 -0.77328578748049 0.4291976096657961 -0.000146608667559171 -0.00029682278514046927 -2.9075472254366098e-05 -0.0002757204298150564 -0.9689383855618763 0.08486556868340771
4.041571428571428 -0.7712236609513966 0.4359374748126105 -0.0002723319288666098 -0.000619017085919014 -0.00017188987028393185 0.00020309326292176222 -0.9659883372074128 0.0849555286931376
4.042 -0.7670520218173461 0.4454580236071936 -0.00028109855314829407 -0.0004079907049010471 0.0002069626357161471 -7.99664115170891e-05 -0.9632876760545789 0.08838174791161868
4.042428571428571 -0.7631780723206445 0.44840234492720554 -0.00044452851549490937 -7.477395974214346e-05 8.254900221780878e-05 2.4847659120040297e-05 -0.9605807491664262 0.09279211783057928
4.042857142857143 -0.7627167977579082 0.44485938697928085 -0.00021353846467659233 -3.972030323301628e-05 -0.0003477258677595293 -0.0003803346166433303 -0.9652830754404605 0.08802813969699128
4.043285714285714 -0.7573922291923717 0.46488789543115117 -0.0004922091997397989 -9.841417154057295e-05 -5.5793099163373496e-05 -9.84057787461126e-05 -0.9644522925841963 0.08408897213989452
4.043714285714286 -0.7501662999514904 0.4648935297557887 -0.00025733728168352357 5.917063460846563e-05 2.594397569089086e-05 -0.00026568495263876233 -0.9626985146279493 0.08203046304087123
4.044142857142857 -0.751209952380925 0.47504603625967856 -0.0006593205936957337 -4.520527674690131e-05 -0.00012244264324056038 1.4221130606114246e-05 -0.9635058707906909 0.09624217436489527
