!Created with skrf (http://scikit-rf.org).
# Hz S RI R 50.0 
!freq ReS11 ImS11 ReS21 ImS21 ReS12 ImS12 ReS22 ImS22
4.0 -0.8349383460260146 -0.25582138466298754 -5.33788179155142e-05 -0.0003283545738987684 -6.0196616148345186e-05 5.7071873051890666e-05 -0.9626733375724111 -0.12935335757540986
4.0004285714285714 -0.8401964585110919 -0.2495310459769112 0.00034465978661770807 -0.0005111785091442144 -0.000117634891878864 0.00015519644866892663 -0.9698013552987587 -0.12198680313818877
4.000857142857143 -0.8449483273271544 -0.23886534765000236 -0.00036953261968930947 -0.0004744382450876156 0.00021410887190625744 6.942035060117165e-05 -0.9657736781696382 -0.11414724195269957
4.001285714285714 -0.8379041795380294 -0.2346909000006341 -0.0002569087089479204 -0.000736081210101802 -0.00019221797292395676 -0.00021307600074630753 -0.9643971168461404 -0.11419352891750832
4.001714285714286 -0.8452523143331118 -0.22701785561036428 -0.0002735497603713343 -0.0006391293888945073 -2.1537768944614048e-05 -6.559423238784597e-05 -0.9665122009867803 -0.12036813160540634
4.002142857142857 -0.8442875365690857 -0.22741587814930467 -0.0004269103782346715 -0.00040205771616186147 -0.00010357220489509327 -0.0002296009835042022 -0.964312243759873 -0.11100787787516131
4.002571428571429 -0.8479125802732947 -0.21718231149625977 -0.00023636525112001927 -0.00044704944485818266 2.2969955937755575e-05 -4.720428194893197e-05 -0.9697716078508867 -0.10461376750711417
4.003 -0.8506773587889412 -0.20449748900311657 -0.00020296623606396046 -0.0002790985489938934 0.00012137982714189773 0.00017216088011970412 -0.968060708635016 -0.10326567054429785
4.003428571428572 -0.8535334092019414 -0.20364512383019906 -0.000423897521309185 -0.0005855869267274396 0.0001526234674727474 -3.642602717919824e-05 -0.9615650073933454 -0.09905142066174134
4.003857142857143 -0.850139330421925 -0.19256458061980244 -7.2149995933248e-06 -0.0005505673209264839 0.00012745365901232 7.038619379368272e-06 -0.9708076536320362 -0.10993916965845275
4.0042857142857144 -0.8609159521034984 -0.18693538106788776 -0.00012833621433905204 -0.00010308821268559777 -0.00029245978390942296 0.00011303831130540323 -0.9648005826824995 -0.09776600460279634
4.004714285714286 -0.8555059896517822 -0.1766580698007732 -5.202216609366591e-05 -0.0002556464410264457 6.73025985173038e-05 -0.00011911530866397642 -0.9588651533979827 -0.10757446644679597
4.005142857142857 -0.8578229873147393 -0.16908670163768524 -0.00029542106193037357 -0.0002629881486419001 4.821510791721796e-05 -0.0001449579528465796 -0.9672005656264017 -0.09609756612250307
4.005571428571429 -0.8594245657271302 -0.1626309945130509 -0.00020764341752686698 -0.0003713599288715255 -1.1709252858468614e-05 -0.0002064911837371182 -0.9614289615749722 -0.09468825469149655
4.006 -0.8611397518415481 -0.15864160072705757 -0.000481202820649158 -0.00026381089475372327 -0.00011185163054024787 9.777745768169588e-05 -0.9706205617081438 -0.09261470219086154
4.006428571428572 -0.8624011782557411 -0.1561249322863541 -0.0005171187425199484 -0.00045933269605183706 -2.3239422466617007e-05 3.3646083282707387e-05 -0.9682751639067824 -0.09244372748437384
4.006857142857143 -0.8652808941349602 -0.1436748862344084 -0.00019933861901243272 -0.0005415771728077076 -8.783365942995412e-05 0.00025154453271265586 -0.9640770726869252 -0.08463129946078594
4.007285714285715 -0.8697796977346234 -0.1356107346453456 -0.000396964195243323 -0.00043125227771189436 -0.00026713921744814 0.0001162634856263305 -0.9691159728744145 -0.0780034532018592
4.007714285714286 -0.8653552424111212 -0.13090601682471362 8.883291003291435e-06 -0.0002885799998747571 0.00026711600280506046 2.6191225675596942e-06 -0.9621130226132814 -0.08209858175427173
4.0081428571428575 -0.8687648355266375 -0.12819723525031052 -0.00039284586164414905 -0.0004779061182822078 -6.05437342958604e-05 -9.531147972768059e-05 -0.9678325493629097 -0.08626683610074282
4.008571428571429 -0.871338856855566 -0.11459968916093731 -0.0006873631846853744 -0.000603873747135863 -0.0004220122306446223 -0.000217144709864212 -0.9652751432904673 -0.07656004594364457
4.009 -0.8715151362369049 -0.1102043069107744 -0.00019428803190438547 -0.00022648140228224815 -4.6489753233460185e-05 0.00013664904063687708 -0.973547319964123 -0.08318523793141595
4.009428571428572 -0.8691161519728291 -0.10539314533093477 -0.0005913381437816704 -0.00045353807836542604 -0.00015115728745514963 3.986203990020494e-05 -0.9773570749166494 -0.07585354800838051
4.009857142857143 -0.8711685835694613 -0.09430507862569944 -0.0004169567704855861 -0.0005944994176281755 -0.0001226396160746208 0.0003193029404380652 -0.967392123364597 -0.06924252513945321
4.010285714285715 -0.8741081194781702 -0.08735390031164857 -0.0003606969252998532 -0.00034481452762392744 6.116115596002303e-05 -0.00010292428370485956 -0.9666871455238035 -0.07248919366865293
4.010714285714286 -0.8739746313956469 -0.08268046659354715 -0.0003217173880959811 -0.0003408545203910902 4.5397385010884704e-05 -0.0003438406548590071 -0.9689104421537655 -0.07143448137303454
4.011142857142858 -0.8688125624945346 -0.07792521190976934 -0.0004813924342591273 -0.0004954907841144174 0.0002420516864320313 -7.211378217180183e-05 -0.9694584211806317 -0.06405162087973604
4.011571428571429 -0.8712219751023158 -0.06481703402540817 -0.0003702954905747366 -0.0003191303082752831 0.0003522150039328772 -0.00019223477583969037 -0.9720308161541885 -0.06661518705853194
4.012 -0.8754962522920949 -0.06118176409617447 -0.00045840922758569157 -0.00036772210264364447 0.00011721929446286235 -2.7849141554473557e-05 -0.9740354238681361 -0.06212832134360555
4.012428571428571 -0.8722939304784209 -0.05059839218041973 -0.0005174621163738848 -0.000232846562635106 8.911307663814159e-05 0.00011013084716139861 -0.9623760020359116 -0.053946927561612845
4.0128571428571425 -0.8812298925627293 -0.04240250911978264 -0.000632207882967665 -0.00035941742309565113 7.675746325421312e-05 -0.00010476235625586065 -0.9632024312657009 -0.06270595284088383
4.013285714285714 -0.8695694985866709 -0.03695221598628747 -0.000613139237904123 -0.0005304939944857001 8.6739016562165e-05 6.692735562620386e-05 -0.9601467562485497 -0.05641101294038005
4.013714285714285 -0.8735271718985039 -0.029407690129634734 -0.0006438968471804051 -0.00026388616893216634 -1.4482087112996576e-05 -0.00018544359015667402 -0.9750536669375647 -0.04983964881740519
4.014142857142857 -0.8751903848484609 -0.020970686972013985 -0.0003453562467149708 -0.00017649965930452335 0.000240267583322779 -0.0002022028510666489 -0.971224493264222 -0.04584423726724077
4.014571428571428 -0.8704871645855035 -0.019032610080236795 -0.0004707473647942439 -0.0005679019804630275 0.000134605013549567 -0.00011753419796329196 -0.9698284205541602 -0.05266437168406017
4.015 -0.8823638978498691 -0.007574747155088763 -0.00013634235743536163 -0.0005883107808020066 -0.00038913352127882415 6.131175966485931e-05 -0.966084282470393 -0.05188669491690993
4.015428571428571 -0.8752804476022902 0.004297021755544823 -0.000515831356683607 -0.0004577452512944172 -0.00035949063822456723 -2.3191312587531466e-06 -0.9728347135795159 -0.04873988511834403
4.015857142857143 -0.8763487163588117 0.01114436941702883 -0.000449664236938114 -0.00032324265771071245 5.718401882487283e-05 -6.0589571868601775e-05 -0.9699919651340991 -0.04459309775478235
4.016285714285714 -0.8755969704091555 0.015201745361704653 -0.0003868436292635181 -0.00020784378114980422 -0.00010909448641464298 0.00010464693742547607 -0.9646997738507789 -0.040495361890874916
4.0167142857142855 -0.8765325739324809 0.023336068930550288 -0.0004108757687914766 -0.00012993141930714523 -0.00015447030116398321 -4.8648663482026914e-05 -0.9657286128775154 -0.04826152247860389
4.017142857142857 -0.873210149277158 0.030386392267223433 0.00011529670267917064 -0.0011291585287986421 -0.00013431639061340712 -0.0002808920596215188 -0.9605346723389798 -0.03928714690675663
4.017571428571428 -0.8775511126702145 0.034761071780699655 6.7296980078595e-05 -0.0002569975582626424 -0.0001409523325245633 -0.00015584288582543308 -0.9730789425498727 -0.03924173445250716
4.018 -0.8728712977630232 0.04169784046101843 -0.0009132126039631016 1.8106960304515577e-05 -0.00010698428876068463 2.0971583620526235e-05 -0.9680648937806247 -0.04028466287495332
4.018428571428571 -0.8762296134095224 0.04991337009932009 -0.0007521663495331945 -0.0003316400231953642 0.0002477987767748754 7.992791105091488e-05 -0.9712949782463827 -0.03235610946888597
4.018857142857143 -0.8696387973829685 0.06132566504514507 -0.0005105241638540635 -0.00019988859587477932 0.0003110677177346763 0.00018654823724726082 -0.9632053225316949 -0.02656113997126601
4.019285714285714 -0.869197026698179 0.07055255024733594 -0.0004799090941954647 -0.0004319573026094394 6.90319305335169e-05 -0.00030650171180056455 -0.9699966833618748 -0.026674005404087733
4.019714285714286 -0.8751906816941625 0.0760122603978992 -0.0006095604219971087 -0.00015990911617659682 -0.00029082490597449244 -0.00024773861423565285 -0.96602577850477 -0.026934495877029233
4.020142857142857 -0.87302251947183 0.08150628678973056 0.00011186288540615855 0.00017804311053462428 -0.00010049011302012978 2.5789380803647515e-06 -0.9682071512803683 -0.0227165509051663
4.0205714285714285 -0.8724046666665115 0.09465387261496154 -0.0005927805327120937 0.00020848013394724846 0.00017249470852446065 0.00029185426133117857 -0.9684405212018522 -0.024955476501812502
4.021 -0.8682320027960563 0.09211132906820844 -0.0005447643550449073 0.0001230470991103626 -6.343653193993484e-05 -8.38037846441468e-05 -0.9661170293873129 -0.02004414946735221
4.021428571428571 -0.8678832863754972 0.10784543784827895 -0.00017042890292912313 -0.00017410633381730815 1.0969019791026942e-05 2.8121893893649762e-06 -0.968250091233302 -0.01669531460221779
4.021857142857143 -0.8704486784961881 0.10946612933740087 -0.0006225536720421116 -8.347215484839621e-05 -0.00011359793703868025 0.0001384890309523611 -0.9652342803830676 -0.014285278300837041
4.022285714285714 -0.860595651613552 0.11479088837977833 -0.00047550195447180853 -0.00010529451070058237 0.00033661744931594105 -0.00015191065129434585 -0.9758511496934917 -0.00918143900921455
4.022714285714286 -0.8664945956113863 0.13052266453881195 -0.0009606275886760592 -0.00033547356939948235 -0.00039376094930052084 -0.00014241600845266074 -0.9659783976580999 -0.011954489411196994
4.023142857142857 -0.8629427632354707 0.13308078380690733 -0.0007586112683596607 0.0003242292962402573 4.9013758223412936e-05 0.00010812242863010405 -0.9661084023481161 -0.005454001702457822
4.023571428571429 -0.8639510391742082 0.1355286518715957 -0.0006874604853570268 0.00033827083994462324 9.039499424272303e-05 -0.00014102983247369757 -0.9629273163169354 -0.0033295995234393964
4.024 -0.8604804011484911 0.1484804185767256 -0.0006665939905082282 9.469614338839515e-05 0.0004049380625437973 6.759117249934557e-05 -0.9710926957710968 -0.00576119708513122
4.0244285714285715 -0.862112851782712 0.15100710519577637 -0.0002583934316423469 -0.00010316191206467081 -0.00013556930529981312 0.0001239878790530946 -0.9691533722583097 -0.001609927392809867
4.024857142857143 -0.8603518673029684 0.1633695768305273 -0.00047158783694929674 -2.3984989992385768e-05 -7.222472929394114e-06 -3.339060092180008e-05 -0.9675301587478206 -0.0013743439432400255
4.025285714285714 -0.860918451650364 0.17042127146452 -7.061072662903192e-05 6.610841114510914e-05 -0.0003228553034903493 -0.00037458711725115346 -0.966475940545485 0.004457700386421643
4.025714285714286 -0.860217618182267 0.17843651951641865 -0.00034824849359765326 -0.00016049977277393939 4.39915745015312e-05 -0.00019433463411672034 -0.9748566232391351 0.011738988844180181
4.026142857142857 -0.8621757844047968 0.18206620459430667 -0.0006112109716170967 0.00015401134962526845 -8.856034470811037e-05 0.00014478191168069493 -0.9683022301633165 0.0033863181156992186
4.026571428571429 -0.8487339144150645 0.1902897133096078 -0.0005013272419900684 0.0003614391691924491 -9.481948890545278e-06 -1.592805545689161e-05 -0.9730037246434718 0.006913858496938103
4.027 -0.8531261074512362 0.19798251891911758 -0.0009975888914076597 0.00040029579344369606 0.00014872551854372944 0.00029282349464165755 -0.969440768703861 0.005544413713783791
4.027428571428572 -0.8548663496193574 0.2001895623441361 -0.00030468698343452634 0.0003292394251457612 -0.00018489579644615216 -3.447286898671976e-05 -0.9659839352353091 0.01843128050342499
4.027857142857143 -0.8503087972852367 0.20639608429657486 -0.0007047601573963072 0.0002526622341903691 0.00015577772530036082 7.849456787774958e-05 -0.9748879085501018 0.012753571607237446
4.0282857142857145 -0.8486752616561681 0.22108709991858205 -0.000567983020809081 2.070349010118093e-05 8.453514071782374e-06 0.00011158281720450857 -0.9720422542472944 0.022802786055186985
4.028714285714286 -0.853422597885264 0.21913083662445687 -0.0008220185308956186 0.000691968874836233 2.071488595242337e-05 0.00010539787653731495 -0.9689804061964483 0.017066788989344914
4.029142857142857 -0.8469671263984753 0.23522217614050436 -0.0005568781607306047 3.9726587464447767e-05 -0.00025632912372797374 -4.811084396902026e-05 -0.9684504206892883 0.023785935078910064
4.029571428571429 -0.8449046520864695 0.23670760330571688 -0.0004962018163737761 0.0003327189595931358 0.00023663147499550712 0.0001252157513828536 -0.963389696343749 0.022919793729002276
4.03 -0.8394134562233259 0.2435118422324659 -0.0005798233118898541 8.445132203024783e-05 9.359390935825178e-05 -0.0001421807009077444 -0.9731399105335272 0.03290992505214116
4.030428571428572 -0.8383386581855327 0.2532748411743853 -4.923432935039332e-05 0.0003313430038793763 -8.496717791595207e-05 -8.283247549376121e-05 -0.9697192735633675 0.028720954727369727
4.030857142857143 -0.8393276274712943 0.2570814587724579 -0.0006666088582294257 -0.00016766641712791613 0.00010532704122863516 -0.00016154552491993732 -0.971192653595479 0.023142708436875357
4.031285714285715 -0.8346299547666179 0.2646978073825808 -0.0005540783831336502 0.0005463616327781488 -0.00014970728501325435 -0.000222200686791427 -0.9680267509201184 0.03481270070229771
4.031714285714286 -0.8298778226508177 0.26740689368067316 -0.0003824429762725846 0.000635373490409109 -0.00012565105601770234 -0.00010568370829573105 -0.9642378453347675 0.025253545318651198
4.0321428571428575 -0.8257187655868732 0.2790451764865234 -0.0009331360076028372 0.00019380813459262072 2.8311315278075637e-05 0.0003496080294190686 -0.9734974419827562 0.03633324397982453
4.032571428571429 -0.8281333165441342 0.28484666664064967 -0.0006068157036575667 -0.00018604645957837914 5.5066439258620465e-06 -0.0005077999593461038 -0.96608435092045 0.0452845430889259
4.033 -0.8267546910771616 0.29255874211069205 -0.0005465916386609348 0.000336865249280668 -0.00011578800183281744 -8.703142664240233e-05 -0.9657466173419597 0.045313814643672776
4.033428571428572 -0.8307567687995928 0.30138555591362143 -0.0002513944568315916 9.648473088177709e-05 0.00014297179354162294 0.00014378383698369207 -0.9627233166873331 0.03915585694565007
4.033857142857143 -0.8224484210669929 0.30787695663211273 -0.0004170143116778889 0.00014622204949501014 8.18634741367095e-05 6.157090872763583e-05 -0.9620866744937765 0.04496949292620434
4.034285714285715 -0.8157953717876925 0.31219088926903965 -0.00032946458830125576 0.00016346720124711425 0.00017016864703693797 -3.466783186711666e-05 -0.9660989434918936 0.04357636550134013
4.034714285714286 -0.8101902964704772 0.3238081147086827 -0.0009835142907731534 -0.0003179928679887395 0.0004127595479156547 -6.018306382919537e-05 -0.9667202008104969 0.05142818865856895
4.035142857142857 -0.8125094036320873 0.32649134298997423 -0.0001646480875655767 0.00026712291751264177 0.00011470110966544128 5.3475622829561185e-05 -0.9690617052191053 0.05128782241638099
4.035571428571428 -0.8058951897580459 0.3326124664845958 -0.0004031419594274149 0.00021000844495560082 0.00013643341343905904 3.934112054931217e-05 -0.9668917926330262 0.05708493070216492
4.036 -0.8021108022477896 0.34273540672169484 -0.0006250687838391262 0.000696424267260285 -0.00012593625067251833 -0.0002913072026183591 -0.9677376116462311 0.0570156811309031
4.036428571428571 -0.8112107621012831 0.3419203898346395 -0.0004733803133989773 0.00020263204369462591 6.151566898434353e-05 -0.0002749981408535965 -0.9669818940569643 0.051298884664354706
4.0368571428571425 -0.8039378848452441 0.3542763003526869 -0.0008044753452232226 -8.663010612685734e-07 -5.6039417754935594e-05 0.0003067775032081048 -0.9704889437083086 0.054921586533311174
4.037285714285714 -0.7954207740411233 0.36186631443074146 -0.0006005701991688063 2.7938364462943328e-05 -0.00013949882834425126 -9.917307571139338e-05 -0.9629878063284839 0.06077324602763613
4.037714285714285 -0.794506817767095 0.3620481263693461 -0.000594072703469377 -4.2005445625649e-05 1.39655735601681e-05 1.3024337509433622e-06 -0.9697616358441994 0.056772037755366246
4.038142857142857 -0.7906734118553995 0.38182452127627364 -1.8782784362692588e-05 0.0002186548075365273 -2.545581673306487e-05 -0.00022175319336080587 -0.9632270315972769 0.06281366767659713
4.038571428571428 -0.7902557446995484 0.3809202011519014 -0.0005211577026299208 0.00039116488892385553 -3.917275557508144e-05 -6.551772084892034e-05 -0.96029031926274 0.068014393597727
4.039 -0.7860949430191945 0.38322290007491516 -0.0004673259358229801 0.00041914221237364526 -0.00023211832281829547 -0.00038508994845955034 -0.9607821876375524 0.06596862829412578
4.039428571428571 -0.7780633270316252 0.4022286445726654 -0.0008495697540645292 0.00045739794581563513 0.00017340048540473064 6.03133243754912e-05 -0.9628904316539546 0.07112335977651073
4.039857142857143 -0.7818628219322673 0.3992224153645952 -0.0005501640579964794 0.00015255702369864607 -7.006287386202225e-05 8.2661779143502e-05 -0.9696044342021742 0.07100097337667578
4.040285714285714 -0.7782440479919152 0.39999387405938386 -0.0007378069052364042 0.0005487763947415313 -8.731226584921813e-05 6.279907175031777e-06 -0.9629983763176277 0.07643873021399232
4.0407142857142855 -0.776918659402991 0.41145439917892973 -0.0001959575904214279 5.946827695986527e-05 -0.00012440416106150408 0.00014757394504080008 -0.958669331511325 0.07712843627240495
4.041142857142857 -0.7643899556754327 0.41840691093633864 -0.00032337614617565145 0.0001457285895155478 -0.0001954902719090671 2.7018932824316673e-05 -0.9701813542555076 0.08778060953890679
4.041571428571428 -0.7641849200241169 0.42312884353118674 -0.0005228982578785377 0.0004039935705364339 9.32712733960218e-05 -0.0003585285600767705 -0.9658087530519714 0.08430679284763981
4.042 -0.7616728546967856 0.4328083117498701 -0.00045250152570058057 0.0005007682717200438 0.00015842099503774387 1.342475613433677e-05 -0.9619663890939298 0.0907311719510829
4.042428571428571 -0.7557563208751905 0.43731657777736505 0.00016235606312123505 0.000692159839914576 -0.00010753360320610113 -4.1932097493261285e-05 -0.9594862514799565 0.09153011929901463
4.042857142857143 -0.7546598227741728 0.43262233543201667 -0.0006468739005010449 0.00027666926239150295 0.00020270430396306774 -0.00019216458421223334 -0.9656393733632926 0.08843360896176346
4.043285714285714 -0.7478260907854625 0.4517314268277423 -0.0006655483529291369 0.0005976669822353154 3.532739845826583e-05 0.00015904302235954918 -0.9647431379751267 0.08713426215104887
4.043714285714286 -0.742059419495026 0.453668248337486 -0.00027813238756284336 0.000739599359975391 -5.894711576031723e-05 9.498131609911938e-05 -0.9665566970573618 0.08455343334541852
4.044142857142857 -0.7435531665548483 0.4630449155096334 -5.7540541921117174e-05 0.00021102993636804818 2.8949617126126893e-05 0.00010694560443437774 -0.962303733905748 0.09801756479126544
