!Created with skrf (http://scikit-rf.org).
# Hz S RI R 50.0 
!freq ReS11 ImS11 ReS21 ImS21 ReS12 ImS12 ReS22 ImS22
4.0 -0.8455836684868652 -0.2542510972652138 -8.655148593276552e-05 -0.000562652787074452 -0.00027936869537391145 5.8336871086524905e-05 -0.9654287132683015 -0.12987148973606658
4.0004285714285714 -0.8544664304811808 -0.2448851515179736 0.0004499163455687126 -0.00025204752367626 2.4725888554227034e-05 -7.093300387047024e-06 -0.9692148794846354 -0.12404088703986642
4.000857142857143 -0.8572903553149173 -0.23764308983172888 0.0003716418273181452 -0.00041307844768263856 -0.0002195119115272676 -3.2757555159545916e-05 -0.9668841359341218 -0.11422861477814204
4.001285714285714 -0.8507928902521409 -0.23084851635812814 0.0003548932079817519 -0.0003246804712289278 3.7359718646597464e-05 2.318628930782108e-05 -0.9624552561586599 -0.11577314034097295
4.001714285714286 -0.8584582995520582 -0.22304027717431615 0.00021640502245875155 -0.00036928605126282057 0.00013804343781457788 -0.00015561865823525555 -0.9668705035770379 -0.1204554704906878
4.002142857142857 -0.8559842979297531 -0.2216290609246773 -5.575617728099135e-06 -0.0004450615469557601 0.00027766719324248175 0.0001385532372252724 -0.9635530273920994 -0.11162267036626362
4.002571428571429 -0.8596621894311937 -0.21295299567236814 0.0002371641751354608 -0.000332008915565788 5.303741078919235e-05 0.00042667226458740104 -0.9696970667203583 -0.10486022623472585
4.003 -0.8643207364597951 -0.20100945585772642 -0.0002974681107667371 -0.0002885770516507298 -0.0001494417667490085 3.044004261474873e-06 -0.9689408098499636 -0.10613990270348686
4.003428571428572 -0.8675988862834967 -0.197505601086715 9.821839108684333e-05 3.7497191893759946e-05 -8.858389731716286e-05 -2.783221101633032e-05 -0.9603479328842044 -0.09708673688238927
4.003857142857143 -0.8623775524106566 -0.18888156182154697 -2.4166290443110462e-05 -0.0002722971062189783 0.000206035267631213 4.853207228825587e-05 -0.9717280682978012 -0.11014238397670655
4.0042857142857144 -0.8724026819010202 -0.18288511995848641 0.00025293849990936924 -0.00023257244281325181 9.040968312279799e-05 -0.0003893189529537307 -0.9661121521674092 -0.09988157051972793
4.004714285714286 -0.8685856163564698 -0.17374801352516497 0.00010193619228196423 -0.00028124710073944254 0.00012451339102358448 0.0001464617806525377 -0.961017020619073 -0.10838857919136592
4.005142857142857 -0.8715614456077712 -0.1636524180734258 0.00020786601762041591 -0.000422563251413747 0.0001637497595818663 6.733174915587637e-05 -0.9686346712347609 -0.09605844666885727
4.005571428571429 -0.8716288051090924 -0.15830198813407734 0.0001456167839959698 6.498523438018131e-05 -0.00023492983206847625 -7.521632252029131e-05 -0.9597640137718354 -0.09536510310364459
4.006 -0.8742431708129021 -0.15420123982078368 -0.00016269056522365735 -2.284417348976742e-05 0.0002504983939225134 -0.0001539546867227003 -0.9695428522769429 -0.09419507822800606
4.006428571428572 -0.8746209153725143 -0.14890988611805742 0.00039517216534319183 -0.0004490845231309761 -0.00016621472275727135 5.527396841026786e-05 -0.9686944128777423 -0.09212670858369304
4.006857142857143 -0.8783000005885868 -0.13700927515281017 -5.803220650952718e-05 -0.00027138660376308817 0.00018532500890707968 -0.0002690594014579517 -0.9636555597220269 -0.0866268639696828
4.007285714285715 -0.8813317615850357 -0.13098001393355468 0.0004915934744614175 -0.00016900016950930816 -3.0581048749464884e-05 0.0001217328836498296 -0.9694165428586473 -0.08007004875521466
4.007714285714286 -0.8795453485032928 -0.12619223259993842 -0.00037855690685051395 -0.0008179352239785842 0.00016856282331091058 0.00018348418650709688 -0.9632835438531631 -0.08476076986092754
4.0081428571428575 -0.8800408501057061 -0.1240087847453083 -8.417909914604269e-05 -0.0003086547118840246 -1.640479257969678e-05 0.00018237260672059776 -0.9674427807949668 -0.08762321348310897
4.008571428571429 -0.8820784141097416 -0.10951704459022135 0.00020133204415018378 -0.0002237429354199326 -5.7140186320947154e-05 -0.00013247179491015045 -0.9635264576262474 -0.07956909794035887
4.009 -0.8839198472744139 -0.1029329925172975 2.053985839984799e-06 -0.00027138902001753784 1.1220825535446432e-06 5.482722832318054e-05 -0.9736677156176708 -0.08536743356275006
4.009428571428572 -0.8806753764017431 -0.1000913155419805 0.00017343231891902666 -7.37415571741599e-05 -0.00030432703191373697 0.00016763452089664795 -0.9761890306873361 -0.07660907107021075
4.009857142857143 -0.8845373676791533 -0.08889227072585681 0.00011705918875530985 -0.00046282214662599487 9.877920054712978e-05 0.0002874636162980097 -0.9662854642456578 -0.06888109744851932
4.010285714285715 -0.8859210833583785 -0.08248078247625405 -0.0003197727429359948 -5.4798964834501965e-05 -7.699571588462959e-05 -0.0001945997228604052 -0.9637241417505777 -0.07399592614594697
4.010714285714286 -0.8857471777021675 -0.07562866641774953 0.00015778493889810356 -0.0002769685935726042 -0.00013120049769443267 0.0002320498742779304 -0.9695107917547692 -0.07140926492868138
4.011142857142858 -0.8814309602667819 -0.07006584848313697 0.00012697281075091445 -0.0005293836526974761 -0.00014898865517833036 2.2802732414313585e-05 -0.968194318820938 -0.0654915220195589
4.011571428571429 -0.8827213881662749 -0.05780848193849969 -0.00028801955380223913 -0.00046342601897207073 0.00016224181280725817 -0.00013352688855573967 -0.9705186093004331 -0.06758114939838125
4.012 -0.8874360563769673 -0.05409693114080336 0.0004063791015924261 -0.00023289274205182936 -8.280513570761385e-05 -0.00019793549867810946 -0.9741108826062387 -0.06317974669864068
4.012428571428571 -0.8849648990936689 -0.044912082141076906 0.00020968220901827398 -0.0003545506545436853 0.00020280975810782652 -1.5447596912598268e-05 -0.9628751255068897 -0.05637076714459091
4.0128571428571425 -0.8909268113671086 -0.03581646044118905 4.124985594613515e-05 -0.0006937837836645292 3.0900861303868295e-06 -0.00020933675312529327 -0.9635502411924026 -0.06328257192376359
4.013285714285714 -0.8812895044834727 -0.03253159346879895 -0.0002081525869691238 -0.00027655054916348896 0.00040231818472426874 0.00010051584583091277 -0.9620607890424788 -0.05826632493513911
4.013714285714285 -0.8846481527230488 -0.022871232931200136 0.00029486467227245563 -0.0004154264812933527 -0.000128051445089475 -0.0002379630177449414 -0.9749655351713931 -0.051371094679230726
4.014142857142857 -0.8842751345954953 -0.014231161937820216 -0.00023214765856602364 -0.0005369603905722256 2.6819055588434573e-05 -4.5293517889132974e-05 -0.9710290100586293 -0.04736783760498245
4.014571428571428 -0.8839090374939892 -0.012815387100129427 -0.0002191206507677989 -0.0006037105702326361 -4.9372891537943366e-05 0.00017021365529140575 -0.9700184728543393 -0.05172762484619541
4.015 -0.8936013759088648 -0.0007524691732785713 0.0002648514634738317 -3.408569652082194e-05 -0.0002231147438555944 6.608502322856777e-05 -0.966552361273364 -0.04927970261235025
4.015428571428571 -0.8885334086863692 0.009889804545116683 -0.0005231791171483732 -0.00028134412604069453 -0.00018204065811746145 0.00019423932727335777 -0.9709166309881652 -0.048952583310481045
4.015857142857143 -0.8874241849331351 0.01750112917571 8.610526418532409e-05 -0.0004590393333479775 -0.00021518982228158472 -0.0001559469792441895 -0.9690294309011966 -0.046223552749521196
4.016285714285714 -0.8864238875535622 0.02190838960223611 5.425202426286953e-05 -0.000595294306946475 -0.0002760890181872684 -1.5675076555657448e-05 -0.9664046194255217 -0.04151812337207548
4.0167142857142855 -0.8855502599271059 0.02922498573898632 -0.0001505273191486358 -0.0003611586166787388 -1.726054778448412e-05 -0.00017191820066628726 -0.9653409748332337 -0.04851590642095177
4.017142857142857 -0.8833392677833489 0.03893466341001399 -5.272954925069108e-05 -0.00024067000759891356 0.00010774937562141485 3.4377700772420825e-05 -0.9633147022928695 -0.04009297647203031
4.017571428571428 -0.8899574709926229 0.041398614876220076 -0.00019390712500858446 -0.0003467607085706295 -2.2384579620175838e-05 0.00018754550085109991 -0.9746334573531522 -0.0418361295536146
4.018 -0.8837237327969005 0.049044843640927 -0.00024633043524949726 -0.0002816611188982048 -0.00033517431930102945 -0.00010799756608668639 -0.9683815801948229 -0.04107652296917574
4.018428571428571 -0.8869156245607743 0.057657594629426906 -0.00048334841691030476 -0.00029258542043819456 4.899180162138114e-05 -0.0001610210360327298 -0.9712958118264629 -0.03372432083630731
4.018857142857143 -0.8806466952106566 0.0661230631605262 -0.000463482811565893 -0.0003569052345850817 -1.6562786408560503e-05 -8.047365554417735e-05 -0.9627147338568018 -0.026818246210196267
4.019285714285714 -0.8792765266922936 0.0785487256186785 -0.000585429882708925 0.00010657389853953821 8.238418174992658e-05 -0.00047513190067046454 -0.9719504493571797 -0.027753095896779878
4.019714285714286 -0.8852025069518054 0.08228365976862274 -6.308938451839718e-05 -0.0003488624221700727 0.00042286664332714274 0.00014197013534441452 -0.9640634150436551 -0.025402744366041462
4.020142857142857 -0.8845496708682007 0.08851984042848174 0.00010718179449643554 -0.0003579157223955188 5.925799187835028e-05 -2.9610235809409135e-05 -0.9679347118923192 -0.02563520177357215
4.0205714285714285 -0.8819608557541507 0.10242723047519063 -0.00012161514509217218 -0.00036012856298825923 -6.597051959522048e-05 0.0003375750203068559 -0.9687531500996154 -0.0255325799259916
4.021 -0.8800893809831734 0.10052551510554877 -0.00011520016917544859 -6.006579847640219e-07 6.006808183892409e-05 -0.00029865125373454464 -0.9675456604763378 -0.019523540914681555
4.021428571428571 -0.8773026414117482 0.11208345460567251 -0.00015393023983811607 -0.00031483962722002605 0.0002819246976974401 -7.253640365714097e-05 -0.969696093306884 -0.020412590812576795
4.021857142857143 -0.8801988308698208 0.11814431420074845 -0.0002470606054711125 -0.00023716770450593315 -3.490881222615491e-05 4.2156371709078706e-05 -0.9681802137881624 -0.015523680179525568
4.022285714285714 -0.8714503402297498 0.12139947013469986 0.0008120028275399704 -0.0007738027205745711 0.00038884664482158787 -2.7407272696654348e-05 -0.9738372700519914 -0.008954791565751555
4.022714285714286 -0.8774048807976715 0.13705394475239654 -0.0005016820913224208 -0.000946739210179521 -0.00012117991144824081 -0.00031694527729692355 -0.9661195362812278 -0.01285729509834099
4.023142857142857 -0.8747404968782797 0.14125346003900488 0.00018488748938691647 -0.00019254330945393976 -0.00030703741929959257 -5.810574153306803e-05 -0.968508341867302 -0.007765392137534462
4.023571428571429 -0.8748750240639831 0.1435353792593763 0.00018113396766338154 -0.00030888589803698696 0.00018916671502694049 -6.787626776248438e-05 -0.9631126590650002 -0.0049730091102916495
4.024 -0.8690261673224929 0.15525822741720408 -0.0008061966699038347 -0.00029867446372120355 0.00011631738493689394 -0.0003756989541561798 -0.9718480638241043 -0.008268791214452282
4.0244285714285715 -0.8725193929581847 0.1592977273488704 -9.540153138615809e-05 -0.000702333827951736 0.00013029005808730854 5.658693935193171e-05 -0.9701022728540261 -0.001683945211504139
4.024857142857143 -0.8732712020724421 0.17147279538716634 -0.00023290549043200365 -0.0003077225678531673 0.0001704361990508808 -4.5451641379390186e-05 -0.9670921444509997 -0.0004950361092919892
4.025285714285714 -0.8719035796289033 0.17839350224579267 0.0003069458627439237 -0.00020353053392325597 0.0004223377657406317 0.0003842944137885182 -0.9664475787878724 0.0018247658412809153
4.025714285714286 -0.8690902568111616 0.1843105620996216 -0.00019588509031478703 -0.00011241966576555057 0.00010664173691054253 -0.00013934198688966671 -0.9763480036261285 0.009993352148159072
4.026142857142857 -0.8718154626229513 0.19145008041369138 -0.0006479092949318723 -0.00024545756027443484 0.00013704880328093056 -0.0001587969174470423 -0.9698176876328742 0.003599543768831314
4.026571428571429 -0.8578607495896183 0.2005818649462945 0.0001895012757712813 6.781699802830586e-05 -0.00025000116870715547 -3.906962640023342e-05 -0.9743350329038466 0.007703364806147561
4.027 -0.861717711546256 0.20693933613503307 -0.0007138124522266984 -4.5097639441374056e-05 -0.00013652578140471123 0.0002714742523482497 -0.970763960607714 0.005261295302673167
4.027428571428572 -0.8659453910642924 0.20690398416504607 0.00019313861167220595 -0.00024645415268143066 0.0002254364522181768 -0.00028053925785438027 -0.9661417784496296 0.01635976809608787
4.027857142857143 -0.8608877961555852 0.21421902199842682 -0.00018928944752391168 -0.00038578362817205387 -7.75467364214646e-06 7.17831561345856e-05 -0.9748509935622862 0.012245827126732882
4.0282857142857145 -0.8587561541294612 0.23204240890559552 -0.00041962027069306844 -0.00018484656515221966 1.5685261378055528e-05 -0.0001220733383435301 -0.9700914662744337 0.02131033900397512
4.028714285714286 -0.8638988030199447 0.22750564216774327 -0.0001522446451231337 -0.00011968364282692098 0.00017300094610752227 -1.4132708388898028e-05 -0.9696397988673687 0.01315703015472157
4.029142857142857 -0.8548285748796901 0.24258203652702892 -0.00012920706607386353 -2.3664693812616845e-05 -0.00011345886362263404 1.989500990135413e-05 -0.9702274172837999 0.02403823482505856
4.029571428571429 -0.8541989044238011 0.24639217038678107 -0.0001570154471742632 9.666746283601046e-05 -0.00011239705778141491 -0.00022431250729006025 -0.9633065802374136 0.02305814268506337
4.03 -0.8491433326238402 0.25110473945120354 -0.00017160366604801713 -0.00039803514750935844 -0.00012469090700073613 -0.00012073110313235963 -0.9725897304520814 0.03145979816724302
4.030428571428572 -0.8489324124832134 0.26281728928719517 -5.2511575254111076e-05 -0.00014177229367457104 -0.00035623502014962106 0.00018771819063827437 -0.9695224080578768 0.028576381039082478
4.030857142857143 -0.8500390699374182 0.26661169095021453 -0.0004329200147619707 -0.0005673802349331895 8.82294083629179e-05 -0.00032977375066068753 -0.9697403876008501 0.02344843666991649
4.031285714285715 -0.8428270208749763 0.2751972116744835 -0.0004460246251502687 -0.00018649395778427396 -0.0002385046354155852 4.770388305131511e-06 -0.9667081203942007 0.035032109522956406
4.031714285714286 -0.839592464867067 0.2769326708649226 -2.1081258772636677e-05 -0.00014410245799121828 8.070252592119237e-05 0.00036272512523771516 -0.964270928238156 0.02488970045949083
4.0321428571428575 -0.8354989754757695 0.2865849651610081 -0.0002040995001819292 -3.242599099222475e-05 0.00010045496752811628 -0.00016994838748340092 -0.9732280005282535 0.03489913798271529
4.032571428571429 -0.8372386354374872 0.29609585304020053 -0.00022300862040722697 -0.0001817144522369218 -0.00019286913112445737 -0.00020759575836807066 -0.9661031971646886 0.04429916597174887
4.033 -0.8365638840323643 0.3005296597143295 -0.0004019219262129414 -0.0005214304246968678 -0.00010358027831421353 0.00012254284105940743 -0.9644449442619418 0.043919232828031465
4.033428571428572 -0.8398283967992077 0.30949462839464037 -0.00021714356689202124 -0.0002752320787938475 0.00021255806188027055 0.00010683598862024112 -0.9638503984112278 0.038910097389220674
4.033857142857143 -0.8312488904960803 0.31595963164485136 -0.0002531719939420187 -2.0160938444034864e-06 -4.360350594426339e-05 -6.691163839148136e-05 -0.962950544194682 0.04368209656513652
4.034285714285715 -0.8250286575361718 0.3229521499242035 -0.00040013188353234984 -0.00017981405120877773 0.00010095407615580751 0.0002789776513550026 -0.966795868078417 0.04122109576395861
4.034714285714286 -0.8179910257828512 0.3319580225821587 -0.00013809029191564088 -0.00045324172456201434 0.00020082560972162032 0.0002623700120100146 -0.9661612349711951 0.052172594036946345
4.035142857142857 -0.8211608603992875 0.3365926299258597 -0.0005216027347664617 -0.0004258124330933023 4.311924983974435e-05 -0.00010009024954478882 -0.9681820480676768 0.05332108838911206
4.035571428571428 -0.8120178343777475 0.3431302769752086 -3.799053886396338e-05 -0.00016752895982342095 1.6920781165326195e-05 0.00021623768098148898 -0.9661945247677812 0.05695385799614745
4.036 -0.8107855718255526 0.3539961750000015 -0.00026715158882241745 -3.4097538732070045e-05 0.00031703800774161893 5.865261804537358e-05 -0.9693851995681946 0.05880215558723174
4.036428571428571 -0.8187879493317244 0.351426388834703 -0.00048714876207547935 -0.00014136140454055134 -0.00010622081337735247 9.68907962343528e-05 -0.9679311204220302 0.052075779532726275
4.0368571428571425 -0.8118585515469854 0.3657783574545552 -0.00031902751047742936 0.00010941284117183098 -0.00041153143800278614 0.00012088894273917183 -0.9703304957605347 0.05357550512845311
4.037285714285714 -0.803207371678069 0.3706300439071481 -0.0002810978406486608 -0.00024847509986982845 -0.00027199230625301446 1.730058111689859e-05 -0.9629765378098829 0.05830567233247497
4.037714285714285 -0.8037019091944344 0.37252965156517653 -0.0006368752965874468 -0.0003294601742637501 0.0002440167621168733 8.177050701393031e-05 -0.9706500801705927 0.05560198491080504
4.038142857142857 -0.7985381175423932 0.39328967462376235 -0.00010009164149109024 -3.5283846817133174e-05 -9.035465750563943e-07 0.0003326163933521652 -0.9624829457700116 0.06324442332341887
4.038571428571428 -0.7987363810207374 0.39052049027922675 -0.00042126964949877957 0.0006317833772569106 -7.335233791922885e-05 2.8885827043668317e-05 -0.9583227526146049 0.06674783238372647
4.039 -0.7946855123380082 0.3937057901425839 -0.0005678618802827452 -0.00015805559962500998 2.5752127365155718e-05 -0.00014698468397671615 -0.9603816073000636 0.06399966055107445
4.039428571428571 -0.7859493052121524 0.41033777060356696 -5.2783360595481676e-05 0.0001445273562089279 -0.00010285940753784227 -1.956237966307353e-05 -0.9640464350331959 0.07034005201066947
4.039857142857143 -0.789800556364906 0.4097990208440703 -0.000156332854327885 -0.0003327597948284136 -0.0003802796201118643 -0.00012657883575854876 -0.9711836613258414 0.06984227688206476
4.040285714285714 -0.7849412215900402 0.4096173510251816 -0.00039959002693284117 -0.00011126924787931463 0.00012598324208747938 7.018773370279928e-05 -0.9640183302443195 0.07597702734833969
4.0407142857142855 -0.7864320445053521 0.4243270005950289 -9.990771750415406e-05 -0.00013475250810264308 0.00024894764404499123 -4.746590642227157e-05 -0.9593922470000589 0.07577532440323184
4.041142857142857 -0.7714191392728607 0.4285704707861515 -8.184685870208494e-05 9.000382825231986e-05 -0.00016268361691490482 -0.00031223228307037824 -0.9697022451604402 0.08599804752019342
4.041571428571428 -0.7706232869372904 0.43486488039323384 -0.00012797525796447956 -0.0002985624306363495 -5.803926407127111e-06 -0.0003623862684980908 -0.9646107848182766 0.08308138676046128
4.042 -0.7673520974018888 0.4462185278191415 -2.8159906103992218e-05 0.0003341178919058962 4.4330906334764445e-05 0.00027229371149979637 -0.9599559479216689 0.08958820054235789
4.042428571428571 -0.7613882814081101 0.44923394038072006 -0.00036472630063136497 0.0001717617051826735 0.0001399837545120872 -7.61992045368957e-06 -0.9583397901306931 0.09123756488764746
4.042857142857143 -0.762412009413663 0.443867792752492 -0.00037526047642451137 4.137700465360122e-05 0.0005562546146672922 0.00025895544534383316 -0.9652543921345009 0.08827410605860217
4.043285714285714 -0.756387780907002 0.46194956117625174 -0.0006583230889678874 2.8628739333696415e-05 -3.1007550213199325e-05 -0.00024051123524464392 -0.9629822554120885 0.08548968033917516
4.043714285714286 -0.7508114561151107 0.4634757063323726 -0.0005903377405154403 0.00019753936401252137 0.0001439418724090966 -7.411560691476521e-05 -0.9641253007594688 0.08366536744430855
4.044142857142857 -0.7487614828654353 0.47352637127044833 -0.0007177841728604985 0.00035598759898193327 0.00014669812854705566 0.00010329732631337341 -0.9641097897281674 0.09876470295814906
