!Created with skrf (http://scikit-rf.org).
# Hz S RI R 50.0 
!freq ReS11 ImS11 ReS21 ImS21 ReS12 ImS12 ReS22 ImS22
4.0 -0.8478150885413078 -0.25204621440026187 -0.00035665314536038325 -0.0005267557161654693 -0.00012495262900378114 -0.00010406352105089106 -0.9635916070165912 -0.1296633707281238
4.0004285714285714 -0.8560013534078109 -0.24544858684429402 0.0005449624316747692 -0.00042625049223013874 -0.00027407681078150145 2.124819118951393e-05 -0.9708752888853314 -0.12228761866083379
4.000857142857143 -0.8594885173550968 -0.23556866440138607 0.00033276464952191313 -0.0005021633160076915 0.0002918091483205299 -0.0001964789768383119 -0.965498407544892 -0.11563640243925204
4.001285714285714 -0.8533084392634998 -0.23109002503796208 0.0005122683871300385 -0.0002893763940384016 -6.023736351868174e-05 -0.0003665359465368515 -0.9633150087963711 -0.1159360924791381
4.001714285714286 -0.8593377266181875 -0.22360334997379133 -0.000208203112925004 -0.00014452365720329786 -7.838325320815e-05 0.00031795685170165087 -0.9659745976474347 -0.11971041377322728
4.002142857142857 -0.858599591415441 -0.2225675498247282 -0.00013674939985504003 -0.00027071183469920567 4.633985923443323e-05 0.00012858929380489862 -0.9668372546302423 -0.11129672931868308
4.002571428571429 -0.862433476369666 -0.2128780617331484 0.0003399473863509601 -0.0006602089796183911 -6.442740695766739e-05 0.00011567433632542493 -0.9708126966926173 -0.10548073685933115
4.003 -0.8661529199944259 -0.20188435987027786 0.0002691430682200613 -0.0004415305188300599 0.0001255711229118854 0.00032688026955998814 -0.9695607035022161 -0.1035528852259807
4.003428571428572 -0.8669491980709643 -0.19833618251920657 -3.9059115397387656e-05 -0.0002769794387679575 -0.00029617067702334 3.755370804440576e-05 -0.9632118612238716 -0.09823565288170152
4.003857142857143 -0.8649308799738119 -0.18895867481601167 4.321133576636499e-05 -0.0007592585390678548 -0.00011362704438806209 2.8696042214720483e-05 -0.9696586847322759 -0.10988020102682677
4.0042857142857144 -0.876407240137168 -0.18259799094489207 -0.0003126714544290541 -0.00023770397796762338 0.00018374020069797847 6.140081830609895e-05 -0.9667608831566611 -0.09767527377218038
4.004714285714286 -0.8695396553659848 -0.17322946537963274 9.938883543168762e-05 -0.0003974176789969936 -0.00021523605456608857 -9.460323306793812e-05 -0.9606469147289236 -0.10874348788421376
4.005142857142857 -0.872912899866941 -0.16540263734190325 -7.791368125136681e-05 -0.0001808397800870404 0.0002671543451979317 -0.0001716102401812913 -0.9688119312764919 -0.09546826225721747
4.005571428571429 -0.8736819488112569 -0.15816486550872974 0.000403506658547832 -0.0006643310559654876 -2.856511680740332e-05 2.8603815519994726e-05 -0.9594544066720807 -0.09404958604402815
4.006 -0.8767385243805093 -0.15486596614824982 -0.0002204567872772816 -0.0007336652627646147 0.00010708817100010123 4.945184974684945e-06 -0.9711148540256149 -0.0925414730542093
4.006428571428572 -0.8762023068675476 -0.14952231935111135 0.0002365329394253137 -0.0003822474378401684 -9.457392232668299e-06 -9.750644228209644e-05 -0.9678632593870925 -0.09351505894483628
4.006857142857143 -0.8822237185283605 -0.13764795617621492 0.0001336250971686196 -0.00030403462476220086 0.0002395096167724148 -3.0876858074290625e-05 -0.9663563533392523 -0.08674260570118013
4.007285714285715 -0.8822538273433883 -0.13144317304688805 -0.00033365187119116665 -1.3390513571449213e-05 9.546202064727317e-05 0.000182731913296351 -0.9697834089633981 -0.08071691671826979
4.007714285714286 -0.8815903566256402 -0.1260968003648646 -0.00013859699257751996 -0.00017776141079718654 -0.00019769478734589827 5.999483731746278e-06 -0.9638811298848939 -0.0825627809541977
4.0081428571428575 -0.8816271779204928 -0.12286278540521188 -0.00029845825917517306 -0.00013092218711527738 0.00022917979356196571 7.470108010259813e-05 -0.96651183370633 -0.08715294414251638
4.008571428571429 -0.8848794409445988 -0.10835938944407457 0.00011945911382028016 -0.0006754740509752253 -0.0002049055074830561 0.00023657302692533798 -0.9636638621551438 -0.07753070298581959
4.009 -0.8861096798289305 -0.1040135076372139 -0.00015055539564938264 -0.0005134628479940779 -4.870575370623325e-05 -9.295787459818204e-05 -0.9746607826870748 -0.08478004266757895
4.009428571428572 -0.8822283218425229 -0.09967849564429429 0.00020455872167241928 -0.0005010752455177893 -4.712342551549327e-05 -0.00047100192475073863 -0.9761600743365683 -0.07535240384159528
4.009857142857143 -0.886870808352069 -0.08798952822313218 0.00013292238181361732 -0.0004581948029918588 -3.873026321463087e-05 -0.00018168001016918747 -0.967135167480869 -0.06981268175709128
4.010285714285715 -0.8889674569516249 -0.08067574119037287 7.846518324110536e-05 -0.0008378415515292494 -2.858545535660482e-05 0.00012682130875066585 -0.964787155932727 -0.07499824954630502
4.010714285714286 -0.8885643568589928 -0.07556569087513136 6.767695957453136e-05 -1.091820951041315e-05 0.00014898843128728116 0.00023624940373892788 -0.9695077209953787 -0.07045443333180681
4.011142857142858 -0.8832084458058952 -0.07076191229040393 -2.090168124009713e-05 0.00024734864323954555 -0.00012224936877668467 0.00021937205798724428 -0.9708073796532479 -0.06716204789397802
4.011571428571429 -0.8847918816962986 -0.05879663443491427 0.00018301397885533822 -0.0002446403370854075 -8.471755530152176e-05 0.0003842054656799244 -0.9700845855068423 -0.06765724950048418
4.012 -0.8897464233497869 -0.05518175757698943 -0.00011800722190610018 -0.0006086578957792952 0.00024127976807821884 -0.00017798008626361726 -0.9745243347948986 -0.061881865520812034
4.012428571428571 -0.8876129771944802 -0.04563236422649802 -0.0001903534857304488 -0.0009502269925114942 -0.00011866737601196311 0.00012170340903485081 -0.9627404706210322 -0.05562387623732967
4.0128571428571425 -0.8933507715064374 -0.034702279344392836 0.0005345890382958407 -0.00036935679148742166 0.00022761520222592947 -0.00015450883477628817 -0.9659327662291761 -0.0627609350504345
4.013285714285714 -0.8821399225444426 -0.032109091511702374 -0.0001426020171682994 -0.00042405078812843516 7.820758649583755e-05 -0.00019550663983416262 -0.9623255044436945 -0.058562894504342634
4.013714285714285 -0.8867978580766854 -0.021736149021556204 -0.00030005470445577156 -0.00036319258399199504 0.00012481936170351168 -2.9969746257755576e-05 -0.9747742427236651 -0.05230511492278426
4.014142857142857 -0.8855404151679104 -0.014661547036499419 0.00018406423815277805 -0.0003127731150998898 9.972369747019765e-05 -0.00013782208380947898 -0.9735307743287069 -0.04708221482527672
4.014571428571428 -0.885332939692775 -0.0113995131784482 0.00011807951586989536 -0.0003259415604807266 0.00011553805231202052 -3.8196040523269885e-05 -0.9694982972054234 -0.051781847917675865
4.015 -0.8957008167918552 0.0002960142556909277 -0.0003839817917344261 -0.00041621082009796824 -0.00015880209726322277 6.94550874430963e-05 -0.966313434541906 -0.050152005219659394
4.015428571428571 -0.8917539355885422 0.010231531942887047 -0.0005388119583621768 -0.00029918070830482616 -6.65095932338671e-05 4.8612195790641995e-05 -0.9730408284249192 -0.050330463656218266
4.015857142857143 -0.8881199054904411 0.016181017895034518 7.02960811686285e-05 -0.0005794615348032882 4.7582324009270734e-05 -0.00012360275389463048 -0.9694406007238573 -0.04710898184939598
4.016285714285714 -0.8873716846090136 0.02298259680507413 4.7957504706449324e-05 8.47042418541673e-05 -9.770084426978248e-05 -6.86531000945754e-05 -0.9660683293213229 -0.043071750609116666
4.0167142857142855 -0.8896807522383874 0.02906192322469689 -0.00024792378749547507 1.4360943415193197e-05 0.0001076029372800706 0.00035655657645034254 -0.9634870453128598 -0.05065045267945287
4.017142857142857 -0.88566222941011 0.037758202562508135 -0.0004029340949392122 -0.00035996904199892747 9.688336528066258e-05 0.00010204163902543209 -0.9632683399565666 -0.039412333493216094
4.017571428571428 -0.8904384060602757 0.041034318998813255 -2.3190555945867e-05 -0.00015579727394007548 -4.113258494334469e-05 0.00035599717056833424 -0.9745535795442498 -0.04078748302491222
4.018 -0.8854861205917545 0.04936791459756293 6.680812775207097e-05 -0.00029647661081973805 -0.00017598843322961722 -0.0003220414547754511 -0.970507633469523 -0.04180471940881862
4.018428571428571 -0.8905033601299671 0.05754716274944126 -0.00025818059527587205 -0.0005291034689452361 2.5864472642246862e-05 -2.46370443250783e-05 -0.9706658372854807 -0.03595655080118881
4.018857142857143 -0.8830326783161121 0.06685044362484581 -0.0003576488081049071 -0.00014441963311877698 0.00011328818711423668 -8.068941694675746e-05 -0.9611348028291816 -0.02534101632354297
4.019285714285714 -0.8818044507995482 0.07864920531800947 -0.0006593998520871906 -0.0002590961454638319 -6.902530064439717e-05 0.00016504002507843543 -0.9708382448020162 -0.027477011505091443
4.019714285714286 -0.8879457931799246 0.08342080008234866 -0.0005448406442195776 -0.0007014941292922854 -0.0003208925040305644 6.152180465045672e-05 -0.9646228185306972 -0.02778316330413771
4.020142857142857 -0.8847978621348169 0.08806045912909219 -0.00010570466287882169 -0.0002985086321452876 -5.510592343393442e-05 -5.39523351436304e-05 -0.9679579232628559 -0.026881765149886622
4.0205714285714285 -0.8837370176113164 0.10357783146015502 -7.856606519150926e-05 -0.0005404041775990766 -0.0001553060185693666 -0.00020741699276460306 -0.968719759134863 -0.0256899356645164
4.021 -0.8819157720104583 0.10166455487327532 -0.000512773861815573 -0.0002760873519524532 2.145102114040639e-05 -4.2115849816706e-06 -0.9658227987766033 -0.01962428657008009
4.021428571428571 -0.8801237426532746 0.1132749698218153 -0.0002913230665046037 -0.00011984834637255178 2.0842049587413356e-05 0.00026697248635974786 -0.9687383979741037 -0.018445450854995857
4.021857142857143 -0.8817806157128656 0.11624421404807697 -0.00032336329727584285 -0.00034361467065102154 0.0001254751976497592 -8.581852342174952e-05 -0.965449885387387 -0.0148501835113502
4.022285714285714 -0.8743987253549883 0.12128185359440187 -0.0001665770657217687 -0.0004323986345150587 -0.00019635297047057503 -0.00025805058620537174 -0.9755175992915928 -0.0087569261005327
4.022714285714286 -0.8804708417719797 0.13807055303224125 -0.0003366319087181576 -0.00019799464905613962 0.00018756311082922475 -3.0429536595352715e-05 -0.964227885000412 -0.015045949055602997
4.023142857142857 -0.8754673501728971 0.1413451806960217 7.245494385367191e-07 0.00012423141154627436 0.00017904317140130823 0.0002708427982635918 -0.967426263512059 -0.006999674178475026
4.023571428571429 -0.8783432415114434 0.1432748213160129 -0.00017929577636821678 -0.0004633213291276335 -7.131790241700852e-05 0.00025496780408773464 -0.9628257332933067 -0.00527180836598549
4.024 -0.8717923184491874 0.15520698449787707 -3.6837964729296164e-05 -2.569367236294803e-05 3.232020069499604e-05 0.00015224850749195345 -0.9720171270726741 -0.007859532401266531
4.0244285714285715 -0.8741905050168651 0.15882316209844596 -6.031513860744617e-05 -0.00026807619684704833 -0.00033265711303984873 -0.0002406962981052182 -0.9711324416163859 -0.003156433189590299
4.024857142857143 -0.8754937893148 0.17168710036146195 -1.514685999797145e-06 -0.0003464876302512825 0.00018356969537669838 -0.0001287506023814669 -0.966579391113684 -0.0012819461663397401
4.025285714285714 -0.8745345228830722 0.17812008474393237 -0.0005652908842771594 -0.00035587889695319077 7.599905142240868e-05 5.736116702126303e-05 -0.965362534441556 0.002406603367285826
4.025714285714286 -0.8717816719085495 0.18486698142353675 -0.0003745655761393936 -0.0003522865187829296 -0.00043090736632147214 -0.0006956999883275794 -0.9745875676979753 0.00946702969553082
4.026142857142857 -0.8732380512502753 0.19142986449364138 -4.603085627589106e-05 -0.00023617198251436845 0.00011232042166352506 -0.0002363389236118012 -0.9705169307237111 0.0032685450361082313
4.026571428571429 -0.8601940283668998 0.20093655140387784 -9.648681949845247e-05 -1.811413796523092e-05 0.0002302481044723356 -1.5876400641337233e-05 -0.9724959679610383 0.007231191261856499
4.027 -0.8635238572925991 0.20703813430975948 -0.0001380165890163952 -8.69514622145501e-05 -1.4447215883481245e-05 0.00023964911441960772 -0.97150859213058 0.005617624751615953
4.027428571428572 -0.8667292503434325 0.20811270925413955 0.00037697043660921484 2.0215906514744867e-05 -0.00022369581251518295 6.565281669181044e-05 -0.9651269562504254 0.014277721402653126
4.027857142857143 -0.8612682199317812 0.21749658035519628 -0.0005236706836190155 -0.00013547637173394212 -0.00020873632528410204 2.000591216435543e-05 -0.9743763430729651 0.012936543217261719
4.0282857142857145 -0.8599837431191482 0.2307799514983491 -0.0004435231276651572 -0.0002139989200359648 0.00020017323137878952 -0.0001248472234195356 -0.9705966366143831 0.02269210647192343
4.028714285714286 -0.8639950005915057 0.23028070063081008 -0.00045204752299160447 -0.0007349707178239036 -6.413144153000482e-05 0.0001377926971520798 -0.9698553523502291 0.015019394198873002
4.029142857142857 -0.8581809179636808 0.24574337607854674 -8.35408567002332e-05 -9.595481757814917e-06 0.00022873848973216794 -0.0001639244749822306 -0.9679134298699819 0.02431452059223617
4.029571428571429 -0.8557521753307296 0.24484664155450975 -0.0002610691839561444 -0.0006804444553379773 3.756086804214719e-05 -0.00020578184930187719 -0.9617900847733253 0.02105903122899088
4.03 -0.8515255997269034 0.25252374326045784 -0.0005096926553774552 -0.0002108232516100806 -0.00023028470570838505 -0.0001243000856854891 -0.9734078443817681 0.032197971971764376
4.030428571428572 -0.8505081374425867 0.26347043473844817 -0.0005719599504579128 -0.0001708134846789809 0.0001438453556488582 -1.3676447526708787e-05 -0.9685257619046389 0.028564883466867353
4.030857142857143 -0.8510684916149162 0.26645542471325034 -0.0005156879184762712 2.7670321355064183e-05 2.395890539552776e-05 -0.00016054756283532582 -0.9728256091852884 0.025128013213662852
4.031285714285715 -0.844797441774117 0.27787843433029563 -0.00036410651893475443 -0.00013218657982694515 -8.433984301869854e-05 -9.769574557571619e-08 -0.9666861535200729 0.03301091144214912
4.031714285714286 -0.8420412121534983 0.27721895164276295 -0.0005342604160131835 -0.00022621929879211136 2.7418972039144784e-05 0.0002748809980813703 -0.9652915107613146 0.025799189251911967
4.0321428571428575 -0.8375663058503395 0.2887865503735284 0.00012861212744023128 -0.00018503148541509638 0.00019730713818878802 -0.000334162817573994 -0.9732582367724865 0.03442579512796261
4.032571428571429 -0.8396110371805645 0.2955890355954447 -0.0004801773021369433 -0.00017951953620028927 0.00036600749143394183 -6.718126303315284e-05 -0.965290234455887 0.04420721270652894
4.033 -0.8389650063468276 0.30030356324393426 -0.000396155963573432 -6.519738888529309e-05 4.2383756239186206e-05 0.0003158229501354193 -0.9662112239967051 0.044296987477101486
4.033428571428572 -0.8409759779807463 0.3110557256258702 -0.0004865747965946635 -2.6282635858779045e-05 5.568094304489776e-06 -5.9555648289204655e-05 -0.9640105256340887 0.039158698201060174
4.033857142857143 -0.8337744258125823 0.31783738486830004 -0.0003518830004814722 -0.00036613873638898447 7.475561459437616e-05 0.00017814596099191636 -0.9648879227221195 0.04397600258892805
4.034285714285715 -0.8264565232424744 0.32076382612546334 -0.00031149696543177746 -0.0003181746899528113 8.531172529897536e-05 2.2436271226833317e-05 -0.9671486599909866 0.04404506739331686
4.034714285714286 -0.820302528928215 0.33411486706632676 -0.0003558958063969734 -0.00016938193486213757 4.7085099561859625e-05 -0.00021909162251526683 -0.966313666644763 0.05015123091671625
4.035142857142857 -0.8234864366165188 0.3364098003441172 -0.0004376061339017782 -0.0003393018649476718 7.241754103590238e-06 9.119128450321913e-05 -0.9669277645299633 0.049938803525303346
4.035571428571428 -0.8148672702361085 0.34410954750633743 -0.0005539593134170113 -0.00041793247556837584 -8.062712033821912e-05 -0.00014685268411403563 -0.9674751348803902 0.056379163820057115
4.036 -0.8127299413484675 0.35453487983228643 -0.0005196718519464766 -0.0005309232010372318 -7.011560424785485e-05 4.482660472721373e-05 -0.9699592661522234 0.05645342149165071
4.036428571428571 -0.8197808584018921 0.351832532492507 -0.00022615165658208008 -9.91576419456012e-05 8.690228096724674e-05 0.0002199844965525005 -0.9691110506318391 0.053277319028473484
4.0368571428571425 -0.8140746340562425 0.36591130951532613 6.364131905701144e-05 0.00030753225769684575 0.00025629909950194676 0.0002531629664958 -0.969779436717508 0.05444995199551168
4.037285714285714 -0.80608279621678 0.3717331142030051 -0.0004769328069043941 -0.00010350926036929247 6.4688823339448e-05 -0.000277233884813215 -0.9634738950019 0.06002801726354518
4.037714285714285 -0.8033101265009837 0.37173418508245415 -0.0002910275176870502 5.0287061735404794e-05 -3.0360984050291974e-05 -6.319773641577283e-05 -0.9682714530883254 0.05718903585235749
4.038142857142857 -0.7991521359265308 0.3931993675915669 0.00015958824395262468 -0.00029390157772394285 -7.319249184094905e-06 0.0002723338507544733 -0.9654044058815926 0.06297657598816697
4.038571428571428 -0.799921386139432 0.3906874794124192 -0.00041080084930371574 5.4202298360946776e-05 5.08119287594511e-05 0.00024359048334258006 -0.9618556484379666 0.06475258370384296
4.039 -0.7964463940793328 0.39442957664172174 -0.0007861257918959868 -3.171903399715614e-05 0.00013845645464940796 -6.325164548726693e-05 -0.961009940132562 0.06764369646910051
4.039428571428571 -0.788483644693127 0.4132024396254972 -9.720519701584776e-05 5.2161202624752986e-05 0.00010407595405131876 0.0002891870470538965 -0.962780261237868 0.06857610362016803
4.039857142857143 -0.7920079721503182 0.41121898296974857 -0.00044642437109752126 0.0003212877335827595 0.00014330635815708664 -0.0001764819990110872 -0.9716076259741222 0.06883058486827986
4.040285714285714 -0.7884832759442637 0.4112514022378275 -0.0008651607443148387 -0.00024406788442045814 -0.00010262419263899595 -1.4026632265297306e-07 -0.9644238000630879 0.07501060653065474
4.0407142857142855 -0.7869232207128677 0.4250165882320646 -0.00017331298356646757 3.6630044433036006e-05 -0.00011934820796610965 -8.043602901274186e-05 -0.9586975321250685 0.0757389534360207
4.041142857142857 -0.774775842908802 0.42953154132158516 -0.00024001001341830951 0.00013546192764492287 -9.049670207680078e-05 -3.531922903189468e-05 -0.9703542524590829 0.08578063302299409
4.041571428571428 -0.772645904003491 0.43758818915130443 -0.00029960141679993694 -0.00020360866111192758 0.00044807982153786176 0.0003173306245356853 -0.9664074462494764 0.08396152564136998
4.042 -0.7700403705945696 0.44513151091868813 -0.00038700438038550866 -0.00032345911670076906 3.249390041970488e-05 3.2116522465589966e-05 -0.9623563262918534 0.09049628820145576
4.042428571428571 -0.7635759543082059 0.4485318037096379 -0.000598970751483427 0.00015325514538242312 -2.6021541703022764e-05 6.485001486725543e-05 -0.9600423516164278 0.0931017366813025
4.042857142857143 -0.7640490402345276 0.44681554598486206 -0.0006984035946532313 -8.605104766818183e-05 -5.27378868528303e-05 -5.4943780125870207e-05 -0.9641387093380822 0.08769884512118029
4.043285714285714 -0.757530889774877 0.4649425885679789 -0.00021766884213359204 -0.00031833551694288335 8.23874137263628e-05 -0.0002272646822660705 -0.9638350414308344 0.0876113356863896
4.043714285714286 -0.7488671339678121 0.46617080393170074 -0.0005032759689380659 0.0001925555208726126 0.00021997932501975596 0.0001650271400457575 -0.965778788886783 0.08412129424653012
4.044142857142857 -0.7512695138633809 0.4743903758377432 -0.0008170564355751233 -0.00010250281086107742 7.171818041321785e-05 3.6205524791981176e-05 -0.9630857520936298 0.09593901930026445
