!Created with skrf (http://scikit-rf.org).
# Hz S RI R 50.0 
!freq ReS11 ImS11 ReS21 ImS21 ReS12 ImS12 ReS22 ImS22
4.0 -0.8493870711450702 -0.2520483861914849 0.0002821054238418292 -8.980498890065907e-05 0.00015627360930542335 -3.900757927750096e-05 -0.9616589467544577 -0.13045712421830444
4.0004285714285714 -0.8561983037777111 -0.24513250845909768 0.0003793307570380684 -0.00039407468825417805 -0.00012895500931645593 5.8482232220219345e-05 -0.9704556331549852 -0.12263591087017661
4.000857142857143 -0.8610437509009041 -0.23672295679680017 6.6966684607899956e-06 -0.00020794681076745882 -0.00016320230156158022 -1.4953885974732022e-05 -0.9674597907023211 -0.11571475752591792
4.001285714285714 -0.8539721834288688 -0.23027305690198505 0.00014912085820912972 -0.00034965918472996423 0.0004747471164677721 8.891688975315817e-06 -0.9638542778904318 -0.1145638267297364
4.001714285714286 -0.8617764400081309 -0.2218256762783053 0.0004151361615886634 -0.0004491527398033832 -2.7132401583794346e-05 0.0001587290341500505 -0.9659657374465154 -0.12059759160990051
4.002142857142857 -0.859621627428307 -0.22199789665010222 0.00013207075714482972 -0.00014772282583801384 -9.731516643855153e-05 9.360607805208686e-05 -0.9650841835747802 -0.11156486555475696
4.002571428571429 -0.8629923879045978 -0.21180900897397878 -8.135908582648641e-05 -0.000840282215093376 -3.968388108193913e-05 -0.00034091473794723825 -0.9694118178274554 -0.1052551324318129
4.003 -0.8680392460805288 -0.19986117785461138 -0.000250314326409662 -0.0004121743295787213 -6.540089787957877e-05 -0.00011446328859225889 -0.9673187059634957 -0.10330019584166154
4.003428571428572 -0.8698455901666154 -0.19615429755866942 8.61676940222507e-06 -0.00027904852848144817 -0.00031138286008976945 -0.0002231966403831695 -0.9627443163377591 -0.09852846547937526
4.003857142857143 -0.8659024259105828 -0.1882173139034361 -0.00027215325120302243 -2.686035247030079e-05 -0.0001618117196629336 -0.00023324582063099622 -0.9706104327035309 -0.10918794466092718
4.0042857142857144 -0.8760220562396195 -0.18103434540420169 0.00029870162543351234 -0.00023062249606999646 0.00014316646187919515 0.0001750356298941153 -0.9664606769936364 -0.09730313551061703
4.004714285714286 -0.8721794393743139 -0.17252349849131962 0.00022704242995372909 -0.00026998613642041674 6.378542451483648e-05 -7.397629877137069e-05 -0.9595063815420934 -0.10769612044738026
4.005142857142857 -0.8747998804732635 -0.16340104835596145 0.0001519007714408556 -0.0002618658736479171 9.283112987930502e-05 2.5796482179717142e-05 -0.9672002366445334 -0.09514866856825409
4.005571428571429 -0.8750913034946489 -0.1587445993937923 -0.0004515649559113907 -0.0005120239761006334 -0.00015254885077251325 5.363490230162739e-05 -0.9597398967245298 -0.09557800306245631
4.006 -0.8788525315485034 -0.15394871029336743 7.994377328454306e-06 2.315472789563234e-05 0.00025303859248575455 -6.991072626172665e-05 -0.9705884172301414 -0.09296604396629414
4.006428571428572 -0.8771572995199218 -0.1477665811547834 0.0004052107250250784 -0.0002744169865632662 0.00011663641074725434 0.00018983663694912398 -0.9688067560950299 -0.09150999249204025
4.006857142857143 -0.8816748231388433 -0.13714115314111855 0.0004015945292080828 -0.00018040425097622163 -0.0002878435366203524 8.718447476744092e-05 -0.965628074648053 -0.08410939513063778
4.007285714285715 -0.8825220941385699 -0.1297680135294152 0.0003282097437391487 -0.00023376299763117964 0.0001944051662486329 0.0003126846564519785 -0.9680527386398949 -0.08032529658801599
4.007714285714286 -0.8826492537709564 -0.12609636218229628 0.0001924096693396626 -0.00031115848073966977 4.1509047239158296e-05 3.77030322888868e-05 -0.9640351189993976 -0.08289208493924431
4.0081428571428575 -0.8832445902727332 -0.12196953793848125 -0.00010573348932405663 -0.0003976794643990552 8.751590691223874e-05 9.421906331643806e-05 -0.9695173730757748 -0.08641607210643382
4.008571428571429 -0.8850876601816102 -0.10811163123159837 -0.0002510752813469606 -0.00028918068138556125 5.468620091165091e-05 -3.776657421560374e-05 -0.9627430860283321 -0.07750892192399095
4.009 -0.8868908225854513 -0.10307091542520379 1.3399003030779473e-07 -0.0004141651339990234 -0.00011294222514021928 -0.0002737370840128202 -0.9735129994975695 -0.08474406824442869
4.009428571428572 -0.8837966868437286 -0.09939924675342715 0.00024172399475024924 -0.000711193544922561 -9.891838436941504e-05 0.00027853955206613853 -0.9756993300716535 -0.0755850102899855
4.009857142857143 -0.8871447671436651 -0.08796391329548801 -6.343918062431263e-05 8.443378223896865e-05 8.767972872344788e-05 -8.835772132035798e-05 -0.9668942501796537 -0.06955849453476311
4.010285714285715 -0.888612045740809 -0.08091828980431165 8.368596486257193e-05 -0.00047772256863635407 0.00013291685645625516 0.00022710275220938646 -0.9639025159092102 -0.07319689928414484
4.010714285714286 -0.8881498541321854 -0.07395157412346519 0.000496109817026831 -0.00031134683704088967 0.0001811012630954618 -0.00020167839625869649 -0.9682657746339629 -0.07039284330939903
4.011142857142858 -0.8831184102623187 -0.0710809981262586 -0.0004651997957924622 -5.319191548359106e-05 0.00015374171835501392 -0.00034881295110182115 -0.9715159921668475 -0.06633046639437194
4.011571428571429 -0.8855905766609034 -0.05822971610598698 -3.467617110647349e-05 -0.00031209610000759686 0.00042059792532662894 9.105059133292611e-05 -0.9712044992852735 -0.06438585417607375
4.012 -0.8891129241167348 -0.0530729353906223 -8.965286864447195e-05 -0.0002813899700133306 -0.00011989388436990828 0.00023139663475953143 -0.9745226856126791 -0.06158689660441052
4.012428571428571 -0.8869252259572977 -0.04420364516708965 -0.00016772452973949647 -0.0005476312147731255 -8.79053853597783e-05 -9.743022235347516e-05 -0.9630937808669091 -0.05588392925378474
4.0128571428571425 -0.8935309214972084 -0.03475279043709589 0.00021802855017973437 -2.7105071101681108e-05 6.552730784674598e-05 6.753373516779927e-05 -0.9644689580209077 -0.0627533717118324
4.013285714285714 -0.8839487954806596 -0.03017834927792868 -9.739668540583376e-05 -0.00043620712578893545 0.00010820797699901381 2.023496661920694e-05 -0.9636109985962434 -0.05805020876719245
4.013714285714285 -0.8875943842225933 -0.023258290731404833 -2.9326961491714494e-06 -0.00014043324340190527 -0.00012178152789112859 0.00017861975171642227 -0.974223213790368 -0.05186946394243146
4.014142857142857 -0.8885950901257618 -0.014141312363983636 -0.0002553739308443687 -0.0004684292308066461 0.00011012785992985168 5.359193170001231e-06 -0.9727789799743245 -0.047594430602712366
4.014571428571428 -0.8865530631240547 -0.01314513138383227 0.00033253774289395717 -0.0009123383777324175 -6.034461870679902e-05 -1.8804596230576902e-05 -0.96818105237999 -0.05186886982946635
4.015 -0.8959568662244373 0.0006002831305010737 0.00020783295992501645 -0.0004416760540119173 7.715776078638695e-05 3.220651089728533e-05 -0.9653160655872433 -0.050937915052995386
4.015428571428571 -0.8918027575452154 0.010021828508207811 6.340692612613628e-05 -0.0002824978657588654 7.546779077798727e-05 -0.000376625921932874 -0.9735022878559413 -0.050278435799572634
4.015857142857143 -0.8901078261809536 0.017946908770512228 -6.011360443416063e-05 -0.0004368903012247308 0.00022252032730018392 -0.00015130614788372204 -0.9694236399623097 -0.044129884892038174
4.016285714285714 -0.8897123157632497 0.02352032579982251 0.0001287706796929609 -0.0004947580214929532 -0.00021813539308753165 0.0001094155342877418 -0.9649695615812294 -0.041444884134965526
4.0167142857142855 -0.8883030510557502 0.02913656717413708 -0.0002682164771316596 -0.0006371845863455681 -8.550943146215246e-06 6.363006724818544e-05 -0.9648524855090584 -0.04791605672199557
4.017142857142857 -0.8878689455171523 0.03923862352602441 0.0001613819625210629 -0.00014348564399758695 -0.0001414836508993775 0.00017041563801203772 -0.9633844892109532 -0.040869749343669326
4.017571428571428 -0.891670399806496 0.04291770345025778 -0.0003380617644810389 4.612239606924952e-05 3.093298803338913e-05 4.9870972085760216e-05 -0.9728815764688551 -0.040267224299628444
4.018 -0.8861101955544682 0.04946756820566495 0.0005460652808745622 0.000195404748674871 0.00010338393524930054 -0.00019839556968242314 -0.9694306375954416 -0.03689014610507321
4.018428571428571 -0.891193789311754 0.058493042535799705 6.709983316836843e-05 -0.0005847986983154034 0.0002938847459492591 -0.0001530906713652849 -0.9726148002721043 -0.033112731396844834
4.018857142857143 -0.8823532138671238 0.06818779414181828 -0.00014605103372238097 -0.0004984036599947605 -8.0942191176892e-05 -0.00021548251671544178 -0.9614782843197218 -0.025536089721445072
4.019285714285714 -0.8837482730278028 0.0782550994890568 -0.0001490682835886231 -0.00024026300319844644 0.00013037670482895204 0.00012731064385890434 -0.9713171904433592 -0.026352326613001475
4.019714285714286 -0.8887830723371272 0.08666575079874772 -0.00023779044247906883 -0.0002687067162627033 1.5715838772360485e-05 0.00028074832111271096 -0.9645801705863789 -0.028667193100371094
4.020142857142857 -0.8866374353367085 0.08942275223661952 -0.000239926216129482 -0.00033480089339905266 0.0002443541524692056 -8.622963197375267e-05 -0.9683811858840701 -0.024051662849502446
4.0205714285714285 -0.8863420719598355 0.1038875142325204 -0.00023521714615955082 -0.0002785397620917788 5.624612811596394e-05 -0.0001887746223627353 -0.9690844040753961 -0.02421796255727109
4.021 -0.8825371792994322 0.10470722878930479 0.00027491780775087325 -0.0001609697267475326 -0.0003201225426142585 5.615148609145527e-05 -0.9666905433219178 -0.02002834397399436
4.021428571428571 -0.8792257887761855 0.11378464124471842 -7.862008864768354e-05 -0.00016920206843445946 9.534475341769081e-05 -0.00017532061317427993 -0.9703147459627649 -0.018398167833417
4.021857142857143 -0.8824804370972097 0.11798663274706571 3.537056861171935e-05 -0.00012019791397467261 4.9251209205532374e-05 0.00023258664931575067 -0.9686109804834547 -0.015690567679834205
4.022285714285714 -0.8766946101956126 0.12213669890308353 -0.0002821580619307014 -0.00025265976270575383 -0.000249629496474719 -3.910562362227306e-05 -0.9754107431701885 -0.007288652273501829
4.022714285714286 -0.8801640270696094 0.13759473919282733 -0.0004130567198978682 -0.00025138719667320517 2.9049724424250393e-05 -0.0003045029245185115 -0.9652681343858617 -0.012533149303182
4.023142857142857 -0.8748234291920689 0.1435311664440941 -0.00013335509000316718 -0.0006888235321693345 2.6757785962910834e-05 7.068958339444532e-05 -0.9677969546664057 -0.007935433475650646
4.023571428571429 -0.8787561097688135 0.14543606825987682 -0.0005661722627674488 -0.00044231925733427974 8.083983721434953e-05 -0.00020205266236885723 -0.9623903849474561 -0.005516233966118857
4.024 -0.8727411425912367 0.15749781835789844 -0.000410111162202235 -0.00045638126599502354 -0.0002891910984616763 0.000252836566796102 -0.9714053317383425 -0.006725992138913608
4.0244285714285715 -0.8750157646293588 0.15976538469832172 -0.0001474087879197619 -0.0003732242515480023 0.00029265499606835426 3.287956897132256e-05 -0.9698623305127742 -0.0016438148261059453
4.024857142857143 -0.8737653374169646 0.1729344159600076 0.00017040330309889932 -0.000531504105918949 -0.0004980241006180979 -4.982090413075376e-05 -0.9660601234374612 -0.0011349318221797325
4.025285714285714 -0.8736643163082469 0.18061017249933448 -0.0008095717786088846 -0.0003795556828703412 0.0002435039571667725 0.00014985178707492932 -0.9659996239512001 0.005108343715016343
4.025714285714286 -0.8733027226263331 0.18710652784496487 -1.3166145606954874e-05 -0.0006958951173252237 -4.8442897065782776e-05 -0.000143080714668284 -0.9757403190780133 0.008581447630034699
4.026142857142857 -0.8749742292863879 0.1908681444576469 -0.0005095459819502139 -1.1366606613231004e-05 -1.9005963835295608e-05 -0.00026646607237573397 -0.970371647579639 0.002846680287109941
4.026571428571429 -0.8613612525191016 0.2013438656638271 -0.00037170808419890317 -0.0001308927492462867 -0.00025839585462859437 -6.175692778639308e-05 -0.973360095097016 0.009448929882462528
4.027 -0.863067442202052 0.20861698634374615 -0.0005290316065051661 -0.00035116953185016387 -7.211784881178823e-05 -0.00032173259707906336 -0.9711448396797484 0.00400898297617249
4.027428571428572 -0.8662370613905531 0.20896320132124863 -9.96462016365447e-05 -0.00013866695603312305 0.00019227860630575828 0.0001271932928081598 -0.9650753330649398 0.014773710634259937
4.027857142857143 -0.8630453107827722 0.21537612299742256 -9.380744806367276e-05 -4.544783163733219e-05 0.0001312588631591036 -0.0001728015789135943 -0.9738492296090642 0.012872314754534766
4.0282857142857145 -0.8600010789582485 0.2333701377540591 -0.0004761705620601077 -6.536630177275357e-05 -2.958339820728525e-05 -0.00010757994843364574 -0.9712723876407867 0.021403800687069534
4.028714285714286 -0.8659394459523555 0.2318672836545534 -0.00043928762389270314 0.00019695983987650444 0.00019384196554235943 5.700499868298302e-06 -0.9703564785974396 0.01321522321267884
4.029142857142857 -0.8585355676177627 0.2452614669823742 6.410391573357707e-05 -0.0004051796767887353 -0.000175564300426065 -8.424784325014747e-05 -0.968438254610096 0.024468226272734248
4.029571428571429 -0.8578197089459326 0.24540998290500893 -0.0006536561652437934 0.00014573302955525087 -0.0002381021870722294 3.7179437191005875e-05 -0.9639399267852505 0.02235183478226203
4.03 -0.8514247014877679 0.25386843733269515 -0.00033122474631049954 8.599068215921175e-05 0.00020704538535178108 -0.0001722819937449774 -0.9726796340493815 0.034030225786598284
4.030428571428572 -0.8501847278969331 0.26481745928918676 -0.0003535121924230702 -0.00025971062624580805 -3.499747652665983e-05 4.666468681605252e-05 -0.9694178183648064 0.030290721363492073
4.030857142857143 -0.8529751088000715 0.2670078716733588 -0.00010654814069787322 -0.000428528307269334 -5.951361521731594e-05 0.00013706297223296685 -0.971054144366321 0.02539186669592122
4.031285714285715 -0.8453993595358958 0.27669864246198417 -0.0006880886511103029 0.0003091689935023777 0.00018556135295647003 -0.00016341999066731664 -0.9692043431186337 0.035061260766665055
4.031714285714286 -0.8410599812162592 0.2788890117666043 -0.00026930555412469183 8.515551900958078e-05 -2.1052882445967425e-05 -0.00024243258461656336 -0.9654987963054708 0.02631955666636548
4.0321428571428575 -0.8365358940796678 0.2890322659229874 -0.00037704367884988297 -0.0005486309799918161 0.00019616566779165635 0.00013294074194320326 -0.9701646204830884 0.036624135796049166
4.032571428571429 -0.8415699132690144 0.2974730669527078 5.9355293656080426e-05 -0.0004863846485458486 0.00015909935864118796 0.00045412568535860813 -0.9650574200696053 0.043431314363301415
4.033 -0.8391581333654752 0.30209109818584695 -0.000362583467799095 2.360009432395698e-05 1.1017132496902443e-05 -2.1803876465846554e-06 -0.9643287292918773 0.04465952156003467
4.033428571428572 -0.8420099449942479 0.3123734894364447 -0.00037314745880826124 -0.0003583455614598024 0.00012111443316587182 -0.00028113104025052763 -0.9646947710748515 0.03816034009358745
4.033857142857143 -0.8339559425053719 0.3184699144110247 -0.0005040158950734103 0.00019005921272786006 0.0001824511714940216 1.2498409066481717e-05 -0.9634684236230691 0.045382394051052745
4.034285714285715 -0.8266814929238453 0.32062692111946656 -0.0004005649042341347 -0.0003362686692342154 1.0086892743608943e-05 -3.1998986809351124e-06 -0.9662405800157787 0.04281844100904212
4.034714285714286 -0.8199265470528883 0.33564555039466715 0.00010582239447281149 -0.00037177620928514676 -0.00018648203579475 -7.726363948072851e-05 -0.9657378265976149 0.05211509383596354
4.035142857142857 -0.8227538253360509 0.33889715815814936 -0.0002490264570280022 -0.000322863662227656 0.00010872509268184463 3.8415398452410075e-05 -0.9669809151625988 0.052334250571681284
4.035571428571428 -0.8155837159690847 0.34575586494650934 -0.000281162872410155 -1.1124986201881771e-05 0.00020361417259830478 -2.1697568158596494e-05 -0.9667198033201052 0.05633950041142307
4.036 -0.8144448116187902 0.35619950580394844 -0.00031427073594603855 8.963983632815856e-06 -0.00011131655397043592 0.00012645595395906374 -0.9708700591510384 0.05808347506376666
4.036428571428571 -0.8212860476992412 0.35414072032942556 -4.0050460705644754e-05 0.0001168296878275866 -4.733294230826527e-05 -0.00016039896873828598 -0.968497555276002 0.05395759438025192
4.0368571428571425 -0.814973003343395 0.36677449124207 -0.0004790005184929862 3.421611411045497e-05 7.160803740083179e-05 -4.2410184633979176e-05 -0.9706944541038653 0.05353542197155553
4.037285714285714 -0.8069854811950785 0.37328182450396163 -0.0006642374287591334 3.529271480551292e-05 -5.437218063459245e-05 -3.913212996455255e-05 -0.9634298034668098 0.05910300930239063
4.037714285714285 -0.8042144069717924 0.37383444786119757 -0.0006373939024380829 -4.949644825530928e-05 6.39871912459829e-05 0.0002145252191278221 -0.9706292566932321 0.056104439429788835
4.038142857142857 -0.7987298985971106 0.39479106193527047 1.758424413462483e-05 3.5107409729310604e-06 2.498195116327195e-05 3.663590504738074e-06 -0.963460950252628 0.06194531183337206
4.038571428571428 -0.8007040750597324 0.3928290267419042 -0.0006165953595855457 0.0002307909505240251 0.00010112917625038512 3.5519499351691666e-05 -0.9606458949213247 0.06706819041611876
4.039 -0.796727653125648 0.39690914476633044 -0.0006568958057267787 1.3181148839670145e-05 -3.701943047502118e-05 4.503740403797615e-05 -0.9595225199716558 0.06473262114738648
4.039428571428571 -0.7887322255212378 0.4143815092115671 -6.933941422372286e-05 0.0002414911324746902 0.00030975595877691945 0.00017388977887238427 -0.964706512242335 0.06936144337179535
4.039857142857143 -0.7921031955835589 0.41260402644042365 -3.911707430169217e-05 4.278743912785633e-05 -0.00035355777149653165 -2.8777126445396077e-05 -0.9692527879897335 0.07093212986709448
4.040285714285714 -0.7892778793117301 0.4135340226606868 -0.0004948444720311406 -3.722240965555163e-05 0.00030711999465749196 -4.236864247616066e-05 -0.9631132826749708 0.07596963691190578
4.0407142857142855 -0.7879204862267951 0.4257728991807098 -0.00018588194172079072 7.159582083527595e-05 8.369438647236513e-05 -0.00021553758373891137 -0.9587417076622701 0.07672722472305916
4.041142857142857 -0.7756520041935654 0.4308256012288535 -0.0006416645271890438 -0.00022367587738215388 -8.606092142560595e-06 0.00010270489879986296 -0.9688919505383708 0.08524269805012656
4.041571428571428 -0.7733146199205545 0.43611598424267445 -0.0005426450064572006 8.321427033712375e-05 -0.00019468924956945913 6.31154406572309e-06 -0.9657678361345017 0.08402303526226766
4.042 -0.7686128498961933 0.44656321326301146 -0.00046968797597718144 0.0001566210005780835 4.292376272769917e-05 -1.656034812366757e-05 -0.9630618799125105 0.0895141941903389
4.042428571428571 -0.7659065184687106 0.449583377153609 -0.0003544998864337571 -6.276946927892291e-06 0.00011700828232878702 -0.00016297333348055674 -0.9593957577237341 0.09257303423782191
4.042857142857143 -0.76343081993417 0.44673234879885204 -0.0004938325620315873 0.0001692788436717584 -0.000267788911826016 0.0001391437251313645 -0.9635031321667578 0.08954705583867115
4.043285714285714 -0.7578574478354239 0.4661255150059271 -0.0003628033511424942 -0.00011092690899950777 -2.4389421783677632e-05 -0.00010553624221339654 -0.9650154855320469 0.0857367325137536
4.043714285714286 -0.75139856818809 0.4671846724221035 -0.0005583217871163575 2.4746217027687485e-05 0.000152944882418364 0.00011629772256080087 -0.965305414050297 0.08267720410258196
4.044142857142857 -0.7508008758566517 0.4762580109622408 -0.0005916259104533303 -0.0001481583390795533 -0.00018215240345132924 7.066209687451878e-05 -0.9636171047190871 0.09653228285786952
