!Created with skrf (http://scikit-rf.org).
# Hz S RI R 50.0 
!freq ReS11 ImS11 ReS21 ImS21 ReS12 ImS12 ReS22 ImS22
4.0 -0.8417748507856804 -0.24736934242405034 0.00013880111354647835 -0.0005972104448895863 -0.00016473513271757556 -0.00010310255195657581 -0.9646296639351796 -0.13021375475375296
4.0004285714285714 -0.8477791607188819 -0.24378841412890512 0.00042516172395277356 -0.0007988387249266433 0.0002703764232561575 0.00027249380267916435 -0.970466151628194 -0.12351461196323833
4.000857142857143 -0.8535353055978585 -0.23223306517674233 0.00015142383246050434 -0.0004005842471851393 -8.337990608560387e-05 0.00010775610074950721 -0.9668466562430991 -0.11802306787983803
4.001285714285714 -0.8463010163166875 -0.22803101546502452 -0.0002660931842034129 -0.0006621009890413349 3.261329174396569e-05 -7.2699258138871e-05 -0.9637629663496956 -0.11728361771852117
4.001714285714286 -0.8534938871526014 -0.2211082064430479 0.0001309465425167249 -0.0005717669151970612 1.3487513204305407e-05 -3.1881090715808544e-05 -0.964487581307257 -0.12393178522232971
4.002142857142857 -0.8509904568049883 -0.21901171933463323 -2.5648467546577892e-05 -0.00040616124270593146 -2.4029875281026897e-05 -6.094438379170253e-05 -0.964639361711489 -0.11092752291324284
4.002571428571429 -0.8548567740577965 -0.20881058382853662 -0.00021691823164545135 -0.0006352779653771341 -4.921504860596624e-05 -0.0001275181405488595 -0.9694872556876061 -0.10703116270077785
4.003 -0.8588840877005443 -0.19807991584559775 -0.00028176932784680853 -0.00038454781898599827 0.000169958377937227 -0.0001473203417777724 -0.9694962527475911 -0.10263801994465413
4.003428571428572 -0.8614801685267293 -0.19331413867342032 9.915657108522105e-05 -0.000480795970956637 -1.77805041758357e-05 0.00023590613160982498 -0.9619351427624313 -0.09887455652444846
4.003857142857143 -0.8569144543509707 -0.18588860832927315 0.00010318057361082351 -0.0009123332953970163 -0.0001272549202468654 4.204083839679176e-06 -0.970255782181016 -0.11150554045363592
4.0042857142857144 -0.8663733222486043 -0.17857336625836603 -0.00020409634703583498 -0.0003995655805762556 -4.883570545205652e-05 7.556077016500663e-06 -0.9651993450918693 -0.10079482028432453
4.004714285714286 -0.8621498321849498 -0.16957126554685084 7.015246631113569e-06 -0.0008438910440958086 -5.1075894812526126e-05 0.00018600506136995777 -0.9602674237142567 -0.1071140031382097
4.005142857142857 -0.8661505406892467 -0.15952585051827067 -0.0001607246478415041 -0.0008199963180525799 0.00014752149332560396 -0.0002179821160632383 -0.9686720901711947 -0.09674735649292189
4.005571428571429 -0.8665245113159482 -0.1558418340177794 0.00016565362688252195 -0.0006751177133532459 -0.00016122537385247424 5.283327448420436e-05 -0.959856886175918 -0.09556400151725916
4.006 -0.8693584223680875 -0.15138825963262165 -0.00031437141147455883 -0.0004284117105486486 -2.5997444716862835e-05 7.423432740006399e-05 -0.9699357105185311 -0.09517800510953835
4.006428571428572 -0.8696320368766473 -0.14669724657512404 -0.0002929234310611629 -0.0006681409281440431 -7.278346269083848e-05 -1.72056776323953e-05 -0.9701774252660846 -0.09365523929553551
4.006857142857143 -0.8727557322402599 -0.13536987004196174 -6.41269999508095e-05 -0.0006381564067237477 -0.00013936581696510867 5.369910013734452e-05 -0.9644402003460085 -0.08766798043142145
4.007285714285715 -0.8746208113811063 -0.12831496387266186 -0.0005153356704393619 -0.0003100991062424535 -0.00011732565654262108 -0.00015081526167261497 -0.9672628445272445 -0.08190308595220057
4.007714285714286 -0.8729275612409984 -0.12242231486318182 1.7541977509041617e-05 -0.0004831002981862014 4.328736990132904e-05 -0.00032818031234985574 -0.962598687682819 -0.08417830855546425
4.0081428571428575 -0.8755092478815173 -0.11967401695017857 3.2223053376261554e-05 -0.0005148172360687651 -2.0646026651832575e-05 0.0003464782664676613 -0.9690522120703835 -0.08668238161692055
4.008571428571429 -0.8765369380144681 -0.10681218911735496 -0.00025546340553207704 -0.00050418056308439 -0.00012883513768235014 -4.931085088315338e-06 -0.9621726927769295 -0.07921336137357782
4.009 -0.8777405127523521 -0.10087227028214668 -0.00024301667893284677 -0.0003407403126128945 9.864718436556273e-05 5.279417639829408e-05 -0.9746529978072337 -0.08639324862680223
4.009428571428572 -0.8763005170696851 -0.0969546319064228 -0.000277914612017633 -0.0005095639492661176 0.00018885318442582788 0.00022575877698901255 -0.9747512301816581 -0.07741031286302326
4.009857142857143 -0.8779630061803962 -0.08680859948264656 -8.199162321903849e-05 -0.0005182736989683434 0.00028380063084180253 -0.00029563077726562313 -0.9679253769557805 -0.07296251631032435
4.010285714285715 -0.8807840689201121 -0.07882327222441679 4.201831748048228e-05 -0.0007042364070457324 -7.985653853450161e-05 -0.00015449960357559404 -0.9646890436859322 -0.07565506349728914
4.010714285714286 -0.8801571391831917 -0.07319985347239306 -0.0002859310313839659 -0.000953402178451165 -2.6681952146077176e-05 -0.00011460327536509282 -0.9692545702499958 -0.07271643257106093
4.011142857142858 -0.8762806989741213 -0.0682690070732768 -0.00010837393153995085 -8.51934274836901e-05 -0.00020229022007580967 0.00036902673501967967 -0.9702727299759603 -0.0660057468024183
4.011571428571429 -0.8769687961354624 -0.05669906749572702 -4.628548783686609e-05 -0.00026413918979862217 -0.00012032414629437235 0.00034027964279605393 -0.9711001912301144 -0.0655559402335635
4.012 -0.8818153116845139 -0.052773047743731503 -0.00032439407140037805 -0.0003137563169015178 2.8666230286210013e-05 -0.00011290817257200166 -0.9762801569516933 -0.061936229734916144
4.012428571428571 -0.8784811784386736 -0.04289952166240824 -0.00010252968106832432 -0.0001914077949324528 -6.037977166584884e-05 0.00022755448392568466 -0.9633681883681946 -0.05621797793945263
4.0128571428571425 -0.8871765510106228 -0.03478672467167653 -0.0005442655454305675 -0.0005563982534255693 0.00014091608189854317 -0.000141747330719398 -0.9646446979723329 -0.06384966491027706
4.013285714285714 -0.8754974048413694 -0.03083659343168459 4.187146041491499e-05 -0.0005967345300962739 -0.0002443353352036347 0.00014730733426054484 -0.9647451471811026 -0.05947764716566419
4.013714285714285 -0.8794950770549324 -0.02036726256056465 -0.00024209858532685263 -0.00043486417069281386 -0.00018063079798375916 0.00011585930525857211 -0.977145532851456 -0.051209901970291336
4.014142857142857 -0.8796983244017229 -0.012093264830534467 -0.0002035739710921279 -0.0006552489346964399 -0.00015753194586970912 -0.0001065695909663306 -0.9715726486713561 -0.04738528138206904
4.014571428571428 -0.8788039246521777 -0.009470999699951963 -0.00012532724240875507 -0.0008977522339415364 0.0001326420015516295 -9.932074721387503e-05 -0.9718443407937167 -0.05209419142230237
4.015 -0.887494758920275 0.001414143219413366 -0.0002077307726977155 -0.00038124128106304647 -0.000364424730201198 0.00016449610837046568 -0.9654607251904249 -0.04973267947235481
4.015428571428571 -0.883411160783769 0.011137054423218022 -0.00028926081053580607 -0.0005430998615956179 0.00011594270906794455 0.00026882057809490763 -0.9717858806395121 -0.05132666822380112
4.015857142857143 -0.8812052724931244 0.01844920615682386 -0.00029072926750448307 -0.0006259947420245653 -7.411562148663083e-05 3.146763154886091e-06 -0.9691169176376023 -0.04629966692013285
4.016285714285714 -0.8807623241247226 0.023465282983683236 -0.0004792827471606392 -0.00038441710236490964 0.00012659268598070323 0.0001731182132741024 -0.9660940865671033 -0.042440258258214535
4.0167142857142855 -0.8813469265207947 0.030805779522957863 -0.0003066608193636444 -0.0005657656785195523 -2.6771977952368427e-05 -0.0002594837539592471 -0.965228811240494 -0.050732757499140836
4.017142857142857 -0.8767896510405246 0.04030144474698593 -6.299268865736065e-05 -0.00027334628082133623 -0.00012535686477832623 -0.00015124382242610466 -0.9623316611371394 -0.042229683569653585
4.017571428571428 -0.8838813317556972 0.04381254707250311 -0.00022807430712607174 -0.00048726315595194985 0.00016705949313307745 -0.0002419618355909491 -0.9723146932065075 -0.04193357670992938
4.018 -0.8781643353577837 0.04934743639793855 -0.0002572338924867435 -0.0007200407162244528 -0.0002294906480604423 0.0002550245874838939 -0.9700601666775472 -0.04104244849462031
4.018428571428571 -0.8830310477458934 0.05801058388082052 -0.0003919993837200975 -0.0005525400948899674 -0.00012892292692600905 0.00019413238668158575 -0.971142299037601 -0.0338004449186941
4.018857142857143 -0.8749527016667844 0.0677616296491168 -0.0004367869865817948 -0.00030064262197406893 -0.00016889206087087986 0.00022584276001160424 -0.961779192878038 -0.02715824440689579
4.019285714285714 -0.8735681546322821 0.07977716329886794 -0.000853200153782167 -0.0003083102949393763 -0.00012377981163696892 0.00018455224248892528 -0.9742041651909039 -0.02967807130758631
4.019714285714286 -0.8781947396095129 0.0859919846909146 0.00021283225669629485 -5.0139055143398405e-06 -0.00012058505177989054 0.0005012596793600219 -0.9654971256693243 -0.03005571992326081
4.020142857142857 -0.8774766576672216 0.08757558486490277 -0.0005580098783796861 -0.0004268596462510276 -5.633090355925964e-05 -3.4275605012650444e-06 -0.9699737833491995 -0.025125071981182568
4.0205714285714285 -0.877154969473443 0.10377526153965982 -0.00022965926931206533 -0.0003941562069150644 0.00015599884565986133 -9.29176453500022e-06 -0.969083465963976 -0.02714922629930037
4.021 -0.8736437830906522 0.1016235380267206 -0.0008627383761565616 -0.00042726269465550155 -0.00016953840296599524 -8.20152758072154e-06 -0.9678201369132796 -0.02075478923739892
4.021428571428571 -0.8724511633907814 0.11414319569406971 -0.0002448436517013617 -0.000416668959008673 -0.00015062620182457274 -0.00020454640429940575 -0.9709337495801748 -0.01970658195480292
4.021857142857143 -0.8747866726510244 0.11689456820682284 -0.0009172837613818436 -0.00036650472041725024 5.247099229784162e-05 1.2618279980779958e-05 -0.9672692712034149 -0.016508092042567535
4.022285714285714 -0.8669973194854402 0.12238526838507198 -0.0005063089762127525 0.0001776339722191853 4.310714946159136e-06 0.00016884663556640336 -0.9740376953230006 -0.009049598602375726
4.022714285714286 -0.8717340004031329 0.13967442614866482 -0.00038154628459528454 -0.0004505277873000518 0.00016938493275779433 0.00015059693358505577 -0.9660768375180852 -0.013680167499738107
4.023142857142857 -0.8678494859824726 0.14235512581119178 -0.00039935751656007556 -7.425700604388401e-05 -3.7909820789828945e-05 -0.00018101252496111048 -0.9684969051215961 -0.009721335255933543
4.023571428571429 -0.8688015117955942 0.1430658444824239 6.477649068328741e-05 -0.0007399448558678525 -0.00026314354317921826 -0.0001640388786435783 -0.9621186570664071 -0.004926543459104758
4.024 -0.8635719518254839 0.15613478120122373 -0.0007656525312891706 -0.0003801241275222117 0.00030985704947743975 9.640823149891497e-05 -0.9706888441558263 -0.009006773845006932
4.0244285714285715 -0.866719018025763 0.16107983810736462 -0.0006342563468828595 -1.8867632232500982e-05 0.0001301243157412943 9.011598625360155e-05 -0.9698158172075879 -0.004200423838978239
4.024857142857143 -0.8671248552394283 0.17213327968943956 -0.0004856770558911534 -0.00024877210659690445 3.178108863745622e-05 4.214574694536012e-05 -0.9676384428171165 -0.0027369220938639727
4.025285714285714 -0.8654311425817531 0.17972619326764927 -0.0005713444378869549 -0.00027512761207426276 -0.00017890290850184324 4.959437822512904e-05 -0.9666293705153045 0.0016680578940978662
4.025714285714286 -0.8625474654864916 0.18587141127230464 -0.0001874611826510055 -0.0004504868849589485 0.00042414835824498593 0.0001218657992817802 -0.9771743407891816 0.007102039226112641
4.026142857142857 -0.8664479632029759 0.19068311091047485 -0.000949511808607967 -0.0004979346660439857 2.0396387011499666e-05 0.00026162953265447493 -0.9696705250869025 0.002352672125783944
4.026571428571429 -0.8523210986461001 0.20031065599664127 -0.00046443994001092205 -0.00032197433327709954 -8.806342304466346e-05 6.535876791318894e-05 -0.9760062908144608 0.008718629738328697
4.027 -0.8564216494142282 0.2071097437749737 -0.0004967937859058462 -0.000468473671197503 -6.310908991751353e-05 2.1814168740838544e-05 -0.9702571972171512 0.004686514130561579
4.027428571428572 -0.8581365540243789 0.20736878414974183 -0.0011223173124501246 -4.9723861201181594e-05 0.00038487840984206996 0.00015065455955058876 -0.9690673058415799 0.015055067438288498
4.027857142857143 -0.8551361746198359 0.21503880597954675 -0.0006401277720998696 -0.00032808265777971226 -9.244155015301221e-05 3.262822148064243e-05 -0.9732599169402701 0.012146805445685162
4.0282857142857145 -0.8533625834632212 0.23122872817957152 -0.0002887639646382393 0.0002826312527374069 -0.0002715786894079751 -3.265401801868208e-05 -0.9722208820363437 0.020700573759431264
4.028714285714286 -0.8564945832943924 0.2285177039541204 -0.00011276957277541322 -0.0004960762624086664 0.00016523557599069003 0.0001834649285989065 -0.969097954088333 0.013371842023096775
4.029142857142857 -0.8509825131932927 0.24372009333559655 -0.0007850167570832572 3.477445040836806e-06 -8.446593589010937e-05 -0.00020814313352362465 -0.9684445467723447 0.02223777291632273
4.029571428571429 -0.8493428000130951 0.24566934322447465 -0.00047122959190489254 -3.561781850188908e-05 0.0001718301142966267 -8.79657200947691e-05 -0.9637587556031325 0.02008817650010824
4.03 -0.8436569311743736 0.2530992449464751 -0.0004909453263393967 -0.000351662271302175 -0.00026277558590316814 -0.000160247972899477 -0.9736074555606858 0.032044034470829284
4.030428571428572 -0.8433602417893088 0.26426282657788863 -0.0005438120962484972 -0.0004890224051680368 -0.00020150733481501503 -0.0002931922846046829 -0.9700683256550737 0.027730141171711947
4.030857142857143 -0.8440036945979671 0.26577951673355826 -0.00029612522087085915 -7.498443405826393e-05 -0.00019257231139413401 -4.837617451075282e-05 -0.9726810841744297 0.021642903085780627
4.031285714285715 -0.8370451356863148 0.2755436609525741 -0.0006559028531786409 0.0001625819825290274 -0.0002052216587887198 0.00018617903874544416 -0.9670948922047932 0.03312863553563943
4.031714285714286 -0.8342013416725992 0.27787702571551404 -0.000782381438753217 5.717096496611141e-05 0.0002452646583991865 -4.021955358207992e-05 -0.9641254154659596 0.02456560659648208
4.0321428571428575 -0.8301383736151611 0.2879689714986328 -0.0005176635245522602 -8.91449978892977e-05 0.00020062988417716854 0.00017256193030336638 -0.9720581786429722 0.03344613451996797
4.032571428571429 -0.8300894817393295 0.29480948898088194 -0.001010355928341916 0.0001762542916677825 0.00029902254656942803 -8.643836502180346e-05 -0.9666162165178133 0.04391273215350978
4.033 -0.829966054488399 0.3004515633219141 -0.0005060985998046467 0.00014133288522749402 0.00018119375034108864 3.0693559467820676e-05 -0.9659228102018014 0.044478174455625484
4.033428571428572 -0.8325094640448643 0.3095239419175671 -0.00038670875777265554 0.00041089384792893655 7.672312522227408e-05 -0.00019714037060755197 -0.9631908609223092 0.038632166409041734
4.033857142857143 -0.8269175966828706 0.3180050229493681 -0.0009819007664510933 -0.0003244788329890601 -8.852450276814084e-05 7.866387435903869e-05 -0.9632766009056141 0.043463859611309136
4.034285714285715 -0.8202578053395417 0.32057956473894167 -0.0005501260335188963 -5.2392410002468265e-05 6.952003385164738e-05 -0.00010750211609443858 -0.9660689311852482 0.04195760198669629
4.034714285714286 -0.8145091288196612 0.3339207521403469 -0.00017287594700829848 0.0002057531048228056 0.00010284220642388989 8.034047096918258e-05 -0.9669363374636616 0.05145646292761109
4.035142857142857 -0.8143094293916546 0.33636383034318723 -0.0004327313612240684 3.3491526575581616e-05 7.399189906174479e-05 0.0001641712396430229 -0.9676476702993668 0.052104162603087124
4.035571428571428 -0.8070913568649257 0.3443902020675709 -0.000402601297827897 -0.00017509303808525852 0.0002691163674013432 7.227943776856485e-05 -0.9660662314872515 0.05470973221654117
4.036 -0.8054296409809838 0.3514799551648621 -0.0007812085154604628 0.0002692073030418372 -0.0002238970211326054 7.974868423910419e-05 -0.9698027604154642 0.05570842430456017
4.036428571428571 -0.8130074725616186 0.35320690483940975 -0.0008472737605284584 0.00014284530396257094 4.156751384336394e-05 -0.00021233663197143396 -0.9674830522744153 0.05152705545652774
4.0368571428571425 -0.8063019010325142 0.3632949029932963 -0.0003430729904612457 0.00018177633634117342 -6.949580086355246e-05 -5.2988252743877044e-05 -0.9717355340915372 0.052979529800974985
4.037285714285714 -0.796757510440152 0.3705258887868634 -0.00048473372185560567 -4.9933263100633386e-05 -7.541350058487999e-05 4.049295970791448e-05 -0.9652135023227514 0.0588033133050265
4.037714285714285 -0.7974345628070624 0.37065375340923984 -0.0002721092462086343 7.083444044057109e-05 4.2046074623446e-05 -8.327311787399676e-05 -0.9704680692304662 0.05561139139397426
4.038142857142857 -0.7910380619366375 0.39212634193990265 -0.000994994857626149 0.0003438844582104853 0.00019773362060985776 -9.749130659250223e-05 -0.964311130918868 0.06034189731271047
4.038571428571428 -0.7928558260690532 0.3902066239485849 -0.0001373930244419099 -2.5827307193700753e-05 -8.501545738710889e-05 -0.00023589205959584082 -0.9608572662511751 0.06735021816142672
4.039 -0.7883773970749396 0.39337469382644225 -0.0002979302360286846 -0.0001300018817938008 6.095665138825634e-05 -2.511026898048966e-05 -0.9602156302825732 0.06477945253720359
4.039428571428571 -0.7808402261884344 0.4122227146685879 -0.0007129072876690608 -6.133367292237619e-05 -9.107730949853197e-07 -4.11081937394982e-05 -0.9650437584631756 0.06835943638570728
4.039857142857143 -0.7853650411327193 0.4096076429033286 -0.0002410666292920942 -6.8506545559172e-05 -0.0002481465679344506 0.00015129695603055776 -0.9729735961678905 0.07062420061349162
4.040285714285714 -0.7790824470285146 0.409126938555566 4.831793786903293e-05 9.551796088212503e-05 -0.00010727152735598311 -0.00044725983453817086 -0.9630988042269352 0.07316164869743808
4.0407142857142855 -0.779372784366882 0.4226160551235535 -0.00045474329046221707 0.000257473267187568 0.0002590194226595244 -0.0001013859464532721 -0.959872821563794 0.07753089994605622
4.041142857142857 -0.7676905551430008 0.4280666969906732 2.6671411526540265e-05 0.00019077268138864052 -4.017730038584138e-05 -0.00018129359811441928 -0.9688954030881204 0.08577583469047109
4.041571428571428 -0.7652457785866129 0.4343314966590567 -0.0006249834479401734 -7.361233418265213e-05 -4.7402469445899733e-05 -4.0765669688629265e-05 -0.9650555458677074 0.08372591429145275
4.042 -0.7618435575201894 0.44503489943342484 -0.0006724488771970926 0.00017430805316159584 -1.3616571280540185e-05 0.00011988640796268936 -0.9620543780352397 0.08924049744234955
4.042428571428571 -0.7553986263046064 0.4471093308653966 -0.0004303311124007024 9.032777237976445e-05 -0.0004184870454827724 0.00017700085767577412 -0.9584891405720786 0.0924751398771941
4.042857142857143 -0.756564541983828 0.44325909710855205 -0.0005009299739192696 0.0002652139193299394 6.786943593254684e-05 -0.00013673912792550654 -0.9657928796519603 0.08617697742265881
4.043285714285714 -0.7503414241181495 0.4631708037963764 -0.0007414858843138036 -6.91203421565735e-05 -0.00012468331330507402 -1.1761552153411605e-05 -0.9664229647394909 0.08469542199725075
4.043714285714286 -0.7433670346335842 0.4636179899317178 -0.0007387339359637015 0.00024383249133851453 -8.355096775769527e-05 7.88833838709231e-05 -0.9665437370291657 0.08293956410704954
4.044142857142857 -0.7441283337551392 0.47237745352437005 -0.0002526244924736638 -4.954844233999233e-05 -4.4682371515628066e-05 0.0002114552215135937 -0.9619108274746458 0.09501028290155068
