!Created with skrf (http://scikit-rf.org).
# Hz S RI R 50.0 
!freq ReS11 ImS11 ReS21 ImS21 ReS12 ImS12 ReS22 ImS22
4.0 -0.8466516814663524 -0.25337191197157 4.453008297912541e-05 -0.000324709429297819 2.0719534390504605e-05 -0.00014470982666529465 -0.9646119320201736 -0.13044050283652137
4.0004285714285714 -0.8543273963859537 -0.2464503072553691 -2.5889567957354137e-05 -0.00023005641497664693 8.383660702498548e-05 -0.00012266161589529755 -0.97070874325223 -0.12313706894667305
4.000857142857143 -0.8586437928043211 -0.23517814533918865 0.0003461044651193018 -0.0005204431309312908 0.0001170744958029315 4.5514772634360474e-05 -0.9671962526081733 -0.11643675227008245
4.001285714285714 -0.8523666141915365 -0.2301119898792897 0.00010687691997637311 -0.00030581584669642464 0.00012979972561860228 0.000222537396540328 -0.9651430222320583 -0.11667402696660337
4.001714285714286 -0.8593094089380113 -0.22208752223238937 0.00026663788066039846 -0.00109863157036739 -0.0001050733615027965 -2.6626741433572014e-05 -0.9680168778440835 -0.12218023508462494
4.002142857142857 -0.8575871903536719 -0.2228570290860035 0.00017312950507150301 -0.00038751083912695735 0.00012539149011428166 9.500862227829756e-05 -0.9656214576692325 -0.11063564176879152
4.002571428571429 -0.860975802348299 -0.2111018061781557 7.592504436657137e-05 -0.0005057411332284202 0.0002730800472086088 7.256366547617716e-05 -0.9716871788835516 -0.1043116747568463
4.003 -0.865482061403828 -0.20170044883608385 0.00014435662203606656 -0.0006281625500267987 -4.476562846492396e-05 8.738292958301814e-05 -0.9675695689973345 -0.10405999708103841
4.003428571428572 -0.868014562399786 -0.19739610322752826 0.00016557853529506667 -0.0002479728525704531 0.00036055164205607424 -0.0003593669846976191 -0.9626127854051235 -0.09858990798889593
4.003857142857143 -0.8630725215068056 -0.18771001288866665 9.181508957211564e-05 -0.00012239374082001695 -2.9656382670508096e-05 -0.00016491057309932328 -0.9716270574307694 -0.1114843633028105
4.0042857142857144 -0.8756883435672193 -0.18334784257597364 0.0001717685547268346 -0.00044343105284780436 0.00011324720803475275 0.00019550296475491039 -0.9656983234067206 -0.0996955561919532
4.004714285714286 -0.8701312475710341 -0.17279136376066406 0.0001798750169943496 -0.0003901130815263088 8.400867611540165e-05 -4.741685790422131e-05 -0.9601763552091861 -0.1086198556949514
4.005142857142857 -0.87148820108631 -0.16659602962863976 0.0003749273230062287 -0.00039359454301267545 -5.500893305659035e-05 0.0002506377465925787 -0.9689322618493494 -0.09539707060474799
4.005571428571429 -0.874250010783121 -0.15855020920347307 0.00023806299467460924 -0.0005690606214699432 0.0001789808709078123 8.576781457827436e-05 -0.9610793171205263 -0.09463509865981753
4.006 -0.8755909861906553 -0.15452582089245231 -0.00024402746401437669 -0.0005348311433026906 0.00011129925173940944 1.566431503381173e-05 -0.9713498831188079 -0.09300084363802252
4.006428571428572 -0.8767074807699803 -0.15012009493618794 -0.00015372594030618736 5.707430126480388e-05 -8.368321486966167e-06 0.00042987716377030906 -0.968714221525071 -0.09266869651267304
4.006857142857143 -0.8805148102942079 -0.13641475045619048 0.00048730918116089396 -0.000628946867357754 5.3755003893152825e-05 -4.033031917816803e-05 -0.9624997511743809 -0.08639130937284656
4.007285714285715 -0.8813671446323718 -0.13193399357136143 0.00013322191366008066 -0.0006023620787178122 -0.00018850375611800373 0.0002894824524626755 -0.9682801689181704 -0.08087619004707272
4.007714285714286 -0.880257618861582 -0.12687611456066672 0.0003143579599900949 -0.0005294224055405094 -8.284970669724455e-05 -0.00014609072682221768 -0.9634760616718828 -0.0850323240539835
4.0081428571428575 -0.881735747938411 -0.12307311303887854 0.0003453234308480079 -0.0004745659142881491 -0.0001398754993518482 0.00023100644048140985 -0.9670095074595189 -0.08773481427506807
4.008571428571429 -0.883650840608525 -0.10978606585499798 3.170224311611651e-05 -0.0002408411283769506 4.9640474692940336e-05 -8.595922698855131e-05 -0.9644513308741628 -0.07907580834121293
4.009 -0.8848481753091361 -0.103546666470128 -8.651595992478035e-06 -0.0007720992708081458 0.0001083690787328317 -0.00013258350129801794 -0.9768368515150123 -0.08513720250540348
4.009428571428572 -0.8810719530643453 -0.10015881198992325 -0.00011131263389122943 -0.00030012052436347134 0.00016361322033524574 0.00014643456606085344 -0.9777752966539998 -0.07599436889217058
4.009857142857143 -0.8861374579789972 -0.08908276930305173 0.00018151669528312751 -0.0006989521709313202 0.00021596437990289082 2.9489084104571006e-05 -0.9684674591500756 -0.06974010411423498
4.010285714285715 -0.8870895693648753 -0.0821933788906152 -1.7456232795954216e-05 -0.0003729463058585413 0.00011812023840724425 7.124717556520094e-05 -0.9643158591015527 -0.07254291109786716
4.010714285714286 -0.8870397827124281 -0.07708017202694767 0.0003271294468695911 -0.00028134699460646406 -0.00018175926902812712 0.000176935031805063 -0.9704903541606207 -0.07286591493643918
4.011142857142858 -0.8836760017278333 -0.07070997639408098 -2.7060139636629267e-05 -0.0004895650567995598 0.00025597752598237257 -0.00030060715783953977 -0.9699803803326985 -0.06734802960605289
4.011571428571429 -0.8844123365092434 -0.05814533751843689 0.00023663983941840395 -0.00027456272574868847 -0.0002552586261185926 0.00016671260774571097 -0.9702315376286451 -0.06623655194803578
4.012 -0.8878438500549339 -0.05564450422787838 -0.0004657295747726511 -0.00035621128617696374 0.00018711907723043192 -0.00020791322412322063 -0.9746099953562563 -0.06307476029851002
4.012428571428571 -0.8853253080363094 -0.044637424229800306 -0.00020642038960253442 -0.00022896164300190115 -1.0704347576335382e-05 -0.00012083711013001879 -0.9628051650233173 -0.05586669641602868
4.0128571428571425 -0.893292290132709 -0.0355868883522875 0.00012153793829957504 -0.0003531556856664153 0.0002123363617921481 6.884006780453866e-05 -0.9658323422427636 -0.06440977315677679
4.013285714285714 -0.8828362152639447 -0.031446398796616704 -0.0003152573268326705 -0.0004275269461559002 9.288132139593784e-05 -0.0004475043795923795 -0.9614045522041945 -0.05855761840619503
4.013714285714285 -0.8863617141722726 -0.022433267208827493 -0.00013014449062854287 -0.00023058273603767673 -0.00014669021996774142 -0.00010592648230688768 -0.9770336695720989 -0.052101991407585355
4.014142857142857 -0.8844493401434992 -0.014125491546806975 5.893223754996996e-05 -0.0005261023396505841 -4.39755578926704e-05 -0.0001941323214460626 -0.9723475616799054 -0.04589820146319571
4.014571428571428 -0.8857412833589362 -0.01302982255217489 0.0001419107388294818 -0.000573943470745934 -0.00017391365865513593 -0.00035992109381547527 -0.9706603875079218 -0.052813378164706805
4.015 -0.894432682601991 -0.0004998877925451579 -1.9386685177060065e-05 -0.0005629002759143538 0.00017609581473584086 0.00021646097136139182 -0.9647300751827191 -0.05125890716590818
4.015428571428571 -0.8896617148131969 0.010210948611580966 -8.025763132124164e-05 -0.00034866418008272347 0.00011747373440116666 7.899627892136497e-05 -0.9728923378283133 -0.04936000523723269
4.015857142857143 -0.8877147203951198 0.015346042588403358 -0.00011642341017891136 -0.0008909937892971902 -0.0001306718483529736 0.00029713461800790457 -0.9702208475054919 -0.04574748285667558
4.016285714285714 -0.8877169181059978 0.021587004656225914 -0.00011883476714007573 -0.0008166397247109504 -0.0001469995772619078 8.913137254260765e-05 -0.965296589657022 -0.04332317076603475
4.0167142857142855 -0.886952419584291 0.02786132762173121 -0.0005492868529323457 -0.00033442042137595 -0.00036577981932256086 -0.00011050178139573363 -0.9643245327349053 -0.047103061371679154
4.017142857142857 -0.8840097147137572 0.03770928395203815 1.8937648471525987e-05 0.00020624156129786872 0.00015336721034410193 0.00036711133774307866 -0.9624594899074534 -0.040285269944236056
4.017571428571428 -0.8881566438924907 0.04142701564320675 -0.00044687911997544176 -0.0004329889959652939 -0.0003383617976701009 -0.00014514654470926432 -0.9735935540336403 -0.03965581682794778
4.018 -0.8843568390600021 0.04820501559633704 0.00016374828239745304 -0.0004651955646550848 -5.162929002453531e-05 -0.0001125821582895397 -0.9704405015540118 -0.039000530026594746
4.018428571428571 -0.8900232854462274 0.058589067077102416 0.00036760018993197097 -0.0005518552195256695 0.0002560116781866028 -0.00019978967451930987 -0.9708336364074441 -0.03443648415066142
4.018857142857143 -0.8819436102901055 0.06691127748513041 2.67733656760588e-05 -0.0003393099316071809 -0.0001597593733254267 -4.708237047970674e-05 -0.9624143335229396 -0.026275629486025562
4.019285714285714 -0.8810746889179015 0.07610846734846416 -0.0003775360456413454 -0.0007192541835506019 2.7683397960761407e-05 2.0276180461387303e-05 -0.9730348810431318 -0.02862909894929626
4.019714285714286 -0.886463661286355 0.08388993488276969 -0.0002967511726648309 -0.000611398975232625 -3.9113832210630496e-05 -5.999224461975239e-05 -0.9635573929756616 -0.02804211987420686
4.020142857142857 -0.8871178430921105 0.08574536818687216 -0.00018759111265171033 -5.264550962740895e-05 0.0002722540934885092 -0.0002640409159000438 -0.9691665308919681 -0.023269938584726108
4.0205714285714285 -0.8854539653575542 0.10255411839222299 -0.0002432337584024393 -0.0001485911372732841 -0.00018887104669428677 5.783057409464502e-05 -0.9687711596259085 -0.02808832242334969
4.021 -0.8801408492798878 0.10272197858466497 -0.0006008082945838908 -0.0003503218628857836 0.00016035570277531867 0.00011718738075761047 -0.9675771103547031 -0.021413521668654244
4.021428571428571 -0.8799537168111672 0.11381791252385612 0.00011921857970145375 -5.786841921341464e-05 -0.00010836535166692599 -0.00014632233095895222 -0.9698907054689598 -0.021698181782293824
4.021857142857143 -0.881927467409544 0.11596846456795584 -0.0002531644029656217 -0.0002646401442277508 -6.320335170017773e-05 -0.0001260009086437164 -0.9678697829223496 -0.01607382265809901
4.022285714285714 -0.8739383723543463 0.12012199251825159 2.448657311686279e-05 -0.0005350120483127143 0.00033264535975377393 -9.123106670377645e-05 -0.9774329097713412 -0.008592040673967754
4.022714285714286 -0.8791625100368108 0.1358543483604441 -0.0009532057687625991 -0.00028777581784658184 -0.00024600109169634944 0.0001054837305048359 -0.9655034823348171 -0.013602805837358423
4.023142857142857 -0.8751974908889978 0.14287947334548276 -0.00035000949450892196 -0.00021833476838143307 -5.0186628949019185e-05 2.3647355362171607e-05 -0.9676679809085963 -0.007086805594359021
4.023571428571429 -0.8764963864934455 0.1435725118810233 -0.00025464025926391864 -0.0002582557693435669 0.0001786721879630484 -0.0001525723456288564 -0.9635695523047576 -0.0036044547683113963
4.024 -0.8698320942539837 0.15432117387194047 -7.580413724543346e-05 0.00011848151651219664 0.00023399504076148262 -5.209519903490892e-05 -0.9709769896122059 -0.0076132686247231355
4.0244285714285715 -0.8745841555769708 0.15978405637009832 -0.0003286316400857505 -0.0002092630316982801 -0.00018245772669136045 3.6256488789101675e-05 -0.9721078702447363 -0.0006720676696269711
4.024857142857143 -0.8722861190090124 0.1703837603536346 0.00012168169218664958 -0.000157394987157368 -0.00021729515764873616 -0.00010410305003711664 -0.9687949747310881 -0.0005877026783173594
4.025285714285714 -0.8736618228380185 0.17937200561803518 -0.0007843686235013734 -5.340943942899051e-05 0.00014320794326153362 8.102361610587567e-05 -0.9666071510523643 0.004031440876797206
4.025714285714286 -0.8702121315078315 0.18645069453101634 -0.0005353019981269646 -0.0003323731883627214 1.8459714190868467e-05 -6.581391078015584e-05 -0.9749723539806715 0.007174064024199238
4.026142857142857 -0.8736744425829729 0.1892881227927192 -0.0002391473242824837 -0.0003820934008938472 5.204720495068326e-05 -6.066881635499299e-06 -0.9713034133172395 0.003986988170294438
4.026571428571429 -0.858723178873937 0.1995883065137666 -0.0003196369197603126 -5.357826554183308e-06 0.00020109501535193406 -4.344550244161764e-05 -0.9736744641144881 0.009793232515078906
4.027 -0.8626337670567479 0.20601400352462632 -0.00023340954468914368 -0.00012605022003583046 0.0001091709268682436 -9.87104259653291e-05 -0.9711000371060386 0.003758566813269055
4.027428571428572 -0.8667105784898875 0.20783768956417223 -0.0005452830764560979 -0.00018616363256378468 6.172557404594562e-05 0.00040645794061128427 -0.9663509802267493 0.015851425824283186
4.027857142857143 -0.8617022868977219 0.21560593952413928 -0.00011990591580150842 -0.00026522325723808823 -7.096939428631771e-05 0.00021707970761751473 -0.9732456000716069 0.011428727074021327
4.0282857142857145 -0.8603281558295622 0.23126833473829192 -0.00021453584115928157 -0.0005236766487610725 0.00017160663727575675 0.00011574339494703446 -0.9701264199531874 0.021763148102523614
4.028714285714286 -0.863402600360325 0.2268951126484306 -0.0002769466492730549 -0.00021940867804495182 5.586383159608868e-05 0.00010579216213719914 -0.9699471852207732 0.012590581544894019
4.029142857142857 -0.8586656490549074 0.24382795874328309 -0.00010920676381039919 -0.00020478028716233376 -9.682780131710318e-05 0.00018252000358241462 -0.9686997988110502 0.02277341936565402
4.029571428571429 -0.8552389222105109 0.24438651485675433 -0.0002305794305211992 -0.00024129397339160978 9.48027331839612e-05 -2.51699976227306e-05 -0.9647491606566831 0.024029092622665265
4.03 -0.8526761692686339 0.2515841612938046 -0.00016338772398095537 -0.00010093680837082764 -4.95087089218213e-05 6.165219529240117e-06 -0.9726047107573688 0.03275889964624467
4.030428571428572 -0.8493806719794705 0.2612498655125426 -5.979535900772392e-05 -0.0005698976925587574 -0.00013446676847953716 0.0002676515897516526 -0.9703725002786666 0.029512590804989674
4.030857142857143 -0.8508816715224181 0.26699722276689525 -0.00024008832393360277 -0.00016749083553964776 -0.00019463014930396397 2.517830102798434e-05 -0.9714237961347877 0.02192607066253884
4.031285714285715 -0.8444255328534472 0.27569016631093013 -0.00031831863301042825 -1.4759776310040154e-05 6.264581357067363e-06 -0.00011026766597916935 -0.9675657144976386 0.03404355600144134
4.031714285714286 -0.8411661324659742 0.27715905138237673 -0.0001213200070654426 -0.00041897796095957673 0.0002017492151313921 -7.933303777662575e-07 -0.9652069963842054 0.027322452948596476
4.0321428571428575 -0.8378610453991672 0.28795422823197164 -0.00039844642685106925 -0.0003354473085851489 0.000329245806717036 0.00020603033372207437 -0.9731919866761489 0.03564019600557822
4.032571428571429 -0.838048312893765 0.2952732043020293 -0.0002901825895906001 -0.0004678801582788221 0.00013043010616839177 0.0002950295013905198 -0.9660272428695438 0.04423488680541957
4.033 -0.837731778048448 0.2996189299559112 -0.000456062952819525 -0.0004955920599422907 -5.368050050694748e-05 -0.0004092846409590639 -0.9670937400725321 0.04407813099621523
4.033428571428572 -0.8412426041668426 0.3104934862032029 -0.0006081583805640112 -0.00023397507146901878 2.8095193527046394e-06 0.00019477031552960294 -0.9627268728243481 0.040114754652115905
4.033857142857143 -0.8331932910772603 0.3167228448516194 -0.00023486571793591158 -0.000220558658965071 -0.0003518666823090621 -0.0002363289352028581 -0.9633879108747765 0.04458314251545527
4.034285714285715 -0.8265851771343995 0.3204494400732189 -0.0002262511656259436 -0.0001018064946653163 1.2498774705910648e-05 -0.00017967084849950066 -0.9681209646646706 0.0435946079286552
4.034714285714286 -0.8180291619519733 0.3329967587049916 -0.00039046501977363493 0.00028339587434576726 0.0001910231726421601 7.463711273487555e-05 -0.9656908281368978 0.05122203710034974
4.035142857142857 -0.8220227736486898 0.33833916993825297 -0.0003762624544752623 -6.1567977909939795e-06 0.00015700370390556723 -0.0004258169626820407 -0.9698417445850137 0.05300075910449816
4.035571428571428 -0.8143496523651862 0.3436599071338837 -0.00043767639601132395 -0.00026025081248051257 0.0001595052955299907 0.00017764931261399894 -0.9683142994244116 0.05645545449292701
4.036 -0.8113996042270958 0.3537021329807426 -0.0005368008209398357 0.0003079047852238301 -0.00022905505334079167 5.073736921220298e-06 -0.970402300279748 0.05639392788711825
4.036428571428571 -0.8194466184084392 0.3538247979564979 -7.750205427068729e-05 7.591748152821163e-05 0.00033092942954049447 -0.0002903290112533326 -0.9687229549922218 0.051103995840105484
4.0368571428571425 -0.8121247032936001 0.3647297758861884 -0.00016991784974036865 0.0004095291112929944 -7.325868026895374e-05 -5.023342112214256e-05 -0.9706785423229589 0.05331693259711317
4.037285714285714 -0.8033276628971192 0.3730058679860303 -0.0005318940352242561 -5.242833499322708e-05 0.00016250226913703365 0.000133789228677498 -0.9624628953804839 0.06031516407400532
4.037714285714285 -0.8038205925649593 0.37233225497585254 -0.0007111682154092 0.00012910757642675406 -8.434312442328248e-05 0.00023879268913753432 -0.9700039034909549 0.057379772389088965
4.038142857142857 -0.799051876743438 0.39293066292797085 -0.0003583660419397902 0.0002918430519794386 -6.629018308110726e-05 0.00013051480441583568 -0.9630212384373353 0.06193439973103777
4.038571428571428 -0.8010709132586173 0.3918563187207641 -0.0004761674345295077 0.00018073205345156765 -0.00015498912626446353 -0.00026909224913455724 -0.9603317895003903 0.06721918670977275
4.039 -0.795728854186655 0.39487640060087337 -0.00011239457089567689 -6.667411184624031e-05 5.1946163953996755e-05 -0.00010604483786733116 -0.958696241554218 0.0637744198737148
4.039428571428571 -0.7870549079321498 0.4117777136358475 -0.00050186251186854 5.233815562782386e-05 4.351122664760613e-05 9.166725656796528e-05 -0.9650808062251217 0.0694079438406429
4.039857142857143 -0.7916676288420847 0.41090354747408053 -0.0004627669094289258 -8.263744792805951e-05 -0.0003351285032518214 0.00020118766229078506 -0.969383220547534 0.06936297221647224
4.040285714285714 -0.7864264424318784 0.41043516490498116 -0.0008188699931591469 -0.0001070531802148738 -0.00020941380949812352 -0.00013747400214237358 -0.963811731861956 0.0761534781197728
4.0407142857142855 -0.7864234464619364 0.42358583100938324 -0.00014075796576482077 -0.00027474342803387785 -6.725936300125202e-05 4.354422828731882e-06 -0.9606459156581851 0.0776193459742707
4.041142857142857 -0.7731744056239619 0.42965932922576394 -0.00024106246435891252 -0.00019720057109080761 7.641169771776087e-05 -0.00012162041818685672 -0.9703920464831269 0.08638372206594337
4.041571428571428 -0.7720200696581405 0.43525634204807295 -0.0005657588692837753 -0.00023063184371893827 4.873958942836468e-05 -8.67109939294831e-05 -0.9660055977232527 0.08217584637079034
4.042 -0.7694775291913248 0.4445850398560103 -0.0005497140295842644 0.0004180908816056522 -0.00018379893668533145 0.00038471151314601503 -0.961670688574507 0.0885298316683747
4.042428571428571 -0.7631154925478693 0.44887839267058705 -0.00045619482245568596 0.00028300275027702136 0.00021130680209963546 0.0002346190099523787 -0.958697917749577 0.09283702090904297
4.042857142857143 -0.7644115041491328 0.44692985384814715 -0.00034535458048477426 0.0002490312122932852 3.802889663076587e-05 -0.00036856150439222785 -0.9668455469010712 0.08697054006767972
4.043285714285714 -0.7586241711419801 0.462796185382406 -0.0007165615280919202 0.0001439928200060593 -5.978903920710233e-05 -0.00010144885830804895 -0.9642576667646141 0.08546416822309615
4.043714285714286 -0.7509797607958357 0.46566498763251574 -0.0005237005393175307 -5.9914360048759297e-05 -9.346461341715882e-05 -0.00010453006929237763 -0.965400310023971 0.08196880101661978
4.044142857142857 -0.7517864410932167 0.4745664360060378 -0.0004413029363755818 4.847596379244441e-05 9.343101684897653e-05 7.123099456175781e-05 -0.9658761814685087 0.09674587376461835
