!Created with skrf (http://scikit-rf.org).
# Hz S RI R 50.0 
!freq ReS11 ImS11 ReS21 ImS21 ReS12 ImS12 ReS22 ImS22
4.0 -0.8483253503657432 -0.2517009100668177 7.522650862141547e-05 -0.00041278796036202235 7.93153183407822e-05 -7.420228823973836e-05 -0.9633492432188011 -0.12974801606932312
4.0004285714285714 -0.8568320238393964 -0.24588633969447063 0.00031561811104982806 -0.00017985165642321374 -0.00010348541511274254 -0.00017229003125617527 -0.9711407672445365 -0.12363808506501188
4.000857142857143 -0.8605382638475259 -0.2362914677410132 8.851961780140216e-05 -0.0003335917609367063 -0.00037344825250886854 0.00011745386089032421 -0.9679585049829081 -0.11601926652441127
4.001285714285714 -0.8540863088762638 -0.22928082919229004 3.9035694345843295e-05 -0.0003081932726991782 -1.2024291773911462e-05 0.00018224580268061725 -0.9633970155720151 -0.11356532088522633
4.001714285714286 -0.8598538441909496 -0.22292158763777656 -0.0002478209975739986 -0.0004404208654643849 0.00021416032257199656 -0.00011199406607237409 -0.9664628998490116 -0.12118193964580909
4.002142857142857 -0.859897950711164 -0.22227561302402032 0.0003393849724496065 -0.00011810777830725725 -6.597373965658598e-05 8.15689279714032e-05 -0.9644067044844695 -0.11034206191063228
4.002571428571429 -0.8614172012660607 -0.2110674398846808 -0.00010862829419105149 -0.0005239694636606047 -1.4200847004358538e-05 0.00024063193539650634 -0.9713999889599121 -0.1042330265140682
4.003 -0.8680201798939282 -0.1999538331498807 9.668462466141402e-05 -0.0004245019398857468 0.00018668289720139938 0.00026887298601172406 -0.9711288237353224 -0.10352240035401117
4.003428571428572 -0.8683755396815551 -0.19752518400685745 0.00028109004261858434 -0.0003179862094223286 -9.49715010542567e-05 -0.00018104454504271305 -0.9615952737143916 -0.0971975203520379
4.003857142857143 -0.8633641357105063 -0.18778197463675098 0.0002790474840050759 -0.0004391101095695222 5.7484400178553625e-05 -0.00019152980641593573 -0.9700811657439976 -0.10975565473521803
4.0042857142857144 -0.8739690175828347 -0.18004534943934175 -0.0003418139118983433 -0.0004668730465430751 -3.909389192006392e-05 1.7336385164160326e-05 -0.9663478144836265 -0.09894841103284945
4.004714285714286 -0.8706583755164077 -0.17430816980737887 2.650328267298101e-05 -0.00040544811641265413 0.00018152753342059132 2.9759855229131882e-05 -0.9592410858677287 -0.10755664859133873
4.005142857142857 -0.8726484520825925 -0.16210097677169266 -0.00010717895034861184 -0.0002454350271526289 3.847633250538149e-05 4.967298535329387e-05 -0.9691464201308135 -0.09610572416227328
4.005571428571429 -0.8732558703173579 -0.15776785389298817 -0.0004901051037735668 -0.0006635991599277758 2.3591269865249154e-05 5.051500404533579e-05 -0.9607751960251568 -0.09449024485398075
4.006 -0.8766049684413221 -0.15405491390912435 -1.2608949058309634e-05 -0.0005984192809546896 0.00026193596456218997 -0.00011490929522157702 -0.9695212013433608 -0.09338820707721429
4.006428571428572 -0.8762297838240216 -0.14970088733706274 -2.6782899479705388e-05 -0.000747264087444964 6.683443454405209e-05 -9.700030310522092e-05 -0.9684188898242425 -0.0924266492217558
4.006857142857143 -0.8810978536959692 -0.1366572673129124 5.8272831088539345e-05 -0.00040496670825490106 0.00012287783751689223 0.00017637364229120952 -0.9644011853987362 -0.08649339032452477
4.007285714285715 -0.8828169593279261 -0.1307775205716392 0.00032854912620385057 -0.0006410272406275427 9.91833290364179e-05 0.00012307772645383505 -0.9688354456547199 -0.08040254243123171
4.007714285714286 -0.8803212005888592 -0.12513369763093204 1.1329276674024868e-05 -0.0006112356369876488 0.00012854762656509423 0.00021562759129854946 -0.9628158390601226 -0.08241150134006028
4.0081428571428575 -0.8816840489049413 -0.12079198196449738 -0.0002598474119064207 -0.0006325991944233264 -0.00011736329784202388 0.0001857760177635088 -0.968243968341811 -0.08774628383258856
4.008571428571429 -0.885972135212036 -0.10667803438818907 -0.00046180678477401025 -0.0003976339868246868 -0.00012725110032809494 0.000184698095450441 -0.9643040969312101 -0.07812292741790795
4.009 -0.8860459800963753 -0.10335256601084128 6.653890170051148e-05 1.747952071354747e-05 -5.044765575226556e-06 -3.4224108601706224e-05 -0.9746177603641103 -0.08436799066225045
4.009428571428572 -0.8829903254394132 -0.09990308533539073 0.00018817451429819544 -0.0005793696736205273 -0.00014233693255611733 0.0003043204256874863 -0.9755108114743648 -0.07632259881041827
4.009857142857143 -0.8854654157286028 -0.08764802465722726 -0.0003648258195262903 -0.0006068897448537516 4.4744998713242407e-05 0.00020940075121476877 -0.9690881074154071 -0.07154795909282279
4.010285714285715 -0.8886640821890005 -0.08128924476077991 0.0004277412992274848 -0.0006562718688981977 0.00014541915276068573 -0.00020103633197931004 -0.9646472188603836 -0.07268590872771868
4.010714285714286 -0.8880165793342278 -0.0756344528128148 -6.098409120634703e-05 -0.0006482430798657836 -4.5864248493631806e-05 0.00030225251297227873 -0.9700163002785043 -0.0703118629396375
4.011142857142858 -0.8826140995779697 -0.06995926736019366 1.5254246282572291e-05 -0.0001464652325387413 -6.617798970362495e-05 -0.00016036193014849022 -0.9691854440492418 -0.06492753034408116
4.011571428571429 -0.8850566133410881 -0.05763583915716145 0.00017027042025474413 0.00014382192729344492 0.0002303207039817251 3.311242019454558e-05 -0.9712102434192964 -0.06730778767980136
4.012 -0.8879815359226052 -0.05485616507525251 0.0002398484112344074 -0.0005708925129801989 6.661389798819306e-05 3.239873286338995e-05 -0.9749867192871764 -0.062305168918018336
4.012428571428571 -0.8872199972453431 -0.04506071840625514 -3.521348131387715e-05 -0.00014943962655000336 -4.96175027240471e-05 -5.988091986751879e-05 -0.9614271468403064 -0.05578394192680854
4.0128571428571425 -0.8932391557838281 -0.03606076544698928 -0.00023681936191583542 -0.00021571520414167598 7.191577251413543e-05 -3.5395729109440055e-05 -0.9639684367796977 -0.06188975094145851
4.013285714285714 -0.8839017927072327 -0.03187154602061733 0.0001134467227446569 -0.00043686236665561683 -0.00013643287635251115 -0.0003321529600442211 -0.9630549672911727 -0.05887405152764948
4.013714285714285 -0.8883783150331057 -0.0207780495138706 -0.0001488729194272194 4.42772708345729e-05 -0.00017169280005386174 4.835805430531367e-06 -0.9756685803515847 -0.05096951248605667
4.014142857142857 -0.8872560838938122 -0.014061668958646783 2.6861638393299008e-05 -0.0006472909526816213 3.0080250532934e-05 -0.0002502730470856652 -0.970887787661545 -0.048090780136663645
4.014571428571428 -0.8868241823962247 -0.010867271939854659 -3.248226264575471e-05 -0.0003645827512395874 -2.076801611556378e-05 -3.9352644137685673e-05 -0.967646100792596 -0.052545330744675496
4.015 -0.8959015492030022 0.0019669763737392714 8.126909890618058e-05 -0.00010069468926274564 -4.893668282013895e-05 0.00029317074096155257 -0.9647522533418006 -0.04941696690035004
4.015428571428571 -0.8904787416934394 0.011606576576106142 1.0131707384945813e-05 -0.00026958565548104485 1.7581415073963914e-06 -0.00032554802404107734 -0.9734137508486493 -0.048324621314952174
4.015857142857143 -0.8903363001130273 0.01697028772789291 0.00014458318300692723 -0.00022757524962007633 2.8938021657272014e-05 -9.023475024209835e-05 -0.9704040343560183 -0.044460713643537646
4.016285714285714 -0.88903574055477 0.022290102682496864 -0.0001358919473035432 -0.0005409422254317313 6.959172431309432e-05 0.00017054944874578474 -0.9660463140866069 -0.04246544681444675
4.0167142857142855 -0.88860624167768 0.028351399337051178 0.00012156876385918397 0.00015180794003901964 -7.065697475814114e-05 -0.00029806924329674216 -0.9642977826105227 -0.047241693342262546
4.017142857142857 -0.884865223214813 0.039735290677210905 -0.00023398528904923637 -0.00029735140691525177 -0.00017180139129178957 -8.871028033046492e-05 -0.9629884737443015 -0.0391222542521727
4.017571428571428 -0.8894708724090873 0.04211711422606933 -0.00016766673133377023 -0.0007466986341437013 0.0002964703683036594 0.000289116046319408 -0.9733005295026654 -0.042098266186169075
4.018 -0.8865216952189671 0.048550743224804495 -0.00037840951497915666 5.657696565928193e-05 0.00022748621370827977 7.974855643594833e-06 -0.9719542776663527 -0.04011250919850438
4.018428571428571 -0.8913203005634825 0.05681402016551718 -9.3490457141276e-05 -9.09316267150092e-05 -0.0002584666035813073 0.00010347957325383552 -0.9708705773641261 -0.034204206510195116
4.018857142857143 -0.8824204967184779 0.06773299788126137 0.0002092851100606068 -0.0003014786074977962 0.000484672175599657 -0.0001254420347774279 -0.9602568114217779 -0.02632831372666612
4.019285714285714 -0.8820556252992029 0.07848403959696827 -0.0003920327999799162 -0.0003264151435741614 9.756172929163393e-05 -0.0003903407623254988 -0.9717905909286662 -0.028352234005619155
4.019714285714286 -0.8858217376756526 0.08722372554380269 -3.893286701531284e-06 -0.00035858809045297363 -5.764789209237778e-05 -0.00011157793465081584 -0.9635898247635734 -0.027676039581097284
4.020142857142857 -0.8843182146343035 0.08780783467124627 -0.00043981643176362425 -0.00016391975004901823 -3.3082977282037127e-06 -0.00036045673898166876 -0.9660691700744748 -0.025271821521981607
4.0205714285714285 -0.8845008123342171 0.1033658447211902 -0.00016164826592848618 -0.00044490486446042076 0.00018806044528460412 -0.00019343993133951712 -0.968829920043192 -0.025303011735467378
4.021 -0.8812159652882096 0.10290452369970832 -6.861902212714566e-05 -0.00012909141666288696 0.00018606954054646747 0.0003098977022591769 -0.9681716996690345 -0.019398594132199236
4.021428571428571 -0.879775549355929 0.11496020554479652 -0.00029666306880664844 -0.000431218694506494 -0.00010376961189799377 0.00017933400685799588 -0.9685827002258722 -0.018472510896814936
4.021857142857143 -0.8808437776930789 0.11721339736535277 2.3935689839332894e-05 -4.714026339384962e-05 -0.000145740172923668 -5.002179123029999e-05 -0.9667100656496056 -0.01412531943407656
4.022285714285714 -0.8738520564252784 0.12180258415324957 -0.0004992080560141522 -0.0006470574960343822 -0.0001061857728573048 1.6365195872799188e-05 -0.9741219858373041 -0.007995240958766504
4.022714285714286 -0.8808619246503792 0.13660815425888995 0.00037196547916943127 -0.0008559990828287715 4.619331913109634e-05 0.0002633116126937014 -0.9656970872057521 -0.01395291324789913
4.023142857142857 -0.8751571053777171 0.14271831346806624 -0.000579820833039202 -0.0003449890972183017 0.0002309807701107886 0.0002670711665713598 -0.9689694308530591 -0.008688944977948422
4.023571428571429 -0.8759772536272682 0.14456486394120818 0.00019466529495137434 -0.00032969015120621844 -4.215392454264944e-05 1.401389506949031e-05 -0.9622715261945471 -0.004109775954182468
4.024 -0.8716856053212821 0.15631802633582087 -0.0006279541199521868 2.473670419799107e-05 8.319294235940267e-05 0.0003259680652298501 -0.9715571130834477 -0.006941342342617431
4.0244285714285715 -0.8735171218409895 0.1597145540361285 -0.00031020782585797587 -0.00017660499048194792 -0.0002266713598944934 4.5612608749222454e-05 -0.9709123167007994 -0.0032681202854969267
4.024857142857143 -0.8746809077886183 0.17233598906937903 -0.00015417226709167042 -4.1279796954198004e-05 1.8596766098120823e-05 -2.5179239347650523e-06 -0.9676176961566368 -7.158246025256769e-05
4.025285714285714 -0.8735748485095985 0.180023755360046 0.00015118788874672514 -0.0006530079557725113 -9.777358818648955e-05 -4.383296543040898e-05 -0.9656988973173194 0.003996648748813345
4.025714285714286 -0.8733030765976283 0.18723479808363494 1.996645697279699e-05 -0.0003054686773621565 0.00013811330518886237 -7.134495832500401e-06 -0.9767046312270289 0.010512191307814148
4.026142857142857 -0.8732097689634698 0.19225013125138996 -0.0004369264062220326 -0.00040004861696415903 0.00020635019238568199 -6.192192828852754e-05 -0.9692788620419107 0.004481915502964218
4.026571428571429 -0.8605107745761286 0.20100099629813126 -0.0003245874266122297 -3.989992714251702e-06 6.630934102414071e-05 -0.0002447201616450439 -0.9750378642734246 0.008199807000571555
4.027 -0.863040572953814 0.20621291956846474 3.329670548284473e-05 -0.00013384963400455598 -0.00010556835607857933 -0.00017720613734298641 -0.9711193964463675 0.004914309830980227
4.027428571428572 -0.8642393760127388 0.20871562736595017 1.4816440788293174e-06 1.9701240286138524e-05 0.0001858160930896083 3.379318523305619e-05 -0.965869725951278 0.017731035259056747
4.027857142857143 -0.8596036681845337 0.21482347258383439 -0.0004966172434563162 0.00024286999074184392 7.136062563661025e-06 4.1263034501062266e-05 -0.9751668830825054 0.01320492289322233
4.0282857142857145 -0.8611808256568945 0.23034541323381194 -0.0005105697996226717 -0.00018736533075982488 0.00010719124175938683 -0.0003293823055029674 -0.970507879264797 0.02389481113115025
4.028714285714286 -0.8645486964454754 0.23009505291469876 -0.00047005660058149117 6.818107482901213e-05 -1.4988634948659122e-05 0.0001484151125652621 -0.9698514595507168 0.013003648767076
4.029142857142857 -0.8580687446544597 0.24479643433416368 -0.0006207392854797079 -0.00010380147276746464 0.00025492924302842295 -8.920832925017696e-05 -0.9686622019689455 0.023903370075097616
4.029571428571429 -0.8564959165388767 0.2456977478717096 -0.00011681704469352568 7.545616052036264e-05 0.00022149367035521436 4.1124478931691473e-05 -0.9639156619600888 0.02127305199078707
4.03 -0.8505708927549919 0.2537437114908853 7.471972019203707e-06 -6.040593446332702e-07 -0.00014229838393153957 0.00011362779929037254 -0.970905389344087 0.030434433387122997
4.030428571428572 -0.8503147547670056 0.2644135078427768 -0.0002813184531987171 -0.0004809351318527383 -6.367341441543523e-05 3.07797446947694e-05 -0.9683823383887462 0.029847607095897018
4.030857142857143 -0.852973633087215 0.2676361022030858 -0.00048439429716300083 -0.00020380946475698602 -0.00014270416526089992 0.00024702440162897437 -0.9727890016606457 0.0233243623374511
4.031285714285715 -0.8443443597698527 0.2765225777438531 -0.0003894208614343274 0.00026645969360552754 7.535528635082211e-05 -0.00028404859111558185 -0.9681863538359271 0.03522795822652423
4.031714285714286 -0.8408810475170517 0.27924863632941627 -6.396432599771401e-06 -0.00016826400193207066 0.00020991406887591662 -0.00022539952201161768 -0.9648587964212477 0.02582315346101204
4.0321428571428575 -0.8368224970324359 0.28932291845531255 -0.00025971110811597205 -0.0004531375595597691 0.00015648219901165703 -3.4579431332576165e-05 -0.9739387751346767 0.036466344440344425
4.032571428571429 -0.8390918263328354 0.29581171440965304 -0.0005871548669076337 0.00023649202096045506 -0.00010601391820377151 7.515416682619128e-05 -0.9647015002710067 0.046380295390900175
4.033 -0.8371604772848761 0.30268906442952204 -0.00016940097789567494 0.00034067022871968404 0.00023405695111100317 6.469837157438107e-05 -0.9654163514041927 0.044404708818935816
4.033428571428572 -0.8416921795102901 0.31159215358163556 -0.00032616532326219425 -0.0005060429964997486 8.444281123169558e-05 0.0004261939059399306 -0.9632986142143939 0.038485142982722244
4.033857142857143 -0.8345339753289236 0.3196345055395359 -0.00040809794262164253 -0.0003963241860648985 -5.8649249712644e-05 0.00025274929623841474 -0.9625394180079474 0.04424039033127823
4.034285714285715 -0.8264578815160043 0.32282811698297864 -3.497825493476436e-05 -9.404802840977503e-05 0.00017122988409965762 -0.00010749397495102772 -0.9667015117837119 0.04220141738724821
4.034714285714286 -0.8193923831690112 0.33418960634831896 -0.0006318244653272064 -7.375309179365994e-05 0.0002107719914383406 9.931339875978084e-05 -0.9665147049176758 0.053526807660708935
4.035142857142857 -0.8231658008656286 0.3385781480417899 -0.00023313017020890184 -0.00033788172358507977 -0.00010699927613187572 -0.0001232084458518843 -0.9693067781963016 0.05327006031091638
4.035571428571428 -0.8161062042817661 0.34571605479218603 -0.000507861887084622 -0.0005186293816256622 0.00027804792796589127 -0.00021075045339483372 -0.9677718813969887 0.056515932617110895
4.036 -0.8138292628658916 0.3551189958676638 -0.0004307222356008873 0.0005766988245622496 5.1640660885897325e-05 -0.00011030030865268484 -0.967488206533844 0.05767493697212388
4.036428571428571 -0.8209593584914198 0.3537762817981673 -0.00034496251083168 -0.0002111995033738926 3.7919043209167995e-05 -0.0003256961401764238 -0.966541952954141 0.05477555694716164
4.0368571428571425 -0.8123717041497187 0.3667592541941362 -0.00043640592075692053 -0.00037173765022636095 4.728132308368684e-05 4.699969194822873e-05 -0.967699091732733 0.05438786136861341
4.037285714285714 -0.8038723605776019 0.3726311119596569 -0.0003863907340861442 -9.846562756885066e-05 0.0002993691824330342 0.00012404633192821936 -0.9651362596886531 0.05972614159013652
4.037714285714285 -0.8029093429000914 0.37342711045332405 -0.000463159966165815 -2.3594705814627323e-05 0.00010542927889965684 1.697995416867041e-05 -0.9696435708823382 0.05688551376233126
4.038142857142857 -0.7993040449342129 0.3925966237500133 -0.0005175116517881818 -0.0003415720068760051 0.0001356954380074209 5.7814720979140185e-05 -0.9638116735623224 0.06087524874815809
4.038571428571428 -0.799599483620524 0.39268437397258354 -0.0005964138248995582 -0.0003202445417137167 0.0004148904983229524 -8.690232864409336e-05 -0.9602926801119168 0.06552767691618738
4.039 -0.7959279414396385 0.3961017308209669 -0.0004091183054599063 0.0001277114373465769 1.0766250897924856e-05 3.475280495652236e-05 -0.9596277476822983 0.06400903006501098
4.039428571428571 -0.7880415769061023 0.4134404111048589 -0.0007092119079616779 0.00013129684545070105 -4.6032234827799014e-05 0.0002644336632155406 -0.9632632569603049 0.07030910028193174
4.039857142857143 -0.7914365617728009 0.4118975712440116 -0.00012910474498607056 -0.0002587775273398756 9.830114467917103e-05 0.00016175796617991237 -0.970943757599191 0.06972806316374558
4.040285714285714 -0.786166672584521 0.41230435850821906 -0.0005677026516503783 6.349792797530365e-05 -0.00018523106165071148 0.00016349694217314284 -0.9644611840527143 0.07544422429867957
4.0407142857142855 -0.7858923194624754 0.4253458504235604 -0.0004379459714544091 9.734537505424516e-05 -6.11133829883401e-05 3.535315227492292e-05 -0.9595073285247824 0.0780750422176428
4.041142857142857 -0.7739121554093812 0.4293626083096746 -0.000998101773770633 -7.090907988567522e-05 6.635750971666472e-05 -1.996665037319997e-05 -0.9692256956118408 0.08568386799179503
4.041571428571428 -0.7715671160541654 0.4362251287808349 -0.00016887135521709485 6.056434297349308e-05 7.913581808416989e-05 0.0001313530786896838 -0.9649544725722137 0.08380695732125153
4.042 -0.7685115377671844 0.4469292631557381 -0.0004611755981833772 0.00034334212014334526 0.000387743626647382 0.0002472298399900177 -0.9614555623592355 0.0907453152606777
4.042428571428571 -0.7654942788364233 0.45015097291425604 -0.0003254786194035061 -0.00021386298913614858 0.00018367541541246152 0.00018444036762969138 -0.9592101443896125 0.09117933591548903
4.042857142857143 -0.7626512162172812 0.4457076546482898 -0.0003902512670632997 -0.00011667070063729846 0.00017486900475021907 -0.00011792805712785486 -0.9643561561202828 0.08777625653714624
4.043285714285714 -0.7573590419831698 0.4658489181297503 -0.0002036865081771356 -9.594587807500696e-05 0.00012828292650261878 0.000190757522680772 -0.9638901813241578 0.08519893161470131
4.043714285714286 -0.7498312153159084 0.4673231070991625 -0.00023555993640182512 0.00014244259282971867 -0.00011393175364255513 -0.00010206216669766282 -0.9678632909321487 0.0827876750338179
4.044142857142857 -0.7511843900024787 0.47516866681381537 -0.0006136238033612899 0.00016958200602532847 -3.5336375316102167e-05 0.00012761532291832468 -0.9635214470595652 0.09693543898151885
