!Created with skrf (http://scikit-rf.org).
# Hz S RI R 50.0 
!freq ReS11 ImS11 ReS21 ImS21 ReS12 ImS12 ReS22 ImS22
4.0 -0.8484609165235324 -0.2534868737154156 0.00022694564714961104 -0.00016568043992526841 -7.175475230826288e-05 1.955372940591189e-06 -0.9634052757599648 -0.13065860970798782
4.0004285714285714 -0.8577488129901663 -0.24724630568828565 3.3014953209671506e-05 -0.00022347664732184244 -0.00014146984709404603 -0.00012937079807298665 -0.971082205684069 -0.12354608573738077
4.000857142857143 -0.8608549226078698 -0.23603062200654615 0.00010931662893872956 -0.0004879845222730127 -0.0001601399061084282 -0.00040546495588279357 -0.9672703492397994 -0.11682370551676706
4.001285714285714 -0.8554655176976357 -0.2306461437680478 4.01487297514836e-06 -0.00018113015941277052 -3.257743038331287e-05 -0.0001296954320869804 -0.9655371837385727 -0.1149770298260722
4.001714285714286 -0.8606603881657475 -0.22246061125148212 0.0003354646080427728 -0.0004568136590879227 0.00014299631216287974 -0.00012021913700461068 -0.9654348583172179 -0.12016837588339067
4.002142857142857 -0.860359449713005 -0.22246940264684448 0.00022343600187870643 -0.00041617996562046046 -1.6297085869862073e-05 4.6457121589871403e-05 -0.9657529386010737 -0.11072773541242428
4.002571428571429 -0.8638208421883237 -0.21311141182980173 0.0001469991123228299 -0.0003460787527966551 -4.1522716365206755e-06 0.0001755090978084228 -0.9718722520613474 -0.1054652563713307
4.003 -0.8676349073981143 -0.20133964075649177 0.00014802694806235775 -7.980522336958232e-05 5.9968951838401425e-05 0.0003207854292616305 -0.9683941428540775 -0.10469759134914644
4.003428571428572 -0.8698469346428654 -0.1983176936083452 0.0001231048219661254 -0.0004334418301954071 7.46368578364162e-05 -0.00023127703343990474 -0.9614031361540422 -0.09715277706057497
4.003857142857143 -0.8659033451801132 -0.18830717250294718 4.3618853990897585e-05 -0.00035555308421440985 -0.00017446233519882503 6.058324039306004e-05 -0.9713209223006868 -0.1102378317004831
4.0042857142857144 -0.8769519912643224 -0.18140562054724083 0.00012187833249009007 -2.1205091586224943e-05 0.0001426597843167401 7.804026057711734e-05 -0.9677039458836423 -0.09919610816688003
4.004714285714286 -0.8719319959744369 -0.17257630475689822 0.00011210377665108307 -0.0004206381645442958 0.0002173105638754176 -0.00019738686627422612 -0.9592899908163858 -0.10824638966550758
4.005142857142857 -0.8728941159758488 -0.1648682960894462 0.00031358507702546013 -6.584919080345423e-05 -1.4122279548863153e-05 -0.00014980222460799915 -0.9685570939096084 -0.09450389972774222
4.005571428571429 -0.8751179770618165 -0.15844065353522513 -0.0003116626909338938 -0.00031941133431226057 8.464586637070796e-05 -0.0001277895615104294 -0.961802635323395 -0.09464531150981076
4.006 -0.8786583160333457 -0.154820154329154 5.41795838849581e-05 -0.0003617119397650654 -0.0001835002773600704 -0.0001331776150191591 -0.9707471393050792 -0.09413170619724767
4.006428571428572 -0.8775992690939032 -0.14908704614149454 2.3863885675308455e-05 -0.00039523999903961577 0.0002297442177729314 4.128792485616021e-05 -0.9691220935308826 -0.09171806623325464
4.006857142857143 -0.8812715213729083 -0.13751882564023865 0.0004142952485446026 -0.00045635980351580076 -0.00015935206688956081 0.0002932723656717471 -0.963412424344519 -0.08814661927841787
4.007285714285715 -0.8839890851925771 -0.13229307578870242 -0.00025694711133824797 -0.000602477369147314 8.159314613903934e-05 7.79271333315722e-05 -0.9685930303383059 -0.07979815362805484
4.007714285714286 -0.881568580693057 -0.1262302474468349 0.0003573781345816682 -0.000217665426199687 6.880319923760435e-05 -0.00011765878117583894 -0.9632430682759052 -0.0838742531220441
4.0081428571428575 -0.883702712804829 -0.12378047970753044 -0.00010858372158886476 1.9462377067810123e-05 7.482384327352543e-05 -5.503188163685039e-05 -0.9682215394138833 -0.0881910069842392
4.008571428571429 -0.8876164370990153 -0.10908726399557393 -0.00015299099312874036 -0.00015484099768493402 0.00017490691494628536 0.00023920462771841433 -0.9638635769598658 -0.07746697395285923
4.009 -0.887129953672211 -0.10505230370080196 0.0002311472835411387 -0.0004870837131365399 0.00025108326051299636 0.00018194619031482127 -0.9736222730373669 -0.08582302373070241
4.009428571428572 -0.883560789985555 -0.10137941516551902 0.00020871017846089978 -0.000496230450073238 0.00016703043123558704 6.160041983305515e-05 -0.9774096895854801 -0.07602671695077354
4.009857142857143 -0.8854335742256139 -0.08883747357606618 -0.00015623260478645824 -0.00037681938059451876 -0.0003313352713895813 3.249485318673997e-05 -0.969146603341033 -0.06917468032038344
4.010285714285715 -0.8882873794333015 -0.08257583786095207 0.00016353259241735414 -0.0006277752573764657 -0.00010950011385754155 -0.00018266314331598805 -0.9653477921564735 -0.07497601052873112
4.010714285714286 -0.8876758465125121 -0.07719041871099837 9.387346274825172e-05 -0.0008439266199475718 -0.0002625674668028245 2.9382591092569538e-05 -0.9675008794432057 -0.0701936868891255
4.011142857142858 -0.8845593315340384 -0.0714730986965254 -0.00019288018617708133 -0.0003234993078283476 -0.0001184301668279203 8.465034467959648e-05 -0.969923805705456 -0.06605429401963384
4.011571428571429 -0.8854290000326898 -0.0576924617106725 0.00030638046104333397 -0.00025867395210748336 -8.144987587298555e-05 2.7957709260376992e-05 -0.9721605790197781 -0.06596395809489224
4.012 -0.8907695239145454 -0.053930024675110905 -0.00013629269163698422 -0.0006330063469981428 0.0002304428093295902 -2.1277468863387212e-05 -0.9765816624536191 -0.06433693198094591
4.012428571428571 -0.887064827338558 -0.045085727462713505 -0.0003618144723731935 -0.00018327773518011291 -0.0001702984904958601 -4.1461896843788824e-05 -0.9644962589377402 -0.055881700274317284
4.0128571428571425 -0.8949365756343601 -0.03527505978818694 -6.793840223168683e-05 -0.00016416038845572101 8.384688538661433e-06 -0.00015354493739545236 -0.9644229655335564 -0.06276639069432721
4.013285714285714 -0.8832785177856995 -0.03229468019913896 -2.8157613844118204e-05 -0.0003094892858961143 9.612327653762736e-06 0.00014212471165842713 -0.9620807366517092 -0.058802597896605135
4.013714285714285 -0.8885628789457615 -0.022341115225664898 -6.020162995970764e-06 -0.000463031013354779 4.302520380065451e-05 5.642960450320027e-05 -0.975854538604105 -0.05280095912923685
4.014142857142857 -0.8867758882661279 -0.014586753912288582 0.00017096402511751645 -0.000366497095453586 0.00024754799073601464 0.00036458833417934327 -0.970552361868371 -0.04686588872743188
4.014571428571428 -0.8865056309936978 -0.012380695743579128 2.5841412934160897e-05 -0.0003766090696263893 0.00011142173398537124 -6.935174869989163e-05 -0.9711476363811536 -0.05046130592871121
4.015 -0.8958799753250131 0.0007843887712204035 2.125874955769788e-05 2.1623311180642248e-05 -0.000372082273485701 -0.00017615898100767168 -0.9654124360056674 -0.05270974557100218
4.015428571428571 -0.8927987300913687 0.009732060405500367 -0.00010766310303133462 -0.0007844683662560475 0.00017328881531834822 -0.00015977435697035354 -0.9717518027955009 -0.0489972123211921
4.015857142857143 -0.890406451403473 0.017615789408242016 -0.00047611420573025583 -0.00023440321252397617 -0.0001246499693594651 0.00011369796901587562 -0.9703266514833391 -0.04665691736323227
4.016285714285714 -0.8896151443783403 0.022222853812608773 0.00023153073903039252 1.9963806773284228e-05 -0.00011692452711785736 -7.923652544071392e-08 -0.96382325376781 -0.04158185009480596
4.0167142857142855 -0.8888220426115224 0.028622976655016195 -0.00012290754220908151 -0.0002451336872094453 5.47096856204767e-05 0.0003822908519898176 -0.9657553261563164 -0.04758042165111033
4.017142857142857 -0.8863392565747279 0.03869350683177173 0.0004226958720334524 -0.0006749172087232237 0.0001241572224608999 0.00012823716140857643 -0.9604319352850778 -0.03972077063422574
4.017571428571428 -0.8908992217490992 0.04237431420054582 0.0002083373707529395 -0.0003635349789825016 6.71042679323129e-05 -0.00031811191457591694 -0.97261638998453 -0.041595046855168245
4.018 -0.8867324229007015 0.048447093995800446 -0.00013757368650020384 -0.0005221283828576705 0.0001960891028878437 4.100432157199868e-05 -0.9703742585064041 -0.041903322411161056
4.018428571428571 -0.8915238057391298 0.05627833456215705 -0.00012485877703936565 -0.0007028162992311047 8.810405929569488e-05 -8.430704427310419e-05 -0.97220639634702 -0.03337502109007142
4.018857142857143 -0.8844300218401604 0.06801827893424905 9.302355686871563e-05 -0.00018395198399485973 -4.806796401849362e-06 -0.00027657906681720086 -0.9600313748389262 -0.02812667557792757
4.019285714285714 -0.8828573022229822 0.07715763070658695 -0.0001874783768230992 -0.00045466169778166386 0.0003199896079543354 2.3022586986505342e-05 -0.9707999535127898 -0.028767372015703604
4.019714285714286 -0.8883509735115807 0.08382641355932816 -0.00021057965698135405 -0.0008590949582440779 0.0002312272940744804 0.00018463223840653941 -0.9645909003222293 -0.028286249235952216
4.020142857142857 -0.8874533935472624 0.08785974716422809 0.00011212508280217423 -0.00044274590371118854 -0.0002116263118440296 0.0001682136057477516 -0.969171203677786 -0.022867675995250695
4.0205714285714285 -0.8863758356787921 0.10453012910908738 -5.576767749189391e-05 -0.000592567313147212 7.477512243734839e-05 3.5620490819293094e-05 -0.9699426549250011 -0.02605650827741697
4.021 -0.8816937914129999 0.10219801346005786 -0.0002674850455437685 0.0001240602392348161 -0.000173862211576376 -0.00021779255072162262 -0.9668663300010323 -0.020507245532081227
4.021428571428571 -0.8812225857774908 0.11470634950774927 -0.0001478203878356926 -0.0005074862615761002 6.754503554618986e-06 0.00016783331290867913 -0.969391910368066 -0.020677085546868573
4.021857142857143 -0.8831549539535122 0.11605881290349351 -0.00015216785058979156 -0.00029896463485014845 0.0004018974233503749 7.2481873936782996e-06 -0.968074101653997 -0.01602937618929745
4.022285714285714 -0.8744305165760524 0.12048398879820671 -0.0002533253550090401 -5.545071393509537e-05 0.00030743965789734853 -0.00014420383977545537 -0.9746259218554294 -0.00657233500568255
4.022714285714286 -0.8798450844483432 0.13870001889919722 3.946175909339926e-05 -0.0004325887400353535 -1.9504305792131354e-05 -0.0003451040575735936 -0.9657464262829235 -0.013960693252280651
4.023142857142857 -0.8739621687375411 0.1415597858542115 -0.0004504262243863641 -0.0005472806896003594 6.873703223045693e-05 -2.5420644926809674e-05 -0.9676165358786684 -0.00833020478100291
4.023571428571429 -0.8774931221192241 0.1452284734330527 -0.00036994673338405765 0.00011458145095696787 0.0001803609226595156 6.527068584669426e-05 -0.9626769324041564 -0.004584674289463291
4.024 -0.8724716662145149 0.15765977417367058 -0.0005488972265649715 0.0001789031388607499 0.0002537593376487867 8.681185997488638e-05 -0.9694329683837114 -0.007247905101278167
4.0244285714285715 -0.8746355987705223 0.16071093715855908 -0.0004327201698807142 -0.0004796347197319961 7.059075864492943e-05 -0.00018023752527694212 -0.9704701875420318 -0.0023625646241026664
4.024857142857143 -0.8728753986836364 0.1708788981597354 -0.0003553588467019199 0.0004023689239036431 -2.0422950351290212e-05 5.171456367604366e-05 -0.9649448545105572 -0.0019128782650327724
4.025285714285714 -0.8740054910040662 0.18034275555311333 -0.0003283230145087013 -0.0002069312070210375 0.00015945829961829864 -0.0002681638076324155 -0.9678803379118144 0.0027902577517682696
4.025714285714286 -0.8722470626315967 0.18654938565851964 0.00018350081101408034 -0.0004396279268089803 0.00010090398806938675 0.00010462674117435035 -0.9764346587980308 0.010115466645088276
4.026142857142857 -0.8744678900524274 0.19123224095347244 -0.0002584809878222262 -8.791998378451705e-05 -0.0003368934740646231 0.00023391847617325204 -0.9691179868001981 0.00392185336533002
4.026571428571429 -0.8600322249679142 0.20064314810549788 -3.9380509927449616e-05 -1.013936641747111e-05 0.00011742503192820546 6.929403705597345e-05 -0.9730422458023227 0.007815930073994564
4.027 -0.8644855284141126 0.20787863020166814 -0.00010662458992529487 -6.994340563917877e-05 -9.527802812604886e-05 -0.00037692873459694724 -0.9691430331199689 0.0034947276810442475
4.027428571428572 -0.8674597037804388 0.2096340567280151 -0.0007078820177828843 -0.0003476261619192601 0.00012030774575608285 -8.798507491290397e-06 -0.9660042021748897 0.015492931690684926
4.027857142857143 -0.8615810501758345 0.21686025083504323 -0.0003318290753363618 -0.0006098931116174355 0.0002780136875869467 0.0003647607759640307 -0.972281651060008 0.010803832537665111
4.0282857142857145 -0.8619671769900006 0.23255820419022746 -0.00020147909185536984 -0.0003309128784881822 0.00019171473071698928 -0.0003079591906901213 -0.9708393643167345 0.021542194155001033
4.028714285714286 -0.8665311164140158 0.23165432506044736 -0.00020915137927099447 0.00017535336608805928 -0.00022641580611564217 -1.2671239915149372e-05 -0.9703854217626035 0.014739089646210296
4.029142857142857 -0.8585877232124467 0.2446279887551852 -0.00035711102884985866 -0.0004082773905528549 -4.3505823062335034e-05 -0.0002816656378941591 -0.9686190374128179 0.023715115577459273
4.029571428571429 -0.8585171334363695 0.24670190367218484 -4.6288040781020164e-05 -0.00044276727409442483 0.0001959717725831946 1.6232910686054718e-05 -0.9621425885550761 0.022034631103425812
4.03 -0.8522665447089849 0.252451123064867 -0.00014435715183384878 -0.0004536962654174079 0.0003303492806875143 0.00025475370472234865 -0.9715499499800563 0.032364278345427766
4.030428571428572 -0.8522723179834093 0.2657784271919507 -0.00030148463166444165 -0.0002943220883765265 -0.0001424650889182398 -2.6507831626399376e-05 -0.9692691548126017 0.028448329035688138
4.030857142857143 -0.8533701652643554 0.26882163961855293 -3.456087491881269e-05 -0.00020998057607203127 -1.6441662111412942e-05 -0.00037423861616681727 -0.9713677785959051 0.021406754545674894
4.031285714285715 -0.8454311259602386 0.2757266584383165 -0.00023853044064165888 9.102195186705877e-05 -3.260809372731935e-07 -0.00045137521643256117 -0.9693949213106422 0.03423647747411102
4.031714285714286 -0.8415271797985009 0.2784183275732641 -0.0004250429049925539 -2.40113181144521e-05 -9.258998745168657e-05 -0.0001128450578749426 -0.9648953731972321 0.02574918421546222
4.0321428571428575 -0.8393619496313519 0.2872061091865638 -0.00030817897527548997 -0.0002254604919085184 -4.817352487077899e-05 -3.399778240591423e-05 -0.9728521831101214 0.03565178159841638
4.032571428571429 -0.8408441920213423 0.2962159566107155 -0.00039679119459345676 0.00013903356954588687 -0.00023943576156015579 -4.06041023001592e-05 -0.9659012037327265 0.043167553018666475
4.033 -0.8394863962413428 0.30142389311883383 -0.00014581518838473895 -0.000140674582926459 -3.6285860742853826e-05 6.44541124125879e-05 -0.9654852755136684 0.04644467772152133
4.033428571428572 -0.8438163480956701 0.3116559973746647 -0.0006420050112186016 -0.00025563599294524554 -0.00011071115029254873 -8.721585550620483e-06 -0.9643645941556406 0.04015679308275006
4.033857142857143 -0.8352248389776877 0.3167692334822082 1.0163046423825242e-05 -0.00012531391550034803 7.334223854986637e-05 0.00021158690603547778 -0.9625007527233548 0.044699556884310286
4.034285714285715 -0.8292640076560301 0.32234305289434356 -0.0005564657173254274 -0.0002029941239979556 -0.00015959254759986418 -0.00015654652382895398 -0.9660943353068749 0.04185138256524795
4.034714285714286 -0.8203496642721784 0.33568592878676246 -0.00048774195307765063 -0.0001173684479711204 -0.00028662990465205395 -2.738960080707726e-07 -0.9674976034322287 0.05147825237199541
4.035142857142857 -0.8238779133426152 0.3385847799389648 1.0124509282065521e-05 -0.00011315895017212001 -0.0001267083209514483 3.8320074081588864e-05 -0.9664425759918336 0.05135887279339028
4.035571428571428 -0.8154285609197461 0.3449692889775225 -0.00017403596358210488 -0.0002443277803918533 -6.592702997814717e-05 -0.00016405083717900782 -0.9677282289285718 0.05589663875056637
4.036 -0.8134231386838563 0.3558150915333933 -0.00031912055697382415 -0.000644677546447341 -0.00019083409025390434 0.00010186002603129633 -0.9690243047054584 0.05802464369431077
4.036428571428571 -0.8216999030228808 0.3526151026096979 -0.0002591619372592796 9.483892099138564e-05 2.665082919616224e-06 7.443361020530208e-05 -0.9671731892066298 0.05178987459517147
4.0368571428571425 -0.8139615498190719 0.3661290971169415 -0.00015446932966039825 0.0001538129019141207 0.00013889876388922267 -0.00032991818953422215 -0.9719425348867172 0.054551795717300726
4.037285714285714 -0.8054326953872354 0.3740295217758311 -0.0003546073382985271 -0.00014948037034743085 2.860222728142762e-05 -0.00021989215224446081 -0.9654689546874727 0.0608752815814251
4.037714285714285 -0.8054312838416664 0.3731745131824624 -0.0004562579445829993 -3.555333798121862e-05 -0.0003470555502755478 1.2476485495370006e-05 -0.9693990079454284 0.05633355933317616
4.038142857142857 -0.7988039678801924 0.39507871499047353 -0.0003953493161331962 0.00021598626922398692 -7.682402937931335e-05 -0.0001921790220351211 -0.9628191133701437 0.06207502275977957
4.038571428571428 -0.80164906207253 0.39226936955836156 -0.00040866477348917233 -0.0006212832835415483 -0.0003613411972235721 0.00010506441263509327 -0.9595149910158085 0.06672351437708883
4.039 -0.7965301305927276 0.3972035715821079 -0.00032027411762104583 5.039897881805994e-05 -2.3039502131569185e-05 -6.741720356967603e-05 -0.9587953107396939 0.06606754059906145
4.039428571428571 -0.7893888648960197 0.4130236101112059 -0.0004712951860062597 -0.0004001038229107702 -1.5356916816662153e-05 -0.00017886808655065062 -0.9648569628046587 0.06925962868715432
4.039857142857143 -0.7938689691589316 0.4122474257576374 -0.00026941148539647535 1.8646877976129336e-06 0.0001818143485747507 0.00017292833021248519 -0.971726062890176 0.06997311287387827
4.040285714285714 -0.7883880335224216 0.4113608925013817 -0.0007073569544347597 -0.00029467708163724533 3.4776077299468855e-05 0.00013675638148527336 -0.9634393081547726 0.07378761685728491
4.0407142857142855 -0.7881773786925064 0.4253029994994229 -0.0003604306720616706 -0.0002471647561412834 9.893679661478811e-05 0.0001703089196631364 -0.9584702324867608 0.07535492877507649
4.041142857142857 -0.775703344650142 0.4297953369998468 -1.4575847418532061e-05 -0.00028382905031205355 -8.720685905932544e-05 1.5297466800545513e-06 -0.9681737289420732 0.08559123281041928
4.041571428571428 -0.7739670212508523 0.4363608033698668 -0.0004952362614164142 0.00040402833452834265 9.097144970370233e-05 -0.0001365764591597691 -0.9634458086248492 0.0833188437905252
4.042 -0.7706967453570851 0.4464959293512267 -0.000418716273523571 -0.00011601259870360418 0.0002639683134066075 0.00040336687339139713 -0.9637765193119856 0.0890125811739601
4.042428571428571 -0.7653646032420343 0.4523252178208147 -0.0007627527725617501 -6.982258844981475e-05 0.0001795700028931753 6.39863398064616e-05 -0.9593262958296767 0.0913047768997117
4.042857142857143 -0.7670494534137147 0.4469839081020056 -0.0004431389839307017 -7.847674101106825e-05 0.00031375972632972606 0.0004959566532470918 -0.9643967781527585 0.08727382483400523
4.043285714285714 -0.758406823624127 0.46517361781193023 -0.0004754821100358016 -0.0005134266342054544 -0.00011004835935062958 -1.765633397191821e-05 -0.9661080030589156 0.08596180946446164
4.043714285714286 -0.7525914341299699 0.4661218988054124 -0.00032981435186819744 6.711315827863658e-05 0.0001434735678372322 0.0002147798785384004 -0.9661605386690189 0.08220436695528256
4.044142857142857 -0.7520908984518102 0.47582532524625315 -0.00014047605759732277 0.00015509824515193252 -5.510496536003248e-05 -0.000128106973045805 -0.9622085225714476 0.0978743744014773
