!Created with skrf (http://scikit-rf.org).
# Hz S RI R 50.0 
!freq ReS11 ImS11 ReS21 ImS21 ReS12 ImS12 ReS22 ImS22
4.0 -0.8494913126396054 -0.2532129458064969 0.00020741231369111396 -0.0004679203557066635 -0.00015569507909736865 0.00023409242057513066 -0.9634048539940632 -0.13064047706174203
4.0004285714285714 -0.8559452251954508 -0.24577792535672588 0.00011891624866134844 -0.0006108026285265586 6.422800228512699e-05 0.0002620861836936102 -0.9707685580464015 -0.1253904652447896
4.000857142857143 -0.859495613895424 -0.23723231677201287 -8.930193926087732e-05 -0.0005317268426639746 -0.00010692968199514736 0.00010465174132123159 -0.9666778912127115 -0.11589692684765411
4.001285714285714 -0.8532310292476767 -0.2314785704299059 0.00023837197247561238 -0.00036376456706660763 1.1446908932741982e-05 -0.000532417169302673 -0.9666624971744981 -0.11638392518977662
4.001714285714286 -0.8602173971121239 -0.22226545074457446 0.0002527477915462996 -0.0003993702664937205 -0.00017742867618979365 0.00023104606358848433 -0.9675157611334484 -0.12212900871341564
4.002142857142857 -0.8591783453987626 -0.22159310072504101 -0.00017755371604085017 -0.00036974691259639733 1.8903473749302224e-05 1.4516488369882735e-05 -0.9662167955875215 -0.11211149318500505
4.002571428571429 -0.8627404897034041 -0.21256926829877432 0.00011317974902264885 -0.0005124224305103405 -0.0001256547674694517 -0.0001215972631135125 -0.9704192972963335 -0.1057073739236508
4.003 -0.867552484370432 -0.20027575850857418 0.00015176240554930486 -0.0002522188989390346 0.00017680285028069608 0.0001777221079804481 -0.9697357986795424 -0.10554525593146097
4.003428571428572 -0.8685974828399106 -0.19849764857253607 -5.7672660737524914e-05 -0.0001925117831728217 0.00041785481269517684 0.0001289690756256835 -0.9632547404275221 -0.09951580328278384
4.003857142857143 -0.8657647581870092 -0.18876524088272592 0.00031541171223172426 -0.00027107957197548 0.00018611791901134686 -0.0003813639840585011 -0.9706250630105874 -0.11037504560053835
4.0042857142857144 -0.8764106504356262 -0.1820603276641962 0.00010575770098422997 -8.34637577959378e-05 -0.00018749096328528632 -6.287770411150215e-05 -0.9664686801523368 -0.09889852914886502
4.004714285714286 -0.8705898626090706 -0.17311406934702678 9.395899088206184e-05 -0.00022937461104778568 -2.4987669009153715e-05 -4.6586608298753915e-05 -0.9596514907202194 -0.10767936427160314
4.005142857142857 -0.873432800369789 -0.1660183113251946 -0.00018498318206164115 -0.0003955366790022846 -5.2925336620633344e-05 -3.403440615613555e-05 -0.967976550182785 -0.09548429086540887
4.005571428571429 -0.8739652369255844 -0.1590519207134734 1.4334707221210702e-05 -0.0003353567766136313 5.9220534992257525e-05 3.879835189002806e-05 -0.9622513661883347 -0.09509849180471354
4.006 -0.8776651311470087 -0.1543940780377035 0.0003730738718012295 -0.00033355228601432673 1.3695659460854322e-05 0.00037852085657623505 -0.9707105379311697 -0.09322458780298166
4.006428571428572 -0.8766887387532168 -0.1493363565503607 -1.5493013277133184e-06 -0.0007149265605332976 0.0003684201542757726 -0.00011629626837373555 -0.9687736749725502 -0.09302906951061923
4.006857142857143 -0.8809835225444363 -0.13812619522023956 -0.00014313301120522575 -0.0002957953630799603 -4.913584160382056e-05 -0.0001513122091109151 -0.963921369206649 -0.08649883107612927
4.007285714285715 -0.8840766220362744 -0.1303940898590393 -0.00011114339646212257 -0.00041302256161701264 0.0001949672283074062 0.00013419453546259928 -0.9703624655685186 -0.08124053880695127
4.007714285714286 -0.8804987187711101 -0.12580893914656632 -0.0003044887676548424 -0.0003435460085321988 0.00010323411470618633 -0.00017827422511285058 -0.9634461272648972 -0.08492205098609007
4.0081428571428575 -0.8831424141536082 -0.12424353609513974 -0.00016415329363706727 -0.0004349637108930022 0.00014602643729349737 2.8580610846373355e-05 -0.9684096264331099 -0.08869631061239472
4.008571428571429 -0.8841632779622951 -0.10841988150388211 6.26964043282615e-05 -0.00026814602806563475 3.365490949744738e-05 0.00015673610282385572 -0.9632027423526184 -0.07824367854748408
4.009 -0.8869405581031877 -0.10356383211736868 0.00019074494093404014 5.974395745004768e-05 7.419268762743055e-05 -0.00017122684179828555 -0.9749398377305638 -0.08459923467090653
4.009428571428572 -0.8842605490811567 -0.09997982402232417 -0.00019097699019018195 -0.0006130730491707525 3.601580823010451e-05 0.0004268133048382524 -0.9772924713636184 -0.07669807564596973
4.009857142857143 -0.8860263988198079 -0.08807383003994379 -0.00015322996393331292 -0.00024227115095293089 0.0001080330288628236 7.30458041492629e-05 -0.9686392981436689 -0.06811857066466791
4.010285714285715 -0.8882355410530667 -0.0819759793137416 -0.0001575154508644215 -0.00010718507315897996 0.00011896371391939191 9.648197678582888e-05 -0.965184132051665 -0.07238821784329987
4.010714285714286 -0.8877272477945253 -0.07563359257833263 -5.941857280201177e-05 -0.00031189834209715227 0.00023795105036234426 3.8619124296758186e-05 -0.9693032016650363 -0.07117680228410508
4.011142857142858 -0.8843588985089647 -0.07149333400711802 -0.0003153206677833017 -0.00041266817355320944 0.00012641112057598823 -5.795067661379968e-07 -0.9690077262091933 -0.06781877583466785
4.011571428571429 -0.8857863236937104 -0.057718565113854446 0.00028029703138260955 -6.814505368662145e-05 0.00012627234563221222 1.1919814765172867e-06 -0.9690475683198173 -0.06718406571937523
4.012 -0.8905075651480088 -0.05476131589504516 -6.830976904441786e-07 -0.00040167349127469054 0.0001231818524246724 9.652082082418163e-05 -0.9745150378191058 -0.06281403381474612
4.012428571428571 -0.8855758013582798 -0.04556699570677006 4.220396868920231e-05 -0.00046277363748730604 -8.116072365566327e-05 -0.00010724349682249953 -0.9631540885008374 -0.05826853758985573
4.0128571428571425 -0.8931768707924994 -0.03557019292594569 -4.810637115363388e-05 -0.0004853419600057094 -0.00019692442902950123 -2.3324000947744533e-06 -0.9652503716663512 -0.06501982210158737
4.013285714285714 -0.8849974216720866 -0.031502183684548817 0.00015954899739111978 -0.000390452720003037 0.00021767498015883607 0.00019792880771912522 -0.9629544057798846 -0.06214961837426101
4.013714285714285 -0.8863243053369148 -0.022088540414848548 -0.0004362789725924789 -0.00047453142177222645 -6.9229519234578025e-06 -3.840071952284786e-05 -0.9754749176553696 -0.05198286534812474
4.014142857142857 -0.8877653791450464 -0.015955733296826643 0.00012205184826700002 -0.000520847224395949 0.00023571098036663716 -6.363005154707055e-05 -0.9711312165869296 -0.046526617423068566
4.014571428571428 -0.8853306547808694 -0.01334692783448874 -0.00012971716682672141 -0.00032468185436936736 -0.0003025774993117195 -4.8309320260133715e-05 -0.9711353087338646 -0.05040121739238198
4.015 -0.896305144575473 -0.0008638574772585416 -0.00021758865398438873 -0.000332475019795974 -0.0001335743518934546 -9.140387754357149e-05 -0.9651886935655534 -0.05387539607339604
4.015428571428571 -0.8911071122663042 0.010052417540004454 -0.00024105861612942807 -0.00024056448950584812 3.66495057800194e-05 -0.0002796064928291059 -0.9726959690685367 -0.05079480571185949
4.015857142857143 -0.8909533693521462 0.01804124258655423 -0.0001477681775674839 -0.0006727374856412235 -0.0002618342410132704 3.361598199494666e-05 -0.9696139603772292 -0.04640439468574409
4.016285714285714 -0.8900931859944913 0.021690604630279782 7.688918440156366e-05 -0.0005548198038456022 -5.25049694779661e-06 9.269699970921596e-05 -0.9656714719535532 -0.04231951729005622
4.0167142857142855 -0.8885072759056728 0.02749207579394718 -0.00018244927611757865 -0.0004621775235175915 -0.00014513401663653676 -4.095116788737615e-05 -0.9643202151764296 -0.04832056310973312
4.017142857142857 -0.8857200416227821 0.03821654489717059 -0.0001765087640292856 -0.0006485460886960946 0.00010549258340212057 1.984429121488826e-05 -0.9610050032342373 -0.0379943229857747
4.017571428571428 -0.8912235385091491 0.04110085714144979 -0.0002800393391465279 -0.00026316226694557377 -2.536265111791055e-05 -0.00013393569391357293 -0.9743027765153744 -0.04118152281934721
4.018 -0.8855955402194934 0.04798363089570054 -0.00010026392253166968 -0.0006038386140260129 -0.00016922706611769843 0.0001415439932690967 -0.9695448886320847 -0.04113802505633938
4.018428571428571 -0.8903255718251236 0.056101530110375414 -0.00022856632718544373 2.9318334967653874e-05 0.0001668150391767113 -0.0001029701206440988 -0.9695821623949238 -0.0336299228198757
4.018857142857143 -0.8822525259766936 0.06634907059110369 -7.589007958965672e-05 -6.176351477724713e-05 -0.00012517907135964272 6.460932427935504e-05 -0.9620975924400501 -0.027128075563783403
4.019285714285714 -0.8808237385715814 0.07626330756232955 -0.0002612200217784512 -0.0002347445147568498 -0.00011587026353332158 0.00040867164827548277 -0.9708596708581128 -0.029024131082181864
4.019714285714286 -0.8878446424145192 0.08406092756946444 -0.0001761918476114959 -0.0004491834072428081 0.00016943695955403383 -0.00019101982741220663 -0.966006379175217 -0.02717696558051429
4.020142857142857 -0.8858597544580064 0.08788717628961105 -0.0004951186484170098 -0.00047814328111128523 6.50295485287027e-05 8.513509014724911e-05 -0.9691706267563289 -0.023105629192501226
4.0205714285714285 -0.8842957372548613 0.1016983873416121 -0.0001328419477803623 -0.00045667168111177415 0.00011229570727166553 -0.00018903071081673316 -0.9685545887512647 -0.026880313313719772
4.021 -0.8820696357522245 0.10191178639173627 6.274459784837373e-05 -0.00045195036336043105 9.578059973728358e-05 0.00010283592817601731 -0.9662690155488313 -0.020453204028250547
4.021428571428571 -0.8812095161930256 0.114473384824376 -0.00028720482268483724 -0.00014729499123543614 -2.430875434459296e-06 9.76253012157611e-05 -0.968659323747299 -0.019179391728688856
4.021857142857143 -0.8838561020084766 0.11692068120821383 8.033738472846222e-06 -7.703680042479217e-05 0.00027025694122950083 -0.00031297159939935805 -0.9675185108111385 -0.017064862173535554
4.022285714285714 -0.8736727681788792 0.12115277352326738 6.848031657248832e-05 -0.00014180679052507294 -3.952793146007548e-05 8.600062975661237e-05 -0.9764683254961682 -0.0093111156680823
4.022714285714286 -0.8814956221923644 0.13628663088350026 -3.3687741101008894e-05 0.00018902371925606226 1.8360763488692627e-05 0.00037021510102115576 -0.9646293526091166 -0.014712498345221564
4.023142857142857 -0.8766027124970751 0.14324386831175936 -0.00036454772811435733 -0.0005700677023108484 0.0001454339569112629 -2.2520246934778165e-05 -0.9677353468365489 -0.009443661228987363
4.023571428571429 -0.8772904767481257 0.14294591864734307 0.00023454119246308334 -0.00034541789788108344 -0.00014400712129381988 2.777694846587924e-05 -0.9639704169569976 -0.00731079428585326
4.024 -0.8719188107292035 0.1551677094335352 -9.592942125677105e-05 0.00019271083707632017 3.221794038696541e-05 0.00017166163679901506 -0.9701975254998361 -0.007613666423563807
4.0244285714285715 -0.8754538675052335 0.15920417078508262 -0.0003713703101849536 -5.54316502522059e-05 8.210909599952426e-05 -3.761681732954645e-05 -0.9690258301982401 -0.0034767965140796568
4.024857142857143 -0.8745320629311473 0.17106141078585663 -0.0003907183106298809 -5.324094599477103e-05 -0.0002181298630177419 8.749539915143086e-05 -0.9672146223478908 -0.001099637474996399
4.025285714285714 -0.8741925685583802 0.17898942749496916 4.41835006171624e-05 -3.986446861539113e-05 0.00024988214471814376 9.387452744728297e-05 -0.9643903462771315 0.005131144629092206
4.025714285714286 -0.8709973385165024 0.18548170311035447 -0.00035874778760773405 -0.00032141944699836566 -0.00012066777495868323 0.0001786457576855128 -0.9746040177650562 0.00713840023194042
4.026142857142857 -0.8748882477907204 0.1908542215809517 5.435766962316034e-05 0.00010702023048427975 0.00021967855042215103 3.4273887477837356e-05 -0.970460590866537 0.0032500393722718016
4.026571428571429 -0.8594664374482553 0.20090437874332426 -0.00028567029953368943 -0.0003573327569443488 -0.00012245361266690323 4.1010975947609574e-05 -0.9723398071260457 0.00730159740504523
4.027 -0.8647725424947087 0.20498375611396802 -0.0006547782398084738 -0.000609507399879177 0.00015502535646984617 -0.00015421519734743036 -0.9698843240949944 0.004991340041534787
4.027428571428572 -0.8678683549515117 0.2071559885059083 -0.00020509142717182658 -8.181188622639809e-05 -0.00012927981677892804 6.157468974114352e-05 -0.9647244249057207 0.0171839367576221
4.027857142857143 -0.8617003585078893 0.2150546303296519 0.00019508621280075512 -0.00045130057761599493 -0.0004021195114016875 0.00032791822485819127 -0.9736677588120567 0.01244527709247809
4.0282857142857145 -0.8610829483970307 0.231202512430376 -0.00033334561534378106 -0.0006784661969873039 -0.00010784442034236312 -0.00019819304208115854 -0.9706440567512096 0.02128244188720609
4.028714285714286 -0.8664769949842254 0.22951869958784954 -0.00018136256815779535 -3.5624899909524035e-06 0.00024323346977658006 -1.8144861521855772e-05 -0.9691834398253808 0.013727388552109237
4.029142857142857 -0.8584787662239556 0.2440893493169131 -1.0840859154377475e-05 -0.0003788741041167095 8.203954255493013e-05 -9.668681621792966e-05 -0.9684595965505994 0.022715494710248203
4.029571428571429 -0.8572936848603178 0.24506757734569978 -0.0005018380614897831 -4.034118225920911e-05 6.312271922765796e-05 -7.445291607560938e-05 -0.9638418781224357 0.021542221612589705
4.03 -0.8535210404669158 0.25230838011645557 -0.0001999076259636771 -0.00027670690094563623 -7.755116957690065e-05 5.014016438174736e-05 -0.9745596142264662 0.03231532921124739
4.030428571428572 -0.8502091005952254 0.2638919393544903 -0.00014888955503301548 -0.00011106827016509368 0.0001449260342319208 -0.0002743852521795735 -0.9699449747440992 0.027691255000105563
4.030857142857143 -0.8526023348390026 0.26862925894273626 -2.995456323816669e-05 0.00014588610717472837 0.0003429884249057236 3.1131555539365e-05 -0.9716057424741894 0.022137456780436337
4.031285714285715 -0.8456548496997638 0.2760809288778162 -0.0002105043199777878 -2.9836911127498366e-05 -0.00011887926924332113 0.0002681113694883259 -0.9694701244762892 0.032350410226153564
4.031714285714286 -0.8412135620203717 0.27554058957931105 -0.00022362214896207595 -2.6139593099085217e-05 -0.00035750794271429553 0.00028182952784301256 -0.9652852057123162 0.026478355147170295
4.0321428571428575 -0.8392304068818197 0.288131066946591 -0.0004959550597782815 -0.00030394841650496047 -0.00012175734269824786 -7.179686144931259e-05 -0.971764560377272 0.03307383059374526
4.032571428571429 -0.8397272008339541 0.29525584744728417 -0.0005046893965741206 -0.00016064731132912715 -0.0002960457646517471 -8.109713963094626e-05 -0.9654460366431104 0.04306363358393926
4.033 -0.8383117556381429 0.3009125087958842 -0.00024794378950518034 3.3549676719301046e-06 -0.00025628552370141056 -3.2559225476028986e-05 -0.9668148457807876 0.04349235231005014
4.033428571428572 -0.841152926362843 0.3095183906876902 -0.0003242000499366814 0.0004167169313170561 -0.0003017289963175771 5.120172235954389e-05 -0.9627085739149741 0.03934706816952423
4.033857142857143 -0.8349988332744057 0.3170547476956124 -0.00048038630997592765 0.0001743724197516153 0.00019551947840341786 -2.424821541363394e-05 -0.9624765387866036 0.042761704032031826
4.034285714285715 -0.8271400823269889 0.32156254317143623 -0.0003665143369753132 -0.00014809566790386755 6.0261475661171724e-05 -3.9154618817494905e-06 -0.9662870007593725 0.04285173963741238
4.034714285714286 -0.8200758867400123 0.33551598196340693 -0.00028079532712417705 -0.00026669918825691626 -3.1105342153360164e-05 -0.00015376476930871284 -0.9662499886355237 0.052512595658648145
4.035142857142857 -0.8236319397036332 0.3395681786713828 -0.00026072493036752943 0.00032746559236285965 0.00017516893453902216 -0.00019640821835200127 -0.9691291521568629 0.05165126392266835
4.035571428571428 -0.8170187736642035 0.34550645780708805 -0.0007394118825845271 -0.00011998724774930302 7.01263411133232e-05 -0.00022377505853310133 -0.9681583087471062 0.05685219653579107
4.036 -0.8125712600663038 0.3556180486686542 -0.00046915109927836744 1.9959345634584928e-05 0.00017853991219417333 -2.5290293924108526e-05 -0.9693219489966438 0.05468358377196148
4.036428571428571 -0.8210097979452692 0.3521869776837161 -0.0004607271416533186 -0.00010561179478258057 0.00034859471335912603 -1.0322793841066633e-05 -0.9672211013655605 0.052159113755334274
4.0368571428571425 -0.8134759022288978 0.3656537714250089 -0.0003203785842653791 0.0003207874719436995 -5.231304669181924e-06 0.00019150374782838208 -0.9683439648427764 0.053142306988795435
4.037285714285714 -0.8052565858118328 0.37102938965252596 -0.0005694316096966206 0.00016876551404773298 0.00013905238451565312 -0.0002118747022433879 -0.962910846116635 0.05757935772506005
4.037714285714285 -0.8039745616604911 0.37385826321750876 -0.0004768198380347069 3.2832082733406165e-05 -0.00035317776243015794 3.885652186071633e-05 -0.9699224257759201 0.056138318676781235
4.038142857142857 -0.7998379084209206 0.39245037524337867 -0.0001339643791495024 -0.000162830850530136 6.272100928066684e-06 -3.832215390440559e-05 -0.9649865592322248 0.060890392039288505
4.038571428571428 -0.8024725855812445 0.39240595592188626 -0.0002516106613564448 -0.00024315945000549913 -5.785243383992341e-05 -8.066726105738414e-05 -0.9606571940000123 0.06680327739482798
4.039 -0.796080621603218 0.3954923364676249 -0.0005557370614415746 3.868374575134757e-05 -2.4995395739831865e-05 -0.00011388435036966832 -0.9611260685562025 0.0641283909624024
4.039428571428571 -0.788929422194835 0.4138088117975754 -0.000253553350405288 0.00020414099738545532 -0.00014293984762665178 -7.191163216078624e-05 -0.9635625494513961 0.06794970361375813
4.039857142857143 -0.7941716239713897 0.4120825247223764 -0.00046844876977358423 0.0003060134797025113 -0.00035172058955954195 -0.00015839173807917958 -0.9703559363724907 0.06985231983023277
4.040285714285714 -0.7879265830470229 0.4108783375474753 -0.0005109935100961548 -1.8827600810097323e-05 -0.00030288233922811286 0.00013418977425312258 -0.964010437496957 0.07484744216169095
4.0407142857142855 -0.787681451786493 0.4246117439347798 -0.00047418557990224657 0.00017430116063411563 -1.2471290800990342e-06 0.00017271115652073662 -0.9578970735734796 0.07701535660579431
4.041142857142857 -0.7743470928267129 0.42823371727516235 -0.0003073920095674792 -9.812251606083e-05 0.00015484512899605266 -0.0001330003080080471 -0.9692547046094668 0.08434992467109112
4.041571428571428 -0.7723635327849555 0.43593519061897307 -0.0007909388012475668 0.00026940015784477636 -0.00011874910988803264 -0.0002534489271348684 -0.9645057203600513 0.08335223075512527
4.042 -0.770513569238799 0.4461965483597732 -0.00019910724345899734 2.960013454125323e-05 -0.00011021934438647067 1.2436078753145668e-05 -0.9630048627147546 0.08856847600770099
4.042428571428571 -0.7639851459868083 0.4484285342873468 -0.0003386758772316159 0.00024130755878145845 -5.67567339977846e-06 0.0003104340780544353 -0.960139923220131 0.09311017611779665
4.042857142857143 -0.764722957873803 0.44651873742093784 -1.1430223309264156e-05 -0.00034375359693558655 0.00011990143620001605 -1.862501042977579e-05 -0.9649738914869612 0.08701229515870858
4.043285714285714 -0.756885671038369 0.46390574087947906 -0.0002819860809297667 -0.00028543374038138796 0.00015121779667493708 0.00012145853880328942 -0.9648914123410384 0.08589975332664158
4.043714285714286 -0.7518546386251039 0.46642605730613507 -0.0004888749663005256 0.000165982540043177 -0.00013893342444856415 0.00023176071869959543 -0.9673207391042016 0.08298682173739864
4.044142857142857 -0.7528023296616316 0.47605192443591365 -0.000588626602124935 0.00015778941502515918 9.723038203169454e-05 0.00013777396527561947 -0.9630861209266939 0.09630208849425347
