!Created with skrf (http://scikit-rf.org).
# Hz S RI R 50.0 
!freq ReS11 ImS11 ReS21 ImS21 ReS12 ImS12 ReS22 ImS22
4.0 -0.845281307847663 -0.25189885097409115 0.0002698483664669849 -0.00031387074245560074 -0.0001693310722280669 7.253497972679093e-05 -0.9641774977437233 -0.12959500611173697
4.0004285714285714 -0.8512051188667171 -0.24649068102731184 0.00013878808802380682 -0.0005014205065362945 0.0001203793606660407 -0.00019808077618892295 -0.9699091428136465 -0.12240492876049797
4.000857142857143 -0.8545109313744177 -0.23779968579618482 0.0006624861487238969 -7.714265695262502e-05 2.715167973529849e-05 -1.5303282332590753e-05 -0.9662834110528424 -0.11627551238428672
4.001285714285714 -0.8510944410849371 -0.2300820039428715 -3.789156501465492e-05 -0.0001173069157474976 -0.00011827338590664255 0.00017362838951431446 -0.965817092438331 -0.1162748296532511
4.001714285714286 -0.856398222888089 -0.2225932711175967 0.0005638708162452737 -0.0001353770063573013 -0.00029524206254181984 -0.00011665175272867909 -0.9662012548150982 -0.11995496957587148
4.002142857142857 -0.8543408768852818 -0.2216853754412011 0.0003080153837421532 -0.0003819732284795343 -0.0001073369073361433 -5.594054397996371e-05 -0.9658197992265971 -0.11042825923720274
4.002571428571429 -0.8576695550102889 -0.21166971506972737 8.587666458947783e-05 -0.00021958428786242776 -6.704682478161969e-05 -0.00015870630515198207 -0.9691140863081449 -0.10694585373057186
4.003 -0.8634306783840779 -0.20100644604172824 -0.00017599024763945693 -8.381524713473123e-05 9.068992267659095e-06 2.9597886094674148e-05 -0.9693633576076252 -0.10371387298076401
4.003428571428572 -0.8650005646410215 -0.1988405883889047 0.0003558249798724115 -0.0003262651068994057 0.00033108075848831706 0.00022965714782884704 -0.9634483038663461 -0.09846926870266301
4.003857142857143 -0.8607215908164774 -0.18922079516144058 7.990326811268442e-05 -0.0006063993857723254 -0.00015706271809153954 9.570981231153904e-05 -0.9704330880513735 -0.1111781305324508
4.0042857142857144 -0.871085401134391 -0.18277362412853093 0.0002477999501363556 -8.908282551047734e-05 0.00027048048239423233 7.074089365949877e-05 -0.9651656621503464 -0.09765725183584628
4.004714285714286 -0.8664496051694567 -0.1728592761466583 0.0003031547455056048 -0.0004128142095264513 -0.00020598959975885918 8.39668731407946e-05 -0.9593690469122033 -0.10708375220851508
4.005142857142857 -0.8694558316085911 -0.16394397436388095 2.968820967748261e-05 -0.000273261551042232 0.0003924202244980198 -6.08590714839639e-05 -0.9684843276616624 -0.09524439272607468
4.005571428571429 -0.8686005759998638 -0.15787909196280706 0.00024636951466206066 -3.056934446720745e-05 -4.540608393475209e-05 0.0002230583803592431 -0.9602659051057683 -0.09611441401377253
4.006 -0.8726729220088816 -0.1553608538682957 3.56487140563894e-05 -7.383391021880976e-05 -0.0001435347231128148 -7.838519635675298e-06 -0.9696255198854677 -0.09258088317330253
4.006428571428572 -0.8716255116149797 -0.14965536656246187 -0.00027181912311407554 -0.0001432126826157704 -6.48596172949516e-05 0.0001531083261515321 -0.9688244018604728 -0.09139899027424835
4.006857142857143 -0.8760132715410011 -0.1387102153590395 1.8510923722659493e-05 -0.0006652465846956812 -3.618283264137883e-05 -3.8039736386274322e-06 -0.96430515110166 -0.0862881857758229
4.007285714285715 -0.8800939228710443 -0.13062196227341716 3.4271851166554825e-05 -0.00013539083947719722 0.00013219353530871203 -0.00019877715198700856 -0.9669206833560535 -0.07749753016379765
4.007714285714286 -0.8771264955749327 -0.1265731072084848 9.10503703510316e-05 -0.0005493008993278264 0.0003971430814741109 0.00013137270557198478 -0.9647168597293182 -0.0811899421106995
4.0081428571428575 -0.8768302930267184 -0.12252177351730902 -0.00011871727550658156 -0.00029795221447470404 0.0003795882810756491 0.00024936339781231315 -0.967046333804914 -0.0865170197739089
4.008571428571429 -0.8817676215660243 -0.10910423143180162 -0.00032904285145796196 -8.620872812050577e-05 0.00011514523546715296 7.801522831459454e-07 -0.9624690019297639 -0.07838917268909643
4.009 -0.8821976245612236 -0.10409041800150959 -5.917888453409611e-05 -0.0007480798467276779 -8.622277097973465e-05 0.00010175280981899208 -0.9735202044696725 -0.08397150498770131
4.009428571428572 -0.8795845514522573 -0.10097998870269756 2.6118923936545354e-05 7.6018381156196725e-06 0.0001888443114287305 -0.00013376743077694512 -0.9768689024347881 -0.07531195277412936
4.009857142857143 -0.8820566590066757 -0.0884571965820792 -0.00015002763385860363 -4.855868488601506e-05 0.00016288951498506153 3.105807964372361e-05 -0.9675202403697445 -0.07044524303622135
4.010285714285715 -0.8862753776254376 -0.08321559798615852 -0.00010787955278788077 -4.7448783099199075e-06 4.524148112239629e-05 -0.000210041151798873 -0.9639623626013131 -0.07442639940673776
4.010714285714286 -0.8839903970646216 -0.0756085519927664 -0.00035998491807598377 -0.00047775663559401527 0.0002632662254506106 0.00022334761608724889 -0.9689001086667753 -0.07085477750324215
4.011142857142858 -0.8801845253031556 -0.07297968601472732 -8.703090473031639e-05 -0.00015405498949586351 -2.423325425388446e-05 -0.00018683048392007242 -0.9706121944519274 -0.06698570994967022
4.011571428571429 -0.8804596277218716 -0.05816885582169772 0.00010561350670486724 -0.0003463440609645335 0.0001131120234160143 -1.6578478554234004e-05 -0.9722743122541613 -0.0671860149659351
4.012 -0.884862629335317 -0.05547349476637064 -0.0002004377509950834 -0.0003958432410901165 0.00012849058109530283 0.00020414319482369944 -0.974079315418971 -0.0635371555384144
4.012428571428571 -0.882595578606967 -0.04570837085011761 -0.00022114109329238443 -0.00038645857073062883 8.218093360435183e-05 -0.0002520070522734885 -0.9629505847940933 -0.05600853727927508
4.0128571428571425 -0.8906780859310495 -0.03709379037147389 -0.00024035018621509295 7.345231491247698e-06 -9.113395658105662e-05 -0.00031300211275015366 -0.9657646849992492 -0.06116428960239706
4.013285714285714 -0.8804443734834054 -0.031944705918623265 0.0004182927685343182 -0.0005830521232861114 0.00012814613267629786 -0.0001092187770478427 -0.9630948182427609 -0.057873488486266986
4.013714285714285 -0.88418500722952 -0.02414628869970363 -9.950794734951555e-05 -0.00027820332197059085 5.011668210395103e-05 -1.5576035810028626e-05 -0.9745065960882329 -0.049287260628663544
4.014142857142857 -0.8837887544348458 -0.014823368051571664 -0.00013805937780344147 -0.000196644276884515 -0.0003015243707781146 0.0002868838722256785 -0.9709389578237432 -0.04619214595045837
4.014571428571428 -0.8832033546255452 -0.01281519061184186 0.00018645218150540135 -0.0003329327246003559 -1.3083156451850834e-05 0.0001944329843361208 -0.9688139480047192 -0.05282094809008221
4.015 -0.8929268655611944 -0.0004250198691353141 0.00014751262344518966 8.623876681210568e-05 0.00034753423414505234 -0.00011027845949656436 -0.9640756518737184 -0.05046023148288534
4.015428571428571 -0.8862187932860311 0.009333912978932742 -0.00016268384156011882 -0.0005435951396977616 0.00026991296015180477 0.00026139885372658236 -0.9710937111012284 -0.049444808442933995
4.015857142857143 -0.8875615097220204 0.015131620044949442 0.00013768170614793262 -0.0004691300431884124 0.0001218268675642476 3.714426369757639e-05 -0.9704465635754549 -0.04481994532513771
4.016285714285714 -0.8845142654925722 0.022102094891602576 -0.00036057446652165253 -0.0001966521079136055 0.00012365228616516988 5.705107603723507e-05 -0.9660974956378594 -0.041680372203227734
4.0167142857142855 -0.8843542986565602 0.02685482021151 -0.00011605938352041007 -0.0001070769918559544 0.00039840840341844416 0.0002126421295483034 -0.9653408910308552 -0.048546281382613854
4.017142857142857 -0.8819184129487266 0.03705569337579794 -0.00022354100840725016 -5.47935095196615e-05 -4.750910046858226e-05 -0.00042069360849419744 -0.961957195644176 -0.03757473148994329
4.017571428571428 -0.8872735833309767 0.04097275819693135 -0.00013375855526665675 -0.0001755793840925686 -6.557221684146526e-05 0.0003712603132609294 -0.9729663009985428 -0.040442957575617444
4.018 -0.8823806355363737 0.046958665042822 -0.00015055930516877275 -0.0006458932975657669 0.00029124197247527985 0.0001265479016522866 -0.9702392766666595 -0.04007166182637072
4.018428571428571 -0.8858799001542376 0.05725748430895687 -0.00043568146444769335 -0.0006457724366312461 -0.00018494388142587195 0.00017091898548810504 -0.9719539994382981 -0.0333523678550439
4.018857142857143 -0.8787919623693402 0.06633929756935364 0.00021817469214503756 -0.0005062319934719189 -0.0003203436081484732 0.00010151426679427376 -0.9617102524263957 -0.02695890225639947
4.019285714285714 -0.8787367971125702 0.07696775728430855 -0.00018637858599248897 5.968148028904518e-05 -1.1712051087570562e-05 1.080566603698967e-05 -0.9698155074486153 -0.026814420800594513
4.019714285714286 -0.8844875207761892 0.08150813710644707 -0.00022517257120683814 -0.0004808559286018237 0.00040383539982419243 -0.00015338851798923691 -0.9663192886509815 -0.02671998895212481
4.020142857142857 -0.880964908243895 0.08597196451136163 9.653978004094204e-05 -0.0005103749621945108 -0.0003470315964546303 -0.00015894560709372066 -0.9678922984144432 -0.024878836065676063
4.0205714285714285 -0.8812259916015954 0.10020593082424203 -0.00014052250913030158 -0.00042590924762851825 -2.1417083180554128e-05 -1.141437394147938e-05 -0.9672707518488899 -0.026626402600261872
4.021 -0.8786056023232022 0.0988815520545797 -0.0004872026119935018 -0.00018903955529536297 5.96421655141126e-05 -0.00026202314103276246 -0.9640613303979689 -0.01982098219297793
4.021428571428571 -0.8765984158161501 0.11172657304442095 0.00010467251450341711 4.106725336912039e-05 -0.0001781199242218144 -0.00012153002649352971 -0.9702896313196981 -0.018782178196171444
4.021857142857143 -0.8798589015539854 0.11629031001898975 1.7536798474860867e-06 -0.0003438644315229742 -6.752755703547403e-05 0.00037095176634293015 -0.9683994363380198 -0.014171054965079553
4.022285714285714 -0.8699582210786181 0.119962124988819 0.00016908675625443853 -0.00047576731043864613 -6.963057975528039e-05 -4.120933817398331e-05 -0.9739403238362148 -0.007791562057625259
4.022714285714286 -0.8753516009610135 0.13629563927971064 -0.0002216699036347239 -0.0001890932504326979 0.0001091170815888371 0.00022438671027217696 -0.964837864051886 -0.013612917642872065
4.023142857142857 -0.8727064049502166 0.13964471946017526 3.47050762954894e-05 4.523532344461946e-05 0.0002985997757228857 -0.00016762462873220557 -0.9684838398346497 -0.006782303180323619
4.023571428571429 -0.8752645017507222 0.14257670520086038 -0.00029873323521353254 -0.00078902578135556 8.777914273384769e-05 0.00018038116622738528 -0.9636610969098148 -0.005353933555237612
4.024 -0.8687194263623769 0.15548958124588086 -0.0005007520036753397 -0.0002644205749523103 -0.00023388478638367374 2.189966335812575e-05 -0.9692686545511954 -0.008072831004534584
4.0244285714285715 -0.8703899672314973 0.15793734380629448 -0.0007291483799296374 9.2351767265295e-06 6.696175115267002e-05 -0.00034127467108031895 -0.9705675079406713 -0.002833335419383573
4.024857142857143 -0.8718659199063309 0.17026507968389556 -0.00021989990648530318 -2.7940918047578577e-05 -0.0004883479354599328 -4.466785828975839e-06 -0.9666600971368109 -0.0020572657660686156
4.025285714285714 -0.870982981498328 0.17749487415408516 -0.0003010770871682285 0.0004513589955234689 0.0001568057735637842 -0.0001045139539306708 -0.9654206179965082 0.00494140607405547
4.025714285714286 -0.8685689369033647 0.1835828129488355 8.07441182297687e-05 -0.00028314990823662074 -3.0086217620572915e-05 -0.00028978337870623803 -0.9766052212927598 0.009363695141701584
4.026142857142857 -0.8704376913886919 0.19014224321475942 -0.000529246579772139 -0.00025779141212628226 0.0003536635682489558 -1.598461111463356e-05 -0.9711437782278947 0.0021918318753914212
4.026571428571429 -0.8570077556596023 0.19781874384519674 -0.0002486734100783055 -0.00035791728957805676 -0.0001723472294594055 -0.00027574096999299913 -0.9743979820887244 0.00850389328371692
4.027 -0.860201570120304 0.20351757501187343 -0.00041944936050733033 -0.00020756956957344419 -0.00017959050099546016 -0.0002131834695756184 -0.9701215875977092 0.004462175362726772
4.027428571428572 -0.86421494557921 0.206718524171049 -0.00044203496850356386 0.0002656986020493016 0.00020581926098608177 6.109505096909056e-05 -0.9654417824200623 0.015644720169800532
4.027857142857143 -0.8597036631749415 0.21539263607694678 -0.00034828845302283673 4.574770563848231e-05 3.060798999771452e-05 6.188679582241098e-05 -0.9722430646465722 0.012830844684825895
4.0282857142857145 -0.8574870929966897 0.22975923866617723 -0.0002746881467721598 -0.00024152077123046852 -3.728701547252927e-05 -0.00033531663537162424 -0.9714187170346061 0.022574276809498688
4.028714285714286 -0.8605967447868295 0.22729249866338808 -0.0005088116999161835 -0.0003811212782706041 -0.0001515585461910562 -8.11155680577241e-05 -0.968517538197899 0.012704065146004334
4.029142857142857 -0.8555353101140661 0.24231240899174888 -0.00027314369140875837 2.346854472071299e-05 -2.0378651264378066e-05 -0.00017363285840613774 -0.9691408441375358 0.023423801592932784
4.029571428571429 -0.8542473600535504 0.24402611619136721 -0.00032013628270767633 0.00017875856934779295 0.00027509847491844576 8.897838176304856e-05 -0.9621839357494713 0.021179204005753734
4.03 -0.8482865800462661 0.2505092054310155 -0.0002739504708708529 -0.0006117506371999416 -0.0003047549501841848 0.00021071753796465342 -0.9712485510953852 0.032515691966810936
4.030428571428572 -0.8471525643403472 0.2618300764824751 -0.00042984998051311764 -0.0002284984183784835 0.0002575234799766318 0.00012813113887158537 -0.9687693234770187 0.02866632104670949
4.030857142857143 -0.8489923083751364 0.2641095398056965 -0.000431437374143715 -0.0001984469275863617 0.00010343708522346428 -0.00027334912312515996 -0.9725956949880414 0.0222592206871638
4.031285714285715 -0.8401895863469678 0.2737302616206536 -0.0003143725696385662 -0.0004946138740177897 -6.33354076910931e-05 0.00012961604955802052 -0.967260783437454 0.03461385339397113
4.031714285714286 -0.8382838393216553 0.2752215334815863 -0.00022303070345453023 0.00011548277767075099 -0.0001062541823353936 -8.227222218404354e-05 -0.9634730021928948 0.025710378306241427
4.0321428571428575 -0.8348814341207835 0.2856736455280101 -0.00045969907726656055 0.00015045883880331748 -0.0003177590578448179 -0.00028998084205071 -0.9705681004537376 0.03296387836794961
4.032571428571429 -0.8366614661838004 0.29356147250317044 -0.00035795423871336966 -7.632460014849984e-05 7.207628465976801e-05 -0.00015457586090577517 -0.9664385704599682 0.043441857875023776
4.033 -0.8357209527709578 0.29750571065559356 -0.0001448169397617486 -0.0004894539713307586 0.00042277280971129673 0.00012879019756451647 -0.9646336926013911 0.04339914873859368
4.033428571428572 -0.8390611594456236 0.3092489230009328 -0.0001524613496336026 -0.00021340618056591267 -0.000300256875852552 -0.0002699443506062441 -0.9654084623701633 0.03994184991673522
4.033857142857143 -0.8312985121850527 0.3167834480499331 -0.0002464554083923572 -0.00012083552016329658 0.00020091595869634588 -8.605079433073752e-05 -0.9632982477525432 0.043962176878530414
4.034285714285715 -0.8242296201937037 0.3202424554535702 -0.00015062291257424273 -0.00014342627300675307 -1.641095146906527e-05 -0.00011584399178479002 -0.9670296151493917 0.043281939420439904
4.034714285714286 -0.8176142882401428 0.33172770627966797 -0.0005041786159081953 0.00025065317305445503 0.00022644162892811482 -8.441174947151813e-05 -0.9679729769039809 0.05238922777312638
4.035142857142857 -0.8202249205639437 0.3368824468802112 -0.00040700483703009447 0.00015532575967056625 -0.00020412373827613956 0.00028395365918051186 -0.9708081702751243 0.050984519016135134
4.035571428571428 -0.8121600513113235 0.3422558460909473 -0.0005003197355497378 0.00030838762235315515 -0.000138761896978524 -3.4649631075557527e-06 -0.9670311569267437 0.057337507566901806
4.036 -0.8099842287445547 0.3524048369834017 -7.820289928628767e-05 -0.0002376491712508316 0.00026793531377451485 -3.130200162345628e-07 -0.9681279982122303 0.05834136103299882
4.036428571428571 -0.8178946764526411 0.35073129773599243 -0.00032104512058538423 -0.0002988665606544536 0.0003083406645816608 0.00019036859214938904 -0.9673257235831716 0.05279115542009643
4.0368571428571425 -0.8097194483346545 0.3606733632647243 0.000186561747212457 -1.1637573238914101e-05 -0.000254184823439523 -0.00015058707418220794 -0.9700314000464064 0.05387325426999454
4.037285714285714 -0.8018990803954825 0.36975316462732916 -0.0006349842323633824 -0.0003755320603799351 -0.00012600950092151697 -0.00013728830540179452 -0.965578090539071 0.05873607105070707
4.037714285714285 -0.8008292404651464 0.36961528868430005 -0.00047376923427119014 -0.00011092335850488592 0.0002373947324575657 -1.3728525767227178e-05 -0.9688611508094968 0.056974920755116704
4.038142857142857 -0.7962169163011635 0.39213762894261167 -0.0008470502245581889 -0.000370647846518877 0.00013072892411449664 -0.0002497963971327254 -0.9647710439529799 0.061408922554712184
4.038571428571428 -0.7968488074419414 0.3887521169042042 -0.00030396772779042275 -0.00011869411318561247 -0.00012026412544375323 -0.0007350109916877169 -0.9607039531849256 0.06691105194633146
4.039 -0.7930168963711764 0.3922871047061929 -0.00021945941366459016 -6.650019349525721e-05 -9.047853243212815e-05 -5.4580748343764834e-05 -0.9580630882613298 0.06656718447019963
4.039428571428571 -0.7850710440957178 0.4104875364729272 -0.0003681913817866839 -4.892524519451788e-05 0.00010182408321584194 2.725628022591777e-06 -0.9658300881681671 0.06920011383875166
4.039857142857143 -0.788786640550463 0.4087835538318012 -0.0005634331567740953 -0.00012426360867104515 -0.00027095695856429975 7.159688523430621e-05 -0.9702927050909053 0.06966190439517701
4.040285714285714 -0.7863699140888221 0.40938505541707726 -0.000377523213108818 0.00032831101038795755 0.00022838628236594981 5.885367752498059e-05 -0.9643845039710432 0.07531674813706848
4.0407142857142855 -0.7844227182651045 0.42253927496275023 -0.0004978301220776034 0.0001731601322203735 0.00011080865281515703 0.00010975094005253821 -0.9595777883566737 0.07647693197809892
4.041142857142857 -0.771622852069142 0.4260289626187893 -0.00024185782590970608 -0.00020331802407880223 -0.00033664172262974824 -0.0003016056591663054 -0.9688043313879504 0.08553969799661137
4.041571428571428 -0.7697857101208954 0.43336120913721693 -0.0006752142080660405 0.0006427331108642676 0.00012825678284066562 2.4766097682007556e-05 -0.9674625956915295 0.0843780618263703
4.042 -0.7655131907727415 0.4441957257108346 -0.00038071847882406064 -0.0004500984069969459 -0.00014841498797582426 -0.0002029244859287456 -0.9619901282545916 0.08931273406047403
4.042428571428571 -0.7611955737578932 0.4460664191943033 -0.0001700875763432198 -0.0002718051629894069 2.161114627739641e-05 -0.00020634296348130557 -0.9596404590213098 0.09174390456651525
4.042857142857143 -0.761717794477457 0.4425342028622999 -0.0003930454983473722 0.00027534379008923405 0.00021184838747502762 0.00023002470852980823 -0.9630158156048209 0.08844497947642672
4.043285714285714 -0.75451536274776 0.4623391693957851 -0.00037947085347894623 0.0001950463300882143 -4.949886565804685e-05 4.205367495329015e-05 -0.9645068591197844 0.08579332167382968
4.043714285714286 -0.7489904692279885 0.46220261024373926 -0.0003579264553683516 1.8044408222671594e-05 0.0003208218276067743 -0.00012207671177779156 -0.9662733252854846 0.08113680312286828
4.044142857142857 -0.7488545127135167 0.4723592566962178 -0.000564858254278142 -6.194317779682677e-06 9.598573254122791e-05 1.5493828000859678e-05 -0.963441847208464 0.09806330015335327
