!Created with skrf (http://scikit-rf.org).
# Hz S RI R 50.0 
!freq ReS11 ImS11 ReS21 ImS21 ReS12 ImS12 ReS22 ImS22
4.0 -0.8496934326569788 -0.25159138713171986 0.0004367407195107801 -0.0001034081906041878 -0.0003483617119532643 5.536584656215613e-05 -0.9633724891859607 -0.12857864771984864
4.0004285714285714 -0.8558718234046553 -0.24499421525734955 0.00010330026091682526 0.0001551598631045162 0.00023505917185049317 0.00010696965747687317 -0.9697093609098567 -0.12159133902630517
4.000857142857143 -0.860689315246838 -0.23530300305346605 0.00035273256362660076 -0.000258990456470566 4.549155960795709e-05 4.336828272955934e-05 -0.9653670877133156 -0.1163382394016812
4.001285714285714 -0.8534869030203652 -0.22968171705807944 0.0003416877833548327 -0.0005548844626055178 1.0732521556843481e-05 -8.004493674931045e-05 -0.9636317787930051 -0.11579866786432036
4.001714285714286 -0.8607353527777725 -0.2235446494985558 -6.973276355125508e-05 -6.21737959530398e-05 -0.00018515596424271277 -0.00013859500946480045 -0.9665859860386463 -0.11853070608290293
4.002142857142857 -0.8613093013439853 -0.2217573643852885 9.901359459324966e-05 -0.0005329336308054331 -2.96726220435921e-05 -0.0001530212896763139 -0.9658391807646133 -0.10986682465938605
4.002571428571429 -0.8617574977962095 -0.21232992661381297 0.0003921084716246374 -0.0004519138086650142 0.00025939861768492696 -5.439401113522821e-05 -0.9706746833724637 -0.1057040491711865
4.003 -0.8679075750553847 -0.20082288442459356 0.0001643718172700696 -0.00022404087628297758 -3.261081487794475e-05 -0.000170626101220822 -0.9685655266279446 -0.10382450976169182
4.003428571428572 -0.868836955241468 -0.19778605876249775 -0.00013226521057357435 -0.00015636955868346452 1.0054522649102556e-05 4.721062201886016e-05 -0.9623824140276988 -0.09675321323633715
4.003857142857143 -0.8648484119661745 -0.18891211920308362 0.00020390509638706027 -0.00041781686948386723 -8.754348251219346e-05 0.00012767810694578046 -0.9717065444212514 -0.11073525884572316
4.0042857142857144 -0.8761967130986736 -0.18128000284155704 -0.00012300209455086506 -0.0004693465172254623 -0.00016465045225305775 -0.00013578051427523853 -0.966430450397858 -0.09716513678086203
4.004714285714286 -0.8724172385326092 -0.1736241768752899 0.0002678848685526663 -0.0001588160473946419 0.0002747536496664396 0.0003760782216393538 -0.960493119233799 -0.10794032864232864
4.005142857142857 -0.8741787346258412 -0.16333343885093818 -0.00019755904310072116 -0.00021740027435108463 7.84965959284746e-05 -8.012927264389512e-05 -0.9694411803748707 -0.09493681370232115
4.005571428571429 -0.8741657034581853 -0.15935287060358483 0.00015542317946513963 -6.448313410074503e-05 -0.0002475830903032773 9.919819429265643e-06 -0.9602229571167292 -0.09585400171390072
4.006 -0.8779089705288826 -0.1545003705083646 0.00012120764591636447 -0.0004391485067230369 0.00010348011098207985 -0.00022977141298369464 -0.9725049516574962 -0.09216135296507819
4.006428571428572 -0.8776380238871089 -0.15039094182811696 -0.00012619035096478868 -0.0001467004673785127 -1.180230058655684e-05 -2.2034936140119636e-05 -0.967225525187458 -0.09343735062304781
4.006857142857143 -0.8823135541404169 -0.1380092449314057 0.0001662915284813659 -0.0003512955749756192 -0.00016497889385330233 0.0002782239885296152 -0.965113000816918 -0.08611781068476321
4.007285714285715 -0.8834408141823814 -0.1320843509864022 0.000336693627421547 -0.00016816068328391582 6.632908403333119e-05 -5.747439501999864e-05 -0.9694381613874397 -0.08000134463259148
4.007714285714286 -0.881479166346387 -0.12604694940844052 0.00030266249412113716 -0.0003416242580914344 1.910391666875412e-05 -3.0815622217891606e-05 -0.9645995171663561 -0.0831674388089268
4.0081428571428575 -0.8821527506142041 -0.12228420804141148 0.000372602010428817 -0.0005412846777546256 -0.00017610137634374598 2.8265599538648346e-05 -0.9672708330422382 -0.08608503878575255
4.008571428571429 -0.8864300986270011 -0.10845665699782907 -4.931546325502488e-05 -0.00012039849061558785 -8.140468132174706e-05 0.00031033625220539945 -0.963915621805334 -0.07784454065322624
4.009 -0.8872335289768316 -0.10354729073855042 1.9781849338178506e-05 -0.00011352399603414448 -2.3386441891299498e-05 -0.00010813408201618847 -0.9739892263009042 -0.0845406213990864
4.009428571428572 -0.8839285627754175 -0.09875957467623907 -0.00015387808528289946 -0.0006742256920483197 0.00012035228625799263 5.154926450178627e-05 -0.9753413710757488 -0.07579884692572172
4.009857142857143 -0.8864265670690382 -0.08778797702457053 8.535045588294293e-05 -0.0006639642393223167 0.0003144520845429764 -0.00015003566077346098 -0.9669097405848593 -0.06746620591598039
4.010285714285715 -0.8887199947284113 -0.08150406269503743 -0.00021638777915575398 -3.932323385783464e-05 0.00013581124196714432 -0.00012651311326167386 -0.9640468526046746 -0.07368259287257996
4.010714285714286 -0.8888278488438117 -0.07777968463065843 7.256277906307562e-05 -9.998925125653013e-05 -2.2046538003610404e-05 3.9617675548794344e-05 -0.9687621759825696 -0.07091294105732883
4.011142857142858 -0.8851476564393418 -0.07074508461974645 -0.00032589592515468125 -8.833083655830945e-06 -7.031716051725731e-05 -7.473273726288148e-05 -0.9688303647176534 -0.06540838720378143
4.011571428571429 -0.8851766564471085 -0.05730127758402988 -0.0002442470991705938 7.959824310967092e-05 -4.8680422189633746e-05 -0.0002286037294562701 -0.9705908014384462 -0.06572751145169592
4.012 -0.888412992133871 -0.05345085451966336 -0.0004835388284698978 -0.00029788781044178176 0.00010907926617036425 -0.0001487986240084561 -0.9747556654107028 -0.06164364381431085
4.012428571428571 -0.8882301632145012 -0.045059505401033366 0.0002741812530075339 -0.0002909926087470172 -0.00027636585732102004 9.75290352441851e-05 -0.9611998642239781 -0.05596539029427692
4.0128571428571425 -0.8942120301752536 -0.03647604688856474 0.00022941977646070684 -0.00036287747765870914 -0.00020798385377315104 4.532146738405734e-05 -0.965262935222737 -0.06408088739791569
4.013285714285714 -0.8841880632926742 -0.03139642198407586 0.00014167988319529508 -0.00028083579396982294 -0.00022327608092626716 6.036281922404145e-05 -0.9637651096465643 -0.057179399887707816
4.013714285714285 -0.888186738005774 -0.02238040976902495 0.00021710085107959644 -0.0005488541402597051 -2.1823171538426626e-05 -0.0002486910113326533 -0.9746410470351059 -0.052274408720898786
4.014142857142857 -0.8883966510593075 -0.013576372440728946 -0.0006501321867266204 -0.00023270767672911057 -7.218139814270101e-05 0.00014113070035387705 -0.9703929064906632 -0.0455973575538904
4.014571428571428 -0.885126662643766 -0.011572985617833962 -0.00046315585443915916 7.537600557930269e-05 -0.00013530155897313972 -9.783773829292443e-05 -0.9698839074444008 -0.05124849051467721
4.015 -0.8955466451991622 0.0018900667650813545 0.00010009316599908033 -0.0003364888638795129 0.00027401682823892636 -7.603974369290268e-05 -0.9650358214291931 -0.05112814896011783
4.015428571428571 -0.8910175687537799 0.011550292130530425 -0.0003458979415603344 3.7647381376935594e-05 0.00010062580916996762 -7.39821000530899e-05 -0.9723618252408457 -0.04903579728435895
4.015857142857143 -0.888855042302546 0.015614220151219934 -0.0001073947354467523 -0.00022313441080160792 -0.00012320762184247922 0.0001439252705768264 -0.9693998493585726 -0.0456283257889691
4.016285714285714 -0.8899241975479985 0.023876023517207173 -0.0002569255380802028 -0.00046176870900424587 -0.0001430140352459517 0.00015493087812985405 -0.9647021613582452 -0.04087302631371301
4.0167142857142855 -0.8884702676276409 0.02895046020513726 -0.00040592965371073173 -0.00010875758146799625 -0.00017206137707404163 -0.0001465395171284671 -0.9650615735058733 -0.04672980251812207
4.017142857142857 -0.8860109235843303 0.03956310827122341 -0.0005326480304946843 -0.0004999839114258172 -4.1603274215699045e-05 1.3595668845246353e-05 -0.9605613546606682 -0.040170922357618925
4.017571428571428 -0.8895184045490749 0.042557437623444355 -8.6345215352429e-05 -0.00026022407277277726 2.494798732319775e-05 2.3215952105124115e-05 -0.9732418241644307 -0.04089630219354573
4.018 -0.8866353376771923 0.04735439975313567 -4.7706380176947425e-05 -0.0003677718645269535 0.00012774486590021606 6.0851123588737896e-06 -0.971406844500035 -0.038957173210003235
4.018428571428571 -0.8908436343643332 0.05922276537019132 -0.000195232179554772 -0.0002243527512685923 -0.00021094219837388295 -6.773050352851065e-05 -0.9717811268057781 -0.034730707630525465
4.018857142857143 -0.8846540181474949 0.06830456495110045 -0.0003488018444954045 -0.0006540042248115617 -0.00013815460045646014 0.0004073165595888558 -0.9627174936537585 -0.026936423808799514
4.019285714285714 -0.8811944168342873 0.07740588886380667 -0.00031084673020953773 -0.00039730693880881145 0.00013514924565847847 -0.00013874495486610472 -0.9720881060561352 -0.02895743706718729
4.019714285714286 -0.8881077143715722 0.08458967467683155 -4.593094458364812e-05 0.00012161768227982211 0.00014231129635796445 0.00020849743714684962 -0.9637354327974231 -0.0271180961118284
4.020142857142857 -0.8856453553315837 0.08825864967329573 -0.0006709827979386028 -0.00010487042763731552 -0.0004150439834247171 0.00018320581691795733 -0.9699613865749688 -0.02271528976093765
4.0205714285714285 -0.8866011336368107 0.10169096678735244 -5.2404168846287986e-05 -0.0007022448941212484 -1.0517127262121842e-05 0.00019521144807327473 -0.9689847845899808 -0.024990249846019046
4.021 -0.8825506271288479 0.10297244263978272 -0.00013186944919022232 -0.0001507474010176217 0.00017630422932845023 -0.00031653051415356963 -0.9649076706791904 -0.020941328983751003
4.021428571428571 -0.8824407799681864 0.11391476476263884 -0.0001609258290966592 -0.0001822579430310892 -9.806711289911964e-05 0.00010611550488507401 -0.9685317555667529 -0.019411978293850104
4.021857142857143 -0.8830026793782494 0.11819726030624035 -0.0005073757563481519 -0.0004018791109873882 -0.00012345359012506067 -5.223207417301949e-05 -0.9660657651030756 -0.018179967361973297
4.022285714285714 -0.8733633460341037 0.12185645666314379 -0.0006263626125994986 -0.0004056710367565955 0.00016428542771764019 -0.0004896413671222331 -0.9734976851154399 -0.008124472044904485
4.022714285714286 -0.8820138082559238 0.13772055253656237 -0.0007350401296346904 -0.0005652224999392583 0.0002489759614910444 0.0002792526183546756 -0.9650037728987209 -0.013236059083001918
4.023142857142857 -0.8775864981940803 0.1428211313812294 0.00020431186644784984 -5.9733401705849735e-05 -0.00027932074982283636 -0.0001027101435864076 -0.9667563825987322 -0.00853695696603937
4.023571428571429 -0.8782811791920604 0.14465139270895883 -0.0002919070194235996 -0.00011198235943270831 -0.00016908560808689236 0.0001372095855342795 -0.9619823229620923 -0.003650865095354021
4.024 -0.8738344574262557 0.15708668689602265 -0.0002207841028672389 -0.00031163846217500225 -7.906710164899195e-05 0.0004536584439610365 -0.9699785432312029 -0.007058176644602232
4.0244285714285715 -0.8744177457519157 0.16081893842289627 1.110695902705778e-05 -0.0005697090052614387 -2.686226097076343e-06 -0.00012531275350672932 -0.9699768975738543 -0.0030456744847705904
4.024857142857143 -0.8754100608488373 0.1716700814336767 -0.00020650595914368483 -0.0005125129385494948 0.00011338874300474419 -0.00044105371541034783 -0.967637567459275 -0.0007528456418692353
4.025285714285714 -0.8759116616880347 0.17896462911563601 -0.00020563347514312186 -0.0004013296665826159 -0.00017104456083077502 1.7593085084241823e-05 -0.9655066266436816 0.003316030018400586
4.025714285714286 -0.8728582077886526 0.18481810767208484 4.240674839717591e-05 -0.0003206424896966196 -0.00010115887903003352 5.318693595969602e-05 -0.9739858478620106 0.009524265367115873
4.026142857142857 -0.8748362066997744 0.1921159516781311 -0.00037315481337146637 -0.0002846836414498639 -1.1871644033697348e-05 0.00021708929865422598 -0.9692922123633799 0.003774413130356739
4.026571428571429 -0.8604709865242893 0.19971679801286635 -4.033558496685544e-05 -0.00010450112176423019 0.00022391317433109877 -3.4146186193227015e-06 -0.9744561946363778 0.008476497322084303
4.027 -0.8640430805346433 0.20530863785862383 -7.228261171559011e-05 -0.00017648871745721601 0.0001370676876015387 -0.00010362457984906057 -0.970880671540037 0.00658359159131366
4.027428571428572 -0.8686192953020299 0.20972679425289212 -0.0004210039543989416 -0.00048306215487148465 3.8704363468580206e-05 -5.393808105484971e-05 -0.9663748589474216 0.016345038154083655
4.027857142857143 -0.8622353916004306 0.21726079767614734 -0.000334306314281762 -0.00016090549797448468 0.0003331158154334361 7.446229365003467e-05 -0.9742475224373024 0.014058468872950276
4.0282857142857145 -0.8611695677635465 0.23254715817072602 5.068001529759064e-05 -0.00016934762647876543 -0.00011435389105068656 0.0001341674119226917 -0.9716437689627558 0.022947260077096108
4.028714285714286 -0.8644655552843402 0.2296063612529209 2.7871169254903517e-05 -0.0005623978445007195 8.508932116390152e-05 -2.045654560638284e-05 -0.9699728572841616 0.013987139954035917
4.029142857142857 -0.8603776065613548 0.2437086630202013 -0.0004475926855156104 -0.00042898213397253224 0.00019520032386891563 4.160657643881414e-05 -0.9700112374927055 0.02476831213655678
4.029571428571429 -0.8573534511606353 0.24600445485398195 -0.0002595228420734002 -0.00024543522818946755 4.47468401021024e-06 4.8591017565675474e-06 -0.9626943730140839 0.022475693231180715
4.03 -0.8518676396803692 0.2526436138144156 -0.0006890798466269558 -0.00043593052536108743 0.0001373082398941357 -6.2963742434362874e-06 -0.9727781722847628 0.03287580074998095
4.030428571428572 -0.8512482407266215 0.26443518981369457 -0.00019234728638326483 -0.0002638701014484898 0.00015184814068279408 0.00016475690212804136 -0.96959626950305 0.030126375545099435
4.030857142857143 -0.8537553892424852 0.2676002313986212 -0.00015519700325077588 -0.00021798873235304373 -9.619841051208455e-05 0.00016492799639938896 -0.970202931976149 0.024207055093895712
4.031285714285715 -0.845570824719863 0.27821804277296097 -0.00020513089825079198 -0.0004307394740733112 0.000405237795820292 -0.0002894155298277373 -0.9689598872123949 0.03590234026865553
4.031714285714286 -0.8417863367974034 0.2770064147862493 -0.0005553693162740843 0.00022173889993357465 3.06773846947541e-05 2.6910470476927353e-05 -0.9660028909758261 0.024885166359152073
4.0321428571428575 -0.8380162509914765 0.28811406749236623 -0.0006245012327374898 -9.96133981846192e-06 -0.00021880422494014454 -0.0003058685883205647 -0.9730384198029368 0.034925913953451626
4.032571428571429 -0.8394112020341958 0.2958792087092554 -2.3292257787124553e-05 -0.0003203053553141721 0.00014538281372189312 0.0002099649510426498 -0.9659645459772114 0.04530298536381941
4.033 -0.840824045677258 0.30057989926069484 -0.00044751303479460716 -0.00028623831643575604 -1.318500514977086e-05 0.00014534002821976156 -0.9665221675404875 0.04678538146488426
4.033428571428572 -0.8427427237946038 0.310665703799759 -0.0003815898510385915 -5.530203269316812e-05 0.00024639731494854005 -2.3958076047750593e-05 -0.9627129580276758 0.03995702681035119
4.033857142857143 -0.8345056191915923 0.317527699237721 -0.00031837492290866156 -0.0005078319827974265 3.808166314944879e-05 9.632756271513614e-05 -0.964581629542762 0.045449961015706565
4.034285714285715 -0.8269778488844768 0.32306199553371 -0.00021262380447672978 -0.00027271166445079557 0.00017854765707526265 0.00026361288847877323 -0.96538722280303 0.0433311577727081
4.034714285714286 -0.8199831519909637 0.3351523713053831 -0.0005077476428802575 0.0003340646345223667 -0.0002723557750866712 1.2164102131454312e-05 -0.9642785163248309 0.05310312530602812
4.035142857142857 -0.8226344536335609 0.33952488532578196 -0.0004905994997855031 -0.00022976953570451637 -0.00010847368119332637 9.450244687393846e-05 -0.9668621944860682 0.050211805042843935
4.035571428571428 -0.8146549125693267 0.34511964221459823 -0.0008535092357264088 0.00010273705998569992 -0.00014049838276228722 -7.810327614900765e-06 -0.9664212076117505 0.05802261528898731
4.036 -0.8128449553772258 0.35530677000394467 -0.0005628019135613114 0.00011006509826648941 6.324688455722755e-05 -1.9693623764970742e-05 -0.9697252947974253 0.05747490257494055
4.036428571428571 -0.8209372863958452 0.3530327666757451 -0.00022587912720875642 -2.606563434129163e-05 -7.85921430194875e-05 7.167004887826883e-05 -0.9679729372292951 0.05340073615278049
4.0368571428571425 -0.812342583820893 0.36635066140392086 -0.00043603920701931124 -6.940385486210341e-05 0.00021485322787387476 5.0210300176981255e-05 -0.9708641637179601 0.05622879086635449
4.037285714285714 -0.8065676021859421 0.3729530476738934 -0.00026705729915371093 0.00028230880639496826 9.361044950604853e-05 6.949952796087492e-05 -0.9638002975794892 0.060928402186961224
4.037714285714285 -0.8046459409350704 0.37330427313078907 -0.00015593183351945614 -0.00012125843446312238 -5.3047884839928984e-05 -0.00010195521541523457 -0.9699662313569164 0.05777643881731914
4.038142857142857 -0.8005957142741664 0.39258560324322556 -0.00029706482505543574 -0.00039566979388894647 3.0147754233767114e-05 -0.0001926940200676827 -0.9621191633605091 0.06365377034074603
4.038571428571428 -0.8012095422655963 0.3916499435293948 -5.9463210244949844e-05 0.0003292763327710722 0.00028318190911647966 -0.00010073158429400369 -0.9589379624334416 0.06660701558043407
4.039 -0.7965151978815332 0.39693748112686233 -0.000551090280421069 0.0005105240713805961 -0.00010436357772221439 0.00011002058792314846 -0.9602644553813472 0.06502886669725207
4.039428571428571 -0.7886478881592514 0.41394269009956647 -0.0005762589990838531 -0.0001321863363788502 -2.558482147920431e-05 -0.0001428881712948785 -0.963092871019775 0.06972272602318552
4.039857142857143 -0.793048914926583 0.41132111396112553 -1.9566290203720736e-05 -0.00015061255034887666 3.221681143743774e-05 -0.0005008153661098486 -0.9703121464509427 0.07010640064907794
4.040285714285714 -0.7880351064158184 0.41136755812655895 -0.0003535440618044153 0.00018842662603265573 0.0002497813250907062 -4.190196996282844e-05 -0.96458341366934 0.07659352490231265
4.0407142857142855 -0.7887093283503543 0.4253905406031974 -0.0005725405777971043 -0.00028846891047244023 -3.5024263187219816e-05 -1.6127015410043203e-05 -0.9601457739048478 0.0771190521108779
4.041142857142857 -0.7738997314024556 0.42938113444036186 -0.0005852591735600285 0.0004416069057884891 0.00016241880260199425 -0.00032810384147157325 -0.9693466179154406 0.08631500855044316
4.041571428571428 -0.7733600464462915 0.4372890016321991 -0.00044103947550905 5.217027642342069e-05 0.00017688355647802704 -8.396240821027677e-05 -0.9670574734889256 0.08367886404191496
4.042 -0.7693024341367001 0.44626895122953475 -0.00013007439575600958 -0.00013478964381721546 -0.00027085848549671923 -4.8136030993126164e-05 -0.9616127688538039 0.0912131115935737
4.042428571428571 -0.7647261095567567 0.4505495691286246 -0.0007236424682707182 -0.0005048665794271177 -0.00016832177661547663 -7.341813630442594e-05 -0.9605546233938945 0.09269096872886846
4.042857142857143 -0.7645980176973028 0.4476996668154809 -0.0003138325274481355 0.00017869018124307387 0.00014141262383210817 -0.00012574699342890716 -0.9651516638574965 0.08741402292138525
4.043285714285714 -0.7588823110353631 0.4638598441270094 -0.0001854379796550475 -0.00031513685453320764 -2.0089547315912803e-05 -7.598467693839673e-05 -0.9636803550806847 0.08444538268096459
4.043714285714286 -0.7508158005386807 0.46614875497545244 -0.00018354466176548315 -0.0002714623465433465 -0.00023286753293514335 -0.00010517554059099383 -0.966416996696878 0.08265115276026094
4.044142857142857 -0.7517237983881655 0.4771382986314555 -0.0003993003871950199 0.0004932282448620919 0.00010265777153709854 -0.0002345815002852814 -0.9619517667055691 0.0964428842391069
