!Created with skrf (http://scikit-rf.org).
# Hz S RI R 50.0 
!freq ReS11 ImS11 ReS21 ImS21 ReS12 ImS12 ReS22 ImS22
4.0 -0.8309384375435447 -0.253088401610649 -9.032139316161662e-06 -0.0005950285582688246 8.225162291953759e-05 0.0003848402050507945 -0.9646942983515328 -0.12870108079829246
4.0004285714285714 -0.8386486023764914 -0.24593414677311626 -0.000530259851748035 -0.0004557011008637026 0.00015987922676354198 -0.00015053855195954537 -0.9699602968568293 -0.12228595877358787
4.000857142857143 -0.8423340613418101 -0.23638358545341384 -0.00012597290469822721 -0.00029449773386334245 -7.089239887856151e-05 -0.00017197336331068334 -0.96689510712501 -0.11603374422894167
4.001285714285714 -0.8359216859382061 -0.23403419323065103 0.00015317902343920726 2.9979345365536458e-05 -1.2606903765419635e-05 1.0472662691306416e-05 -0.9649100801568739 -0.11729560237779355
4.001714285714286 -0.8418440429011118 -0.22558305378741716 0.00011731597675713539 -0.0005735275978591865 8.176053520201105e-05 -5.6624957186252926e-05 -0.9648323172091479 -0.12148829620721556
4.002142857142857 -0.8409571469580222 -0.22400945472244907 -3.964768871619425e-05 -0.0003138556577473663 -0.00022706342548541676 -9.733488203654179e-05 -0.9655632810248396 -0.11071035987654713
4.002571428571429 -0.8442763562639839 -0.21298366052063675 -0.0001104997046830878 -0.0005634750254525301 -0.00017225656112558827 -7.446890223699232e-05 -0.96833183974669 -0.10488097588743531
4.003 -0.8487672665052102 -0.20206936239866452 -0.0001409731456459697 -0.0004857580418622284 7.443620688518257e-05 8.138579073272376e-05 -0.9696480716459682 -0.10333677925311988
4.003428571428572 -0.8507147134131554 -0.20036566197289596 -0.0003175842792902308 -0.0002848842270085303 -9.173067588133842e-05 8.558883676993493e-05 -0.9647558235053583 -0.09695078408403522
4.003857142857143 -0.8467200267551114 -0.1914419568781389 -0.00019055080553153635 -0.00032525398407632413 -0.00012849018470199205 0.00017678292457613685 -0.9721407227755761 -0.109503466919038
4.0042857142857144 -0.8581390288423945 -0.18506909092252388 -0.00033947684102685494 -0.0001292077237328684 1.4030629996789804e-05 -7.616028889896636e-05 -0.96605719960006 -0.09711455857754023
4.004714285714286 -0.8548441137928295 -0.1747461882442935 -0.00038720976701129954 -0.0006605655529193328 8.42737138753871e-05 0.00016796756611281682 -0.9603915721499733 -0.10791556805770337
4.005142857142857 -0.8557478794970611 -0.16765696832989319 -0.00043054047885495334 -8.990387039941369e-05 0.0002574470397894545 -0.0002142098758818283 -0.9676126159998982 -0.09512920650900987
4.005571428571429 -0.8564309107257504 -0.16042922254035644 -0.00033762422684023574 -0.00042673015229848014 -0.00014856008272332507 9.535705856604932e-05 -0.958639586921608 -0.09555818914173261
4.006 -0.8592322508772913 -0.15708788121854775 -0.0005326536372011486 -0.00051424670636545 -0.00017638900041208862 0.00011814346624538988 -0.9707178169684364 -0.09317299414470451
4.006428571428572 -0.8586077935994036 -0.15311484366246655 -0.0007429235358505067 -0.0002421121030195514 0.00014561749770093422 -0.00021254555886946917 -0.9685149961353753 -0.09173646694220494
4.006857142857143 -0.8628828686412447 -0.1403725972103884 -0.0001832195844952083 -0.000590690675037774 3.7683206069074116e-06 5.656637284204448e-06 -0.9636230608433075 -0.08646083511138465
4.007285714285715 -0.8647875517676339 -0.1336717708636252 -0.0005654276540587904 -0.0004647479404204039 5.4551553357135877e-05 -9.947911355441567e-05 -0.968646893675766 -0.07954502287432437
4.007714285714286 -0.863299229294403 -0.1294311148912012 -0.00044645134313053565 -0.0006013335480289627 0.00017437539067630223 9.936873296138732e-05 -0.9623388440392551 -0.08290738780714382
4.0081428571428575 -0.8634052960098163 -0.1251122853299194 -0.000244676982662576 -0.0006370739777936917 7.702159823952176e-05 6.374977019018918e-05 -0.9674620407840878 -0.0868154307846627
4.008571428571429 -0.867397068125396 -0.11232989631269569 -0.0005116331724674215 -0.00012527000185363327 6.368464358905664e-05 -0.00010092258658350064 -0.9627040459191231 -0.07681050694109053
4.009 -0.8677977500056827 -0.1071248332884554 -0.0007031946444427988 -0.0003749501191784596 1.2755736831185695e-05 4.71603053717411e-05 -0.9730415658833523 -0.0836334254432464
4.009428571428572 -0.8659386694065502 -0.10309488176506028 -0.0004388518701595859 -0.0007520234831986795 0.00014393252325432492 -7.797436493617208e-05 -0.9777403484581653 -0.07544126537039685
4.009857142857143 -0.8687498268406546 -0.09259667821719339 -0.0008239050024330516 -0.00035839666599265846 0.0003295057078916434 -0.00015386546103846475 -0.9691187169208284 -0.06986198387180434
4.010285714285715 -0.8707044625530005 -0.08458766609035599 -0.00038775107016391703 -0.00047309848349396164 4.8484095524803696e-05 -8.971944116737165e-05 -0.9656900202210178 -0.07476465755871466
4.010714285714286 -0.871550679402027 -0.07943434764440603 -0.00043651975340127785 -0.00011085333462786268 -0.00026926239879611157 -0.00010094090962352995 -0.9677653384956493 -0.07094583031462426
4.011142857142858 -0.865975084579921 -0.07525504763214808 -0.0007233928925458664 -0.0004949496709744271 -0.00020216148351497162 0.00012960328843698453 -0.9699339183170334 -0.06403563996790786
4.011571428571429 -0.8676911411053742 -0.06266646809831762 -0.0003330745730897352 -0.0004679401950505264 0.0003097509418730093 -2.1352196551825686e-05 -0.9689745794070747 -0.06647004107352797
4.012 -0.8708584463286575 -0.05957526508118928 -0.00032013377333730853 -0.0001913296488645926 0.00010785744818959336 1.8061620282311692e-05 -0.9760651938966058 -0.06151148322978205
4.012428571428571 -0.8704595392410548 -0.0502351838860715 -0.00047299308160340985 -0.0002511252163643588 -0.0001532158834795864 8.200121657105706e-05 -0.9612171626463392 -0.05409026661658799
4.0128571428571425 -0.8775344134059863 -0.03988921277677051 -0.00016572836280160755 -0.0003133988567426679 -0.00014631985796925432 -0.00014322294139722082 -0.9667905330699392 -0.06482349495143405
4.013285714285714 -0.8659905103994002 -0.03630651505008947 0.00010408001958612495 -0.00012244936407172937 0.0001335929398539923 1.296722741024258e-05 -0.9621162361262998 -0.058513094431615204
4.013714285714285 -0.8689561790337648 -0.027165019023185112 -0.00047155720438952673 -9.92243713929705e-05 -0.00027119678533645605 -5.650539869052695e-05 -0.974657501829587 -0.04870620409666154
4.014142857142857 -0.8693308608839575 -0.020078423048794657 -0.0004288597614339282 -0.00012274598535879763 -0.00020890623946398713 -0.00010115150956779522 -0.9702149544595183 -0.04679156888660103
4.014571428571428 -0.8677657493954702 -0.01759323615045005 -0.0009609654139161509 0.00010807829039786829 0.00010315104952956868 0.00015230297765405276 -0.9707744122972581 -0.0517693561471306
4.015 -0.8782368479315037 -0.005795019951831507 -0.00044060508070770685 -0.0006147493228251742 0.0002327098551409111 -0.00017561489841433218 -0.9636039813119661 -0.051206766740842714
4.015428571428571 -0.8733797091832611 0.005684402804406224 -0.0002378293198928004 -0.0003036350662798576 -9.340908433650668e-05 9.376948258586056e-05 -0.9730031927060394 -0.047994001500996995
4.015857142857143 -0.8729183759781363 0.012271392883210018 -0.0003639381467622662 -0.0002909712161751613 -7.05208529972534e-05 7.752829971429014e-05 -0.9701518532332268 -0.045274227023297295
4.016285714285714 -0.8728459220009668 0.01599534356069766 -0.0009013879738770712 -3.068777388271429e-05 0.00032083103872345705 -0.00015082261774991993 -0.9655271338710835 -0.042040008028025246
4.0167142857142855 -0.8728927259088758 0.02332896198042956 -0.0006666061430373664 -6.318074713097479e-05 0.0001177991128794374 0.00037034978629310665 -0.9655077136672185 -0.04796687402334049
4.017142857142857 -0.8668219580901636 0.033477732975269174 -0.0005346680779846789 -0.0003958448476283284 -0.00035977078521919975 0.00010329915090079585 -0.961306067326053 -0.03981212189869725
4.017571428571428 -0.8734377521292855 0.03781087862574809 -0.0005729508544723411 -0.00027437991238851234 0.0002480497670780227 -0.00019993775936073886 -0.9729248917914988 -0.04078432874936567
4.018 -0.8699331089614837 0.04440192971768596 -0.0002806625978413925 -8.005007107009447e-05 -2.1880026589962048e-05 -0.0002607177992449069 -0.9674804336562397 -0.03822098428928245
4.018428571428571 -0.8733541842138763 0.05181341581098469 -0.00019790712973434923 -0.0004312806950479712 -0.00035370593954547246 -9.758368082184378e-05 -0.9718097794157764 -0.03417728824166488
4.018857142857143 -0.8665684731427094 0.061015096224723106 -0.00044955418931465484 0.0002576918935005742 -1.6565323788491636e-05 0.00032188807918831546 -0.9621576364640572 -0.027933154857512934
4.019285714285714 -0.866126172276904 0.07145231765700816 -0.00017446031462203026 6.868727854115183e-05 0.0001545447268893832 -4.5615264219688e-05 -0.969674434071663 -0.02721242426682695
4.019714285714286 -0.8721305689620908 0.07852902504522039 -0.0002722176799327649 0.00011596125324366678 1.721567735804179e-05 0.00020237968462998233 -0.963522205780662 -0.02726008972009602
4.020142857142857 -0.8692358116928852 0.08045641535972192 -0.000787270232435508 9.136078545470837e-05 8.003897859605827e-05 8.237465722427952e-05 -0.9680670303027225 -0.023544124307618913
4.0205714285714285 -0.8680209186908963 0.09641399610598664 -0.0005747210727221572 -0.00014896604085734577 -3.17301732407725e-05 -8.42238513313911e-05 -0.9677760340231549 -0.026980250541750565
4.021 -0.8652318276355631 0.09616219311982041 -0.000645769299269845 -0.0005489494128771057 -9.878602644144483e-05 -0.00020015707842550948 -0.9652024633604424 -0.019739806725451052
4.021428571428571 -0.8636262487251173 0.10751577294611121 -0.0006460495322578493 0.00011292695769059468 -0.0001634938794542889 -0.0001623240258776423 -0.9673273982921796 -0.01829230943343429
4.021857142857143 -0.8663842670369324 0.1098272603278205 -0.0003246262673175675 -0.000198497505913559 -0.0002442771579425026 -0.0001977829697945833 -0.9677436377090655 -0.014804896658010706
4.022285714285714 -0.8570713916444865 0.1137434889153555 -0.00025084671070689567 -0.0004066250314881507 0.00012413602171136985 0.00013479987407506245 -0.9757724444564586 -0.008539534835927601
4.022714285714286 -0.8636506379288004 0.1301039146940686 -0.0002754765512634934 -0.0002254330178758812 0.0004215618713709897 0.0003518126982544359 -0.9643660606217159 -0.014927126899679503
4.023142857142857 -0.8598200825989942 0.13490579288323343 -0.00010473546938570837 -0.0003767621944967979 0.00018772888835058484 -0.00019674889693072813 -0.9668716389375838 -0.007932291100443654
4.023571428571429 -0.860002448044092 0.13642242004025212 -0.0006783114167038443 -0.0003765618862832678 0.0002524537113875959 -0.0001637140848677079 -0.9621066459245963 -0.003965425879268866
4.024 -0.8562648830573539 0.14901487804585353 -0.00046290712130864084 -0.00014663582694135545 -1.8497456375329687e-05 -3.917922980672831e-05 -0.969499629664951 -0.007532162395677349
4.0244285714285715 -0.8590015981737358 0.1519364568851562 -0.0005031523041680004 0.00021665005819971085 0.00032145843534884475 0.00048642897577275026 -0.9711097739298992 -0.0013975356380334346
4.024857142857143 -0.8579496732883102 0.16373350371336384 -0.0011774128838296146 -0.00024216384296674216 0.000176775039565234 0.0004288516896867425 -0.9663189147507745 0.0002471025422385304
4.025285714285714 -0.8570559040858297 0.17083698390188823 -0.0006786020170429773 0.0006545241932920999 0.00010281423671322801 4.5009452020708524e-05 -0.9662441754314918 0.002570750771966132
4.025714285714286 -0.8546671815788255 0.177834598361827 -0.0005155707421411102 -0.00025998185317388896 -0.00042626057383139584 0.0001028599087136263 -0.9763934726219443 0.009732548946004425
4.026142857142857 -0.8585439631695361 0.18351665010897145 -0.0006479279561595007 -1.6089383289378057e-06 -0.00011160046969699633 0.0002868291515004519 -0.9683200497923259 0.0035290344759908395
4.026571428571429 -0.8458910571237415 0.19267936204608105 -0.0006155837126946149 0.0006086412313776734 0.00010739833652302438 2.6187439442002283e-05 -0.9730480958060618 0.009257227994616708
4.027 -0.8483498998515883 0.197441519152703 -0.0007428409194070493 -9.234822413744862e-05 0.00028397123006941274 -4.461477048938192e-05 -0.9706828248691804 0.0058868617538691695
4.027428571428572 -0.8510550600434152 0.19954326644683662 -0.00029745032242637953 -6.457683445945031e-05 5.462990219319126e-05 -0.0003895209376787664 -0.96606487759191 0.01721610475332578
4.027857142857143 -0.8467179172961654 0.20757931750565178 -0.0007587421249702403 0.00011683361450539803 0.0002724777014732518 0.00035426949455004343 -0.9748936971082023 0.011788636503378533
4.0282857142857145 -0.8466054328386703 0.2222536098198134 -0.0007996604785739485 0.0002616240852990526 4.2707968992334445e-06 9.40853063191715e-06 -0.9718098425723912 0.021514184721256307
4.028714285714286 -0.8496146581860486 0.22026327042849725 -0.0005587760039616879 7.481373619428013e-05 -5.334811667560376e-05 1.746932904025415e-05 -0.9710224581879525 0.014223191362949188
4.029142857142857 -0.8429188999511109 0.23638802039396734 -0.0008693100099395311 0.00014517117878433826 -0.0003006042418078548 -0.00022469528149163536 -0.9683104176436587 0.024486395863234905
4.029571428571429 -0.8421502211769155 0.2370600341464429 -0.00026342514671202536 -4.659859331384376e-06 0.00014290444920687633 0.00012892332140766914 -0.9643405207924953 0.022289745335633354
4.03 -0.8344475275642529 0.24394862643294787 -0.00025085890609911486 0.00010367705290427215 2.721864429047995e-05 1.485776081009076e-05 -0.9724815283880694 0.0331347909705396
4.030428571428572 -0.8354531541442455 0.2552093754099186 -0.0006858448198271206 -7.101006919078903e-05 4.0631402409715275e-05 -0.0001254929080461578 -0.9701542629382016 0.029251828782846503
4.030857142857143 -0.8368658764170344 0.2556236237458602 -0.0011829578658521065 0.00029494933052175284 5.972427741644057e-05 -8.723311998994744e-05 -0.9717662248916265 0.023409148668697352
4.031285714285715 -0.830303141081669 0.266913889690343 -0.0005730147716185733 4.6877040058465834e-05 0.00029543964195757763 6.652110514307493e-05 -0.9681211156444703 0.03421131589960471
4.031714285714286 -0.826689944045681 0.26867961266466134 -0.0008814747808212459 0.0004285769795150633 -2.713887671225323e-05 0.00022627545104809258 -0.9631636987405622 0.02687169264882438
4.0321428571428575 -0.8219000351989333 0.2787481118618294 -0.0006495001257887138 0.00017977181720008794 0.00011149393985951226 8.334462531601539e-05 -0.9717283449759646 0.03567774014646263
4.032571428571429 -0.8231505817423008 0.28486539546883005 -0.0009471015997452832 6.0091499735505647e-05 0.00022634063852173666 6.50697387832493e-05 -0.9656636721910763 0.04330576398052952
4.033 -0.8231846922158492 0.2918026706625202 -0.00044063025841320166 0.0003857954889685097 0.00015329447180719376 -0.00014405569917335084 -0.9653203331305698 0.0456824450430841
4.033428571428572 -0.8269966662192884 0.30028752895098965 -0.000499828175548077 0.0006455987749601193 -4.7598782654662474e-05 8.408494950446674e-06 -0.9633704152021952 0.04167991691955853
4.033857142857143 -0.8193913024505914 0.30777103523728605 -0.00021539116927327007 0.0008880647819977648 -6.08552123703052e-05 0.00011622729984569628 -0.9637237963601077 0.045052187441875065
4.034285714285715 -0.8131835577419595 0.3108405780032832 -0.00039965626682433555 3.370646210823412e-05 0.0001941138798654466 -2.6825282698377713e-05 -0.9668412269164482 0.04152363743509233
4.034714285714286 -0.8058104324682319 0.32491435493909365 -0.000254129942104581 -0.00024298051783510293 0.00015124011970188542 8.784816347799282e-06 -0.9645377041245201 0.051552132641403084
4.035142857142857 -0.8080265542400347 0.32713213921964307 -0.0003336659492205121 0.00010490655394230113 -3.727970009173855e-05 2.1458774533844888e-05 -0.9693329345067111 0.052147150339359225
4.035571428571428 -0.8010883009390286 0.33408883067174866 -0.0006009652481632781 9.351403602815847e-05 0.0001394750573773243 -0.00015506442975115502 -0.9678355432325766 0.05736304267269013
4.036 -0.798780436214381 0.3445603197123584 -0.00022537205450884703 0.00011453874630359783 0.00018415852529479661 -0.00013880913011717316 -0.9690155710697205 0.057592919618794265
4.036428571428571 -0.8074829415807646 0.3431393216154468 -0.0006045465404551698 0.0002402600208662715 -1.5439049187940773e-06 -0.00023891483411494398 -0.9681806255212722 0.05393241191961322
4.0368571428571425 -0.7992049215544936 0.3546503766095989 -0.00037229238153456645 0.0003574001160492419 -0.0002101053725707451 9.448177221203389e-05 -0.9708402168785649 0.055337849372358715
4.037285714285714 -0.7927833985295284 0.3613062199539956 -0.0009303341220889886 0.00020236322149507958 -5.374829032622908e-05 -6.559335061256454e-05 -0.9634638011468515 0.059075566744929794
4.037714285714285 -0.7898708988300276 0.3628518950970019 -0.00047624915984234773 0.0008115850134170424 -0.0002543306548034474 -0.0001503346144433384 -0.9703533350955991 0.053708893467171726
4.038142857142857 -0.7861762649965021 0.3806855415143114 -0.000871081585019452 0.00010044374037284403 5.027762659619664e-05 0.00023088107128695204 -0.9634729404780338 0.06234012192585421
4.038571428571428 -0.7869352366410615 0.38044397770763627 -0.0003727922615663106 0.0002973004506072792 -8.683221589298312e-05 -0.00014092093316739953 -0.9601465312155694 0.06768075865290185
4.039 -0.7827125501595625 0.38314683813429734 -0.0003360202750129746 0.0002394552896628999 -0.00033521308755699703 3.77235943404829e-05 -0.958833433301212 0.06486259570953641
4.039428571428571 -0.7740931497208713 0.40044552015310475 -0.0002887344417697065 0.0008702834238647392 0.0002653995378448757 -9.663087669097008e-05 -0.9651177845523623 0.06837877957704093
4.039857142857143 -0.7788874116050273 0.3999259465545559 -0.0004996528538130027 0.00016193584716578955 0.00013289911532972636 0.00025263805213743333 -0.9702636949938098 0.07003356014489975
4.040285714285714 -0.7736037574454628 0.39939633634055405 -0.0005339961682314607 0.0007711665024338132 -7.02930041331774e-05 -3.18950757596669e-05 -0.9644871982161276 0.07460330131905889
4.0407142857142855 -0.7736598781695835 0.41428895868638527 -0.00021734894856097789 0.000712064984157787 -0.0003609163493183203 7.325294321204693e-05 -0.9579109399074163 0.07612577363644872
4.041142857142857 -0.7613707383307444 0.41834627639939076 -0.0003234437410124773 0.0001840237564365657 -4.500474730614219e-05 -0.00015006458372918821 -0.9686619508322721 0.08519412993025725
4.041571428571428 -0.7614999503450119 0.42410651616803696 -0.00058743129098017 0.0003669916663829307 -0.0004082089875518123 -8.03977088507683e-05 -0.9643466651074892 0.0837921048750151
4.042 -0.7562069562726312 0.43403448554845964 -0.00037080063747507394 0.00041236947210391683 0.000340952976292545 0.00018239126908414338 -0.9630161506354494 0.09063462267617292
4.042428571428571 -0.7523293308728958 0.43746077223474106 -0.000447438932098316 0.0008468873339235495 -5.879932236107296e-05 -0.00018052708237585363 -0.9594951784828419 0.0934604280576025
4.042857142857143 -0.751962187550823 0.43437939963154265 -0.0002628159016681233 0.0003047713883605393 0.00011100985090662337 -0.00013606537840011484 -0.9630406902521378 0.08931462460277428
4.043285714285714 -0.7462838839588536 0.45174045976655053 -0.00038350808406457476 0.00017630924807747708 -8.110992231367346e-05 -0.00020263538730947155 -0.9638434993891907 0.08680904799540277
4.043714285714286 -0.7393575405422119 0.454478603889607 -0.0005928940363702352 0.00027668019669019165 -0.00012957257384568072 3.0323260599040734e-05 -0.9661699660616716 0.08350756394787948
4.044142857142857 -0.7381282494409936 0.4632626504034308 -0.0003731410264704572 0.0002767297249792513 8.670772729372242e-05 0.00026381830094720474 -0.9621704078362999 0.09752481381558809
