!Created with skrf (http://scikit-rf.org).
# Hz S RI R 50.0 
!freq ReS11 ImS11 ReS21 ImS21 ReS12 ImS12 ReS22 ImS22
4.0 -0.8294286514328629 -0.2524005642206498 -0.0004427703740758897 -0.0006222784669179485 9.495812673871812e-05 -0.00010157119227030038 -0.9635386978031549 -0.12882213482114846
4.0004285714285714 -0.8360218201084395 -0.24591842599880323 -0.0002735790275417193 -0.0002662704912013571 0.0003236170483343571 8.954805927878825e-05 -0.9700991817598174 -0.12424168756719985
4.000857142857143 -0.840392019765296 -0.2361766981825729 -0.00015017956041830192 -0.00017754676251504958 9.039655953951014e-05 2.8750482621795187e-05 -0.9659308833013304 -0.11498393028666534
4.001285714285714 -0.8348025012733264 -0.23118399348215574 -0.00013703924205741365 -0.0004979494899007406 -0.000149976765009576 2.7692291877125698e-05 -0.9651633260207978 -0.11607505802781036
4.001714285714286 -0.8406746201534191 -0.22367427604416892 -1.0617461648481372e-05 -0.0008239395800950936 0.0003489016434615617 -0.00013604359683697136 -0.9658923639035278 -0.12117838270636874
4.002142857142857 -0.8399705226508672 -0.22225906327158204 -0.00021217398687745702 -0.0006619876948678567 -4.702120050038136e-05 2.265006404909342e-06 -0.9650738672852259 -0.11164943911759795
4.002571428571429 -0.842736373337799 -0.2127762745610769 -0.0005529863529468204 -0.00045165960702390063 3.0089057556209872e-05 3.984129442037523e-05 -0.9684830643685366 -0.10642605151151678
4.003 -0.8479780563076721 -0.20181533849338845 -0.0004037814168918574 -0.0009259583243579729 6.999704431202824e-05 0.00012623164850475514 -0.9688879180820409 -0.10459048894122691
4.003428571428572 -0.8486021248171406 -0.1990485842485663 -0.0003008637470428604 -0.0005718979555138307 -0.00034213780757815 3.228182078691251e-05 -0.9638177520994304 -0.09862596947819494
4.003857142857143 -0.8453646101975868 -0.19153954547895388 -0.0001812266904958662 -0.00014450520570387902 8.33604596747222e-05 -3.231696200077822e-05 -0.9703010369864778 -0.11006663809316165
4.0042857142857144 -0.8561924550631249 -0.18389429099180557 -2.4980566864175278e-05 -0.0003054364033880375 4.8024728686945365e-05 9.176930803226355e-05 -0.9654832611395621 -0.100395142903169
4.004714285714286 -0.8513984048521085 -0.17431182055197156 -0.0004640110705989445 -0.0004567041687117634 -5.371907883546441e-05 -9.164311250751505e-06 -0.9602715784121874 -0.10729796104213253
4.005142857142857 -0.8530697309175255 -0.16700888514096746 -0.0006835378193097524 -0.00064296933274926 7.083731720586391e-06 5.790914644450706e-05 -0.9684749971777473 -0.09636681382188059
4.005571428571429 -0.8546829763266632 -0.15987767044056697 -3.11281280894594e-05 -8.428399798901542e-05 -6.310789080314885e-05 -0.00010744812143882386 -0.959592526804235 -0.09450067754086797
4.006 -0.8572066187387243 -0.1565721260913658 -0.0006730996605946704 -0.00020706381927424334 3.295757552725942e-05 -0.00018859205907544222 -0.970793536553644 -0.09408251059695831
4.006428571428572 -0.8572958155831227 -0.15248664288055255 -0.0001265210952171462 -0.0005169529832903474 0.0002723902165899481 -6.118174091791862e-05 -0.9668752391097659 -0.09194031567152187
4.006857142857143 -0.8628527105148717 -0.13990244787062406 -0.0004782349243280201 -0.0005288344295826796 -4.8140865940260256e-05 0.00010989898487927339 -0.9652610102435633 -0.08546561151340805
4.007285714285715 -0.8640636404310416 -0.13252647687544575 -0.000480021200260372 -0.0006643634775209432 -9.630283319275356e-06 -5.74168462557249e-05 -0.9690393160839006 -0.07931101188692057
4.007714285714286 -0.8628524402153733 -0.12875644621655846 -0.000233937586807716 -0.000699749336265903 -0.00016999809244034147 -0.00014245009674789745 -0.9647615524712941 -0.0832609310139667
4.0081428571428575 -0.8640352329645017 -0.1251279431126418 -0.0005348207451424864 -0.0003800604705680884 -0.000459756291406118 0.00017257338997999513 -0.9678985472868952 -0.08982702804357355
4.008571428571429 -0.8646409566049659 -0.11165752790449104 -0.0002589298524120601 -0.00033569210589208564 0.00017189952386773762 2.0447215752815525e-05 -0.9642285318018022 -0.08039658275049218
4.009 -0.8665756357060576 -0.10737294897045525 -0.0006853484024720761 -0.0003464475483875231 -8.449907471872042e-05 -0.00024772107449536247 -0.9746856099040988 -0.0848553813094207
4.009428571428572 -0.8645656904500769 -0.10414379684045429 -0.0002677881555363795 -6.926399283945239e-05 -0.00022402755630087688 -0.00019617730432599218 -0.9761832045394462 -0.07507011706749137
4.009857142857143 -0.8666140790326301 -0.09105252019118738 -0.0002666569970809535 -0.0004249374802842048 0.0002874417491943597 0.0002402442573300449 -0.9666419580762377 -0.06873230205260913
4.010285714285715 -0.868938415961396 -0.08400298383176809 -0.00043324824148696753 -0.00013444221567581805 3.6139611171500217e-05 -0.00024993557593738135 -0.9655156129203496 -0.07367640327314265
4.010714285714286 -0.8698493093746549 -0.07989797856557611 -0.0004943580174541718 -0.0006114633001804797 1.5974113439063075e-05 0.00019956747716895362 -0.9682285237208073 -0.07312602517580583
4.011142857142858 -0.8643715522554479 -0.07489839135092703 -0.0004906514429947629 -0.00019958211441938707 0.00016817913219005026 -4.80810767037916e-06 -0.9707074674853964 -0.06500937079902133
4.011571428571429 -0.8655117849635395 -0.06154704943507914 -0.000603088860178951 -0.0002583871355176358 9.046935397136854e-05 -0.00021391918771439174 -0.9711391962042796 -0.06641296492372593
4.012 -0.8701463472235206 -0.05897826447583058 -0.0006568220405529169 -0.0002765529541501981 -0.0002695967668668042 8.720544303438316e-05 -0.9759765436229975 -0.06366996788171679
4.012428571428571 -0.8677741554081476 -0.04923246112744196 -0.0006480943860017538 -0.000413719113638667 -7.299387573961257e-05 -0.0004787548143970579 -0.9629338890568273 -0.055527985997972165
4.0128571428571425 -0.8763837213328521 -0.03961867665916837 -0.000556867364503338 -0.0002256487055897091 -0.00013669873524251944 6.55361380538431e-06 -0.967069757296005 -0.06319644626588906
4.013285714285714 -0.864241100896602 -0.03500400908440632 -0.0004320696179609346 -0.000338631044422009 -6.354605463314162e-05 7.062984729263481e-05 -0.9635134266794708 -0.058773328769749444
4.013714285714285 -0.8682993382530829 -0.026667245703593953 -0.0004273969308975642 -0.0004418033215907772 7.408538487582128e-05 -9.626268859496418e-05 -0.9750554341052396 -0.05229586770209177
4.014142857142857 -0.8679745070539023 -0.01796677104794998 -0.0002461909825273079 -0.00016639867397434408 0.0001647083890010828 -0.00043279863631953637 -0.9736742223846284 -0.04677600379347366
4.014571428571428 -0.8669324805736244 -0.01660291411541397 -0.0005531311524441264 -0.00040581251850396185 -0.0004419138970504992 0.0002589821545058132 -0.9712478849344104 -0.05303333846724427
4.015 -0.8771779991033791 -0.004128915102417794 -0.0007310449453074171 -0.00022149347967239869 0.0002505603580624149 -0.00039410232576060167 -0.9664165775551635 -0.05267691176894454
4.015428571428571 -0.872586597101287 0.005789936793232593 -0.00019282271133851768 -0.00043095916396879185 -0.00017293459425725828 0.0004857538664107517 -0.9713034022032854 -0.049098863468278145
4.015857142857143 -0.8700521724813163 0.011581554014163256 -0.0004160708650434497 -0.00020997361927017132 -0.0002484508598805553 -9.443934718156404e-05 -0.971299554424791 -0.04458967816837232
4.016285714285714 -0.8696960749017045 0.01710889166494971 -0.0008250817288676902 -0.00039209259860168035 0.00020471470457120644 -0.00023742326900258646 -0.9652136705162906 -0.041577034060926304
4.0167142857142855 -0.8705977639633785 0.02207074046535926 -0.0009435360875827903 -0.00035864745874177116 8.704348717933127e-05 0.0005429493400759786 -0.9649391830845502 -0.04860631395225475
4.017142857142857 -0.8681103616339453 0.03338209137932698 -0.0007949411183442177 -0.0004911054234899599 2.449632426429518e-05 -8.699318245441155e-06 -0.962259580310876 -0.038785250794636475
4.017571428571428 -0.8724346085858052 0.03601045618296491 -0.0007648201112153456 -0.0005245495450043454 -0.0001784275581864499 -3.0340183133647113e-05 -0.9751311999763665 -0.040560724450852896
4.018 -0.8675795287335525 0.04338904485709305 -0.0006905870245377925 -0.0002123085827246579 2.640919399645078e-05 0.0001721932549556226 -0.9685686758628436 -0.03910061586375664
4.018428571428571 -0.8696517937329896 0.05270484307073962 -0.0011040682691536808 -0.0006900333036880327 -0.00011559270429409025 0.0002731701258800779 -0.9714146994833202 -0.034350986600683066
4.018857142857143 -0.8649122330555432 0.06010637085418622 -0.0006097835093683079 3.244843486201673e-05 -0.0004897001770018668 0.00034398857024625184 -0.9618661753454456 -0.025066890481898096
4.019285714285714 -0.8634047291432575 0.0707361182848247 -0.0006871659037823315 -0.00034072100985712314 -4.473348455293028e-05 9.335123221215721e-05 -0.9712414139417601 -0.027657421899450765
4.019714285714286 -0.8681991298359527 0.07696762883798897 -0.00010635935125288244 -0.0001781652846889005 0.00019864601065683468 -0.0001565121283742272 -0.9641021439227649 -0.02687661769319993
4.020142857142857 -0.867465667276273 0.08112099224606646 -0.0005147562779700762 -0.0003492000571169194 -3.131838765488738e-05 -3.391459674367021e-05 -0.9673451691625531 -0.02282597275420697
4.0205714285714285 -0.8657323192480413 0.09583033760486541 -0.0008368034640848402 9.20035895610466e-05 6.942636787496058e-05 -0.000276010472329247 -0.9686740321574767 -0.025729502384659007
4.021 -0.8647172683024162 0.09438893436602332 -0.00038720199223843074 -3.2016773784554504e-05 -0.00019257539697520453 -0.00027025912689855933 -0.9652377745338528 -0.019722151160415712
4.021428571428571 -0.8617438331688302 0.10707984764799841 -0.0002897726210049501 -0.0005144745063139595 0.0002832517130949261 0.0001867028232788461 -0.9695371209988507 -0.020243372974091588
4.021857142857143 -0.8635646697079427 0.11059737683170583 -0.000763306424271313 -0.00015969891508846957 0.00022283150149752354 0.000318492153958447 -0.9679524409755305 -0.018080395821124716
4.022285714285714 -0.8567059385053032 0.11462851323793855 -0.0005767713655322007 6.729043523291597e-05 0.00020795898511405934 -0.00020686996147567738 -0.9750293165417839 -0.008736007853113884
4.022714285714286 -0.8623362254329332 0.12913503806823276 -0.0004738154616756384 8.157059142937811e-05 -0.00028559321191970634 -0.00012167821853019745 -0.9643865786423118 -0.014559348132902614
4.023142857142857 -0.8574763223608258 0.13457526887030435 -0.0003505241898040391 1.3721368259588019e-05 0.00014668481418277345 -7.127225219262525e-06 -0.9670418198978772 -0.006436686656323406
4.023571428571429 -0.8609032625660834 0.1355080959978543 -0.0005782571081500118 -1.1611948631398233e-05 4.120681930861855e-05 -0.00013607287469772966 -0.9643844304780164 -0.004199779980828806
4.024 -0.8554797909550489 0.14859369108249618 -0.00046649824263595807 0.0001068809270279619 -9.143322373323465e-05 -8.408054479971028e-05 -0.9709427801242927 -0.005402707087179198
4.0244285714285715 -0.8568711597806723 0.1522412130124598 -0.0006529157326471675 0.0003179278983023313 0.00025248251785394153 -0.00031427892356909964 -0.9706127834183002 -0.004692285740282168
4.024857142857143 -0.8552963033288818 0.162666514354003 -0.0005767328306558675 -0.0002164888743664925 -0.00029187380698728104 -0.0002484618682681635 -0.9690200623534505 -0.0010739238574483997
4.025285714285714 -0.8556900719274069 0.17151061564117648 -0.0007778034361555162 -0.00018354591780622313 0.00015934663602254644 -0.0002298039983233964 -0.9668414244238898 0.0024162188353302116
4.025714285714286 -0.8538918225717871 0.179013122481783 -0.0007842911044224442 0.00027178725147534506 0.0001729192947633921 -0.00023507742785378535 -0.9760156472134882 0.008425870049622017
4.026142857142857 -0.8572671770109465 0.18254642916041375 -0.00038114846674294853 0.0002289626475920372 2.9304508657832345e-05 -2.485015513386771e-05 -0.9689006215028204 0.0030141826193736915
4.026571428571429 -0.8437412817060944 0.19258254225123408 -0.0005779464285666305 -0.00013022519875126697 -0.0001535155122796389 -0.0001960465822513197 -0.9736250134597202 0.007763037477713261
4.027 -0.845808047770489 0.19899899655552258 -0.0003853016570185281 -3.642235713879173e-05 -9.61603413652605e-05 0.0001764017839831201 -0.9708732458923978 0.005528133808552269
4.027428571428572 -0.8487159439140639 0.1989682976756076 -0.00022769363166910445 0.00014077930979634778 -0.00020005008347810023 -0.0001918314261257807 -0.9665328374532317 0.015121738511357698
4.027857142857143 -0.844190050180245 0.2084392134697766 -0.0006461703774625055 6.592147679377461e-05 -0.0001439366304631049 0.00013600060523645305 -0.9742816270620834 0.012584155990699177
4.0282857142857145 -0.8432615607889741 0.22256978814459302 -0.0008413965435844806 0.00010407548531621505 -0.000178476852075987 -5.022200248734439e-05 -0.9733540544356618 0.021281490876126703
4.028714285714286 -0.8468947004667784 0.21973338427607902 -0.0007374083189641842 -1.3002344978907825e-05 -0.0002219036429761061 0.00015699817799949637 -0.969867249584581 0.014789646770674705
4.029142857142857 -0.840934370785721 0.23538820015012552 -0.0005962601163821836 3.1944119582914566e-05 7.836953521519163e-05 -0.00010910147076182725 -0.9682228396136601 0.02325690189692587
4.029571428571429 -0.8404700561300917 0.23737914942907856 -0.00024023793763056097 -0.0001590188918391732 -0.00023033477990621 0.00021080118048395213 -0.9628771139668415 0.02063188809957673
4.03 -0.8330715947331955 0.24239635609930202 -0.0006996412777751392 0.0002235743538097569 -0.00014096938959074862 0.00011905780296739888 -0.9752476181201533 0.03327982549355442
4.030428571428572 -0.8330096833885097 0.2539576006840151 -0.00038536975554474964 1.3435621723199168e-05 0.00013308283778738677 0.00012359715570805276 -0.9701947681940639 0.030174760125332517
4.030857142857143 -0.8353418746147097 0.25608059031658365 -0.0005619600652703885 0.00021617349516358297 2.7140779606508027e-05 -0.00021912380492528538 -0.9716831662142447 0.022280193639469228
4.031285714285715 -0.8277406337348421 0.26554779034761494 -0.0006216783258883302 0.0003247893259428281 -0.00024206265962741028 -0.0003324910091055431 -0.9681831012435735 0.034550901987990885
4.031714285714286 -0.8248172650380685 0.2688162700968996 -0.0002454642268067786 0.00020907502426969023 -2.361283415061042e-05 9.788445303867621e-05 -0.964785519660939 0.025477644121854326
4.0321428571428575 -0.8210009636985678 0.2788011964442014 -0.0002658422604346427 0.0005165634319414254 8.363223069989692e-05 0.00018943334828332828 -0.9727813525376362 0.036993168509854193
4.032571428571429 -0.8231953026254306 0.2864325097012051 -0.0006542642319057642 -4.0531574022701376e-05 -9.08349643498305e-05 -0.0001435906535054718 -0.9635519381322637 0.046017045344727774
4.033 -0.8214238455050342 0.29149324757367223 -0.00033142164759830336 0.00015270416483829862 0.00010612659407360367 0.00010089178658918979 -0.9651608319282126 0.046265361511996415
4.033428571428572 -0.8258291181219904 0.3011754852347869 -0.0008198301828019254 0.0004637027795295758 0.0005812854157150726 0.00017713386861801774 -0.9629223818165096 0.04065821501205088
4.033857142857143 -0.8176550331878467 0.30677209561661706 -0.0006105574972247248 -4.458349070364849e-05 -8.555855608570927e-05 -0.000322351120079833 -0.9627528877291027 0.04306036136922495
4.034285714285715 -0.8112699456450474 0.31188659494126403 -0.0007908606957928222 0.00023367607279433403 0.0003308786982027564 -0.00047696743506268555 -0.9638936406755071 0.04319153816162334
4.034714285714286 -0.8044726812160355 0.32372721806116733 -0.0008185181820728832 0.00030806110806551746 0.00012066754223942407 -0.0004315444459306551 -0.9670351539679042 0.05217518018991576
4.035142857142857 -0.8043577060814066 0.3279374367495156 -0.00036367234957857366 0.00048469215049400685 0.00021506917879130074 4.25353748380562e-05 -0.9681528056431028 0.0507600630677999
4.035571428571428 -0.7989359811172352 0.3334616388934684 -0.0012130172611438444 0.0007429965482420003 0.00012939642861013888 -0.0001290989796547349 -0.9668597400154375 0.0556687915719472
4.036 -0.7966992316056316 0.3438022715570962 -0.0006126370736981767 0.0004395267639607038 0.00031769259036453634 -6.244456722770297e-05 -0.9686614653232748 0.056377894685412516
4.036428571428571 -0.8037604983082681 0.3420739188005588 -0.0003424044363997246 0.0005865123827083318 -5.129805533782485e-07 -0.00021965555380674284 -0.9675324241287182 0.05082317512631507
4.0368571428571425 -0.7977047795413745 0.3540665932908947 9.306583756716579e-05 0.0003887178485348083 5.812420964580289e-05 -0.00022715026491159789 -0.970586854295774 0.05482896745603601
4.037285714285714 -0.790777740505303 0.36029694266766416 -0.0007045431533113153 0.00020744463872184791 -1.481874227318983e-05 -8.754685708049496e-07 -0.963450954493745 0.058631793882963766
4.037714285714285 -0.7869382348266452 0.3625535867140708 -0.00028276994623193204 0.00033873462292237225 6.628325937823375e-05 -0.00018594647292676775 -0.9707303340922037 0.05660470560253484
4.038142857142857 -0.7846025436526961 0.3795411190926945 -0.0006640335383838711 0.0006009556244332922 9.707413867098268e-05 -4.114093361785958e-05 -0.9624299252075009 0.062238400301385645
4.038571428571428 -0.7848900077882844 0.37907208757153876 -0.000397012477265266 0.00038053753483055443 -0.00035834572565193306 -0.0002963816175581036 -0.9621512393300025 0.06598664623300299
4.039 -0.7801132093404237 0.384777250413839 -0.0005978999945842667 4.032860684997852e-05 0.00011308531557316755 -9.25388392708766e-05 -0.9609808111634337 0.0631228809128441
4.039428571428571 -0.7714857970806452 0.4007889104703085 -0.0003711474259849681 0.0003939328619722095 -0.00019403402543127158 5.7444653778488785e-05 -0.9650749399867129 0.06895002501819907
4.039857142857143 -0.7770811497163942 0.39946458868006657 -0.00030247592987384797 6.787884937249709e-05 0.00015491640585177605 -0.00030609238342318306 -0.9693653604965403 0.06858715525588721
4.040285714285714 -0.7717561252917745 0.3997821672578045 -0.0006879517100958174 -0.00020279667102057725 -0.0001907364684498129 -5.834243475094405e-06 -0.9618477756240077 0.07647033758994358
4.0407142857142855 -0.7716789090016053 0.41394719053861057 -4.0907383286668856e-05 0.0003518978102681476 -3.1410494919810456e-05 4.436994888490046e-05 -0.9576615158059442 0.07852422156161627
4.041142857142857 -0.7592393944621592 0.4173481149173793 -0.0005677341745755419 0.00017603863162660293 -0.00011781165061703406 -6.891171733161668e-05 -0.9691810650422956 0.08692275857298554
4.041571428571428 -0.7573146627740318 0.4238278679933705 -0.0005216791878343228 0.00028745841662758723 0.00021776894857944025 -9.327580109130107e-05 -0.9664426219884419 0.08415142654656865
4.042 -0.7555415258880921 0.43285590860530837 -0.0006686352296514906 0.0003351175477369028 -0.00012941668230767272 -0.0001768000723271681 -0.9638345647755703 0.09019456417562371
4.042428571428571 -0.7475195581238657 0.4377392265247315 -0.0004445621163247003 0.00033531948805401077 -6.346470120498084e-05 -0.0002811488613804389 -0.959890219487756 0.09099327415248964
4.042857142857143 -0.7501242402827749 0.43408142275300093 -0.00016409427402609987 0.0005221744914191425 0.0004378696645346862 -2.8053552041782943e-05 -0.9653177752851408 0.08616467506409138
4.043285714285714 -0.7430655851877135 0.45003206301353205 -0.0006073828028007932 0.000623413081394536 -0.0001322008766455354 -0.00015757656371757353 -0.9645512909256334 0.08574283441345051
4.043714285714286 -0.7368842921009283 0.4533397168550744 -0.0007303491726457901 0.0006956464063604533 -9.624090818005695e-06 0.00026887922808407086 -0.9671615643827915 0.08338139941926313
4.044142857142857 -0.7358631800222066 0.4629613734962087 -0.000255527560864252 0.0008040383677115209 0.00018971294758776477 3.1491147517150636e-05 -0.9639893190665545 0.09816684895209055
