!Created with skrf (http://scikit-rf.org).
# Hz S RI R 50.0 
!freq ReS11 ImS11 ReS21 ImS21 ReS12 ImS12 ReS22 ImS22
4.0 -0.8475776490560112 -0.2521948266562394 -9.550657783104362e-05 -0.00016150326743755579 -5.8741014479439016e-05 -7.3809300967596766e-06 -0.9634768355305048 -0.1294890614437812
4.0004285714285714 -0.8557610733065556 -0.24452997713319305 0.0005166518175202617 -6.665291109287008e-05 -0.00011002411976995912 0.0001458695834844567 -0.9706680754883262 -0.12216229894588977
4.000857142857143 -0.8587888646378488 -0.2360494859854982 0.00027753196156272714 -0.0006936587863041585 -9.421151106828665e-05 5.863434965537774e-05 -0.9682164353314552 -0.11567217841248122
4.001285714285714 -0.8528920991567258 -0.2311409866353751 0.0004232792358289628 -7.000716009023323e-06 -9.185822365956305e-05 0.00029429185879128566 -0.9653856969269923 -0.11582623794436363
4.001714285714286 -0.8588543930346048 -0.22250223516545675 1.6385751912470774e-06 -0.0004657136720197966 -8.167841812237694e-05 0.0002049660944168081 -0.9675593036878716 -0.12137469816702356
4.002142857142857 -0.857706910601463 -0.22228386231511005 6.198485693955594e-05 -0.00033704531631898545 0.00039451387872509213 -0.00013345315829360493 -0.9643491416469383 -0.11183649776167479
4.002571428571429 -0.8613358853282002 -0.21328919416494435 -3.2432407359399614e-05 -0.0003276467391053186 -6.828670700014907e-05 9.650123872080243e-05 -0.9695675085883431 -0.10581712463279594
4.003 -0.8646800031946941 -0.19994297762867957 0.00019754892642960098 -0.00035131187302765856 8.324755015893979e-05 1.5074098361403316e-06 -0.9685654406473472 -0.10541003714633676
4.003428571428572 -0.8674622929347247 -0.19738365720711723 1.0696474297380144e-05 -0.0005648182627522136 -2.2125168219023203e-05 -2.136970000069089e-05 -0.9618791287907966 -0.0988399789862387
4.003857142857143 -0.864432178321477 -0.18815201918212174 0.00024215097447229404 -0.00014427809386331837 0.00017119214216034453 -0.00011077743143868427 -0.9697385205929593 -0.10872816828128826
4.0042857142857144 -0.8745055236805441 -0.18112645185307616 0.00011678942421551148 -0.000421233809703554 0.000174904791936512 4.34754887700803e-05 -0.9660272515637327 -0.09934215156787381
4.004714285714286 -0.8708997436167395 -0.17321005667314118 0.00036691607811407734 -0.0001933856320956514 8.67743237573236e-05 1.1899623620708619e-05 -0.9613123137341038 -0.10797901480796289
4.005142857142857 -0.8717340085205421 -0.16317268392253848 0.00040972218099839434 -0.0006413457282443482 3.5818610877838624e-05 6.134229522871563e-05 -0.9667735566746597 -0.0947116390524258
4.005571428571429 -0.8730223396729457 -0.1570434531496976 8.190459995222148e-05 -0.00045521036653055623 -0.00029336676212923384 5.217222620482477e-05 -0.9614682096452096 -0.09455031554821147
4.006 -0.8762281250510043 -0.1524023591216628 5.339042881355151e-05 -0.00028979636760930724 -2.7676981698870416e-05 6.73515624900574e-05 -0.9714180653020043 -0.09372369556074117
4.006428571428572 -0.8756529443112523 -0.14926476599235566 0.0002908153486063484 0.00010939688517207443 -0.00010298975757153869 9.401994334837778e-05 -0.9693710265197683 -0.09234977239758503
4.006857142857143 -0.8787784342658654 -0.1373507164269078 0.0001004563451026518 -8.20199191966408e-05 -0.0001817323035502686 -0.00021514095468822353 -0.9641239624610246 -0.08629130456081502
4.007285714285715 -0.883565619882802 -0.1299799716722637 -8.416024908306214e-05 -0.0006742994732034653 -0.00021223508165775227 7.84079762183036e-05 -0.9684127206972817 -0.0793443515306165
4.007714285714286 -0.880273992812208 -0.1250196493460139 -0.0003382696064539011 -0.0001311305835909531 -0.0002228166118887285 -3.9165994457091106e-05 -0.9634714277910967 -0.08161130935477663
4.0081428571428575 -0.8815017747753876 -0.12285769694505477 0.00011599838919033681 -0.0004116994460194919 -8.632319229561087e-05 0.0002810150826202309 -0.9660024783040363 -0.0869050381850483
4.008571428571429 -0.8846455622135228 -0.10837879741814041 0.0004775748362407558 -0.0001136997798320946 0.0001817346429395069 -1.7169737859094843e-05 -0.9624539516410139 -0.07824139754029903
4.009 -0.8847922204639297 -0.1035232785719158 8.368534542202786e-05 -0.00037822371724092585 -0.00021258683335082345 -0.0002115727126098205 -0.9749361468313764 -0.08556125137687348
4.009428571428572 -0.8813183750278603 -0.09947573178799629 0.00011653214340677257 -0.0009016737209838404 -0.00034099400159029225 -0.00010116771275610319 -0.9776352199283723 -0.07548764563298141
4.009857142857143 -0.8854919310416599 -0.08719207139400587 -0.0004187164973917015 -0.000528041341432703 9.289634093467467e-05 -0.00014825922766653325 -0.9685991917103851 -0.07177248720939558
4.010285714285715 -0.8880441840100054 -0.08088317872608755 -0.0002928865429911166 -0.0004923449363657394 3.8081811948339804e-05 8.437348791077328e-05 -0.9659714253490005 -0.07335185755396215
4.010714285714286 -0.8862783970238677 -0.0753186268131301 -0.00018582273106568348 -0.0001872172581117927 -1.0124349010797102e-05 -0.00017117658158327632 -0.9685810062312477 -0.07292275526444296
4.011142857142858 -0.8828135190573558 -0.07193208741136384 -7.738434160628104e-05 -0.00045541026158889427 -4.944428735920046e-05 -5.3009704232613495e-05 -0.970627293940508 -0.06451790713017846
4.011571428571429 -0.8847036556047173 -0.05787805748130474 -1.9090156488329333e-05 -0.00021623989708767337 -0.0002544690189233683 0.00017914652104027026 -0.9712643137605573 -0.06708728089576599
4.012 -0.8875134798253362 -0.05371016107421638 -0.0002479878483515051 -0.0007201007158939779 0.00013082094449058679 -2.6352856252854923e-05 -0.9748707943261449 -0.06363580873908997
4.012428571428571 -0.8855267090843771 -0.04723442071292392 -0.000294303654065813 -0.0005000971749005539 9.17482561704406e-05 -8.682473080168149e-05 -0.9615930245653165 -0.05523884184563777
4.0128571428571425 -0.8936496940734789 -0.03548593577026784 8.087474610366957e-05 -0.0005311225675759608 6.932438437112955e-05 8.871547538074568e-05 -0.965124931229329 -0.06349201464236245
4.013285714285714 -0.8834079383935277 -0.03021521616418194 -0.00016836330822215056 -0.0004758030312117453 5.6416198712631016e-05 -0.00021031611346086483 -0.9614520837367269 -0.05873778135513731
4.013714285714285 -0.8863045056441222 -0.02079894191572828 3.9747691788758396e-05 -0.00020692075659773518 0.0001627736038101861 0.00021027866439347038 -0.9769283621615097 -0.05191699246189461
4.014142857142857 -0.8868142858343084 -0.013463377824251012 -1.8663123520504288e-05 -0.0002599137596567846 -5.248847377449838e-05 -0.0002886413821963932 -0.9700883284196077 -0.04594635058867231
4.014571428571428 -0.8853293667515911 -0.011442251015062998 -5.120565324792085e-05 -0.000369670998463005 -5.040056915156351e-05 -6.293557874642644e-05 -0.9700325454434329 -0.05417888788779615
4.015 -0.8951462349909101 0.0008509949598073761 -0.000590229269880114 -0.00022756222168810277 0.00010611727804350054 -0.00010372672571786459 -0.9627656277138775 -0.05030400738290799
4.015428571428571 -0.8905659357408336 0.01165763544565409 -0.00020204978913448648 -0.00030098360400156047 -8.453968321242119e-06 -3.034194978648483e-05 -0.9725796044799256 -0.04978335196777124
4.015857142857143 -0.8883639741768737 0.017713004490219127 -6.491308430014657e-05 -0.0006345347311251093 7.295224741718177e-05 -5.5948261035315197e-05 -0.9692118683468445 -0.046166142192575275
4.016285714285714 -0.8881021309501795 0.022012900522349138 -0.00040622047723110695 -0.00019439387401386173 5.0618549142156026e-05 -0.00017200051404055492 -0.9631336761439963 -0.04238836201776833
4.0167142857142855 -0.8893729907379062 0.03156168948758528 -0.00028996473679771385 -0.0006016413369727637 0.00025729653034501455 5.588928156703308e-05 -0.9642862718766629 -0.04861924286141186
4.017142857142857 -0.8852654337018991 0.03989444291351319 0.00015573331488265632 -0.0001402626510598954 -0.000160413708162661 -0.00020572311803454183 -0.9610709558308349 -0.04085347772251921
4.017571428571428 -0.8903251006944165 0.04355746859725648 -0.0003624344096891913 -0.00041240054021279436 -9.857652319480101e-05 -2.659882271317721e-05 -0.9730157880645124 -0.04210875640458035
4.018 -0.8854158144447377 0.04760998832620407 9.690771455244925e-05 -0.00024209884671769568 0.00021074571516352516 -0.00020635650325618256 -0.9705498974712277 -0.039926440092423174
4.018428571428571 -0.8894772533141745 0.057345355106184756 9.386486753002545e-05 -0.0003605194727095016 6.71192939743155e-05 0.0003471884826604921 -0.9714679452586855 -0.033085618556263914
4.018857142857143 -0.8826367178432358 0.06730157668199582 5.024258795252277e-05 -3.8263466873165395e-05 -0.00013302390216143073 0.00015906076338556807 -0.961307990607135 -0.025685530938156648
4.019285714285714 -0.8816341001482845 0.07787931286977742 -9.203996864979821e-05 -0.0006225850465761735 0.00013779027005039144 0.00012716749260528707 -0.9716941091299642 -0.02917905099263559
4.019714285714286 -0.8856633788248064 0.0845798068507459 -9.17192725090065e-06 -0.00040485264898870157 6.471247673533349e-05 0.0005044085907082746 -0.9661873508816933 -0.029554518052082146
4.020142857142857 -0.8849140865619539 0.08823091494239897 -0.00021047210241490898 -0.0003449663155091783 -0.0001407853495539851 -0.00018041182020855814 -0.9695299854129236 -0.023223215635018623
4.0205714285714285 -0.8855088916779373 0.10327125334228736 3.306807473691501e-05 -0.0004948886641092146 -0.0003521473967728794 0.00018150771817827628 -0.9676790315186099 -0.026197609928570335
4.021 -0.8803769732894766 0.10152556644612867 -0.00017716197958039668 -0.00044468636236453325 -6.58915615014195e-05 -5.893729619093362e-05 -0.9673551085327362 -0.022106194763320906
4.021428571428571 -0.8785699206913213 0.11442996744222868 -0.0004726878570817469 -0.00048019448892049266 -0.000171878032149837 -9.878631919589807e-05 -0.9687288254497732 -0.017327591782787054
4.021857142857143 -0.8817081238771615 0.11751262766505136 -0.0005156964115365176 -0.00021108375578316518 0.00027231644116972644 0.000157381109691798 -0.9680159707228185 -0.016207409284407392
4.022285714285714 -0.873301114937805 0.12199793918696597 -0.00035646795542861607 -0.00023590747913228573 -0.00033155574736160536 0.0001806730536191815 -0.9777853855570171 -0.007977845444576281
4.022714285714286 -0.8785550229194641 0.13785577890240905 -4.777728160343807e-05 -0.0004361946631406518 -0.00019571123404066434 -0.00025293175664183314 -0.9669188275730954 -0.014487870834910595
4.023142857142857 -0.8748106296487111 0.14424291022984076 -0.00016105300269472517 -0.0003621750537198934 -0.00017369809167042138 6.590335987692115e-05 -0.9702385135180597 -0.009132396546856218
4.023571428571429 -0.875794753908942 0.1433427328308991 -6.955465837631894e-05 -5.594152676526308e-05 -0.0002989280300525803 -0.00021215055608698243 -0.9630892883283582 -0.005866518357780908
4.024 -0.8702710721458259 0.15656202325670737 -0.00048113912807641216 -0.0006037004868498044 -9.031512657721853e-05 0.00010330016504389326 -0.9694771330755944 -0.008891057548116785
4.0244285714285715 -0.8738040038424936 0.15999526283541649 -0.00041650341622214007 -0.00038761462882414124 -0.00017404656372082078 -3.6535140855637086e-05 -0.9701497955579405 -0.0035754748292492495
4.024857142857143 -0.8715736763566095 0.1729681688027836 -0.00030773721013430236 -0.00022948041080714078 -0.00027015085880886 0.0001726430744720757 -0.9660498420653697 -0.0006119915432730861
4.025285714285714 -0.8730384731321361 0.17983946133683698 -0.00040517891897175955 -2.296829703811892e-05 0.0001489558789485011 0.0002957771845969238 -0.9668888138467173 0.0038916505981532405
4.025714285714286 -0.8709080113150678 0.1862312809734394 -0.00026847605431661297 -0.0006712026129648764 -9.476552912138067e-06 -7.24196117020135e-05 -0.9777258894246293 0.009642650311092335
4.026142857142857 -0.8727834717268393 0.1913837121419665 -0.00024102951264632453 -0.00021974931968470808 -2.6403940287375337e-05 -0.000184452578532392 -0.9697689570735941 0.0015190514972534652
4.026571428571429 -0.8582434574301553 0.1998468909128087 -0.00019267226927190844 -0.0005174696547461612 2.5176937454386346e-05 -0.00011005830950201909 -0.9727393792719231 0.008430604131090461
4.027 -0.8617839439407271 0.20550453299019947 -0.0003199418841163401 -0.0003159442546445625 7.410090200287442e-05 -0.00012648318392934025 -0.9679398473880566 0.005977843756333929
4.027428571428572 -0.8663520022870702 0.20984856317371509 -0.00041728410322940053 -3.582549458603597e-05 0.00010398751291187568 0.00033205999864232124 -0.9650653248426839 0.01549749226979255
4.027857142857143 -0.8615083417139618 0.21611304532104086 -0.00048095386157038454 -0.00046346590972793793 9.977652510636096e-05 -0.0003094183342665007 -0.9747073594984355 0.01086044069657
4.0282857142857145 -0.8607518813739337 0.2312078051708729 -0.0005732421301442751 -0.00013145176888835344 0.00015341755923871332 -4.288730867861785e-06 -0.9708770137876243 0.022546138194744717
4.028714285714286 -0.8624311803201817 0.230354189703608 -0.000244764777491553 6.022115072436883e-05 3.059261046296435e-05 -3.624797705034507e-06 -0.9691245398571088 0.013325018338697946
4.029142857142857 -0.8591316246904911 0.24389117298141438 -0.0006156501030096877 -0.0005565559813843994 0.00011856250025786354 -6.315292140137698e-05 -0.9680676207922074 0.024206823626959594
4.029571428571429 -0.8559604512381483 0.24607625933525168 -0.00015766310188502431 -0.0007689742899174197 5.619178216215728e-05 -0.00011530093065243332 -0.964397440159955 0.021374669880316326
4.03 -0.8486675524140794 0.25161240710787053 -0.0005168939649243095 -0.00016182857719309221 0.0002015701190193041 -0.00011901917497370167 -0.9726369863400747 0.0340663646847997
4.030428571428572 -0.8509855460950425 0.26354959377032894 -7.909584065801801e-05 -0.0001704687575230632 0.00012642195588315287 -0.00028346123698132295 -0.9686936377676286 0.028966721639742617
4.030857142857143 -0.8505480242510188 0.2656835062926525 -0.00031479745582680286 0.00023133151782000192 0.0001481528394920559 1.3059183493921788e-05 -0.9703504326841054 0.021202490073765214
4.031285714285715 -0.8425733525154702 0.2756229499476507 -2.7152927311580473e-05 -0.00023905264423715366 -7.4615167692588e-05 -2.6852547110283123e-05 -0.9677861536081175 0.03526521145304342
4.031714285714286 -0.8397574891132616 0.2793180647979115 -6.784187932216002e-05 -0.00027995618803564314 -0.0004115870709573993 3.375049027385098e-06 -0.9644866574092398 0.024846421653550263
4.0321428571428575 -0.8359748091956294 0.2873175849139098 -0.00040159138235256305 -2.678300213198435e-05 0.0002156278459738309 0.00031383873601361885 -0.972432854372781 0.03519438934291485
4.032571428571429 -0.8376821051105032 0.2948098497237047 -0.0006116754235559478 0.00010881457049821625 0.0002685331139741143 -8.093048565054923e-05 -0.9632814606092914 0.04391206363833393
4.033 -0.8380925931808327 0.3007291460705669 -0.00036122717309416817 -0.00019931633103856903 -5.824396838871309e-05 -0.00014869899714015848 -0.9656742548093575 0.047006301230713976
4.033428571428572 -0.8409413633120228 0.31044276496352585 -0.0003891916489298128 0.0002536281047891967 0.0002667459948252985 -0.00017029511778556054 -0.9631758513028497 0.03990678139274395
4.033857142857143 -0.8331416585384309 0.3173007341109149 -0.0003514572833657174 -0.00028351834474669497 7.279934685423833e-05 -0.00013509177764462957 -0.9626514785641394 0.043321848756826334
4.034285714285715 -0.8253503485383161 0.32153722126898787 -0.0002387771659916977 -0.0001395583458613237 -0.00021545831333706994 0.0002202246286027845 -0.9653751680045936 0.04251930591912145
4.034714285714286 -0.8206083587287127 0.3348471130763223 -0.0003764790455115587 -0.0002848490514292925 0.0001707466061730753 0.0004592961266579266 -0.9648911558446442 0.050966892537197134
4.035142857142857 -0.821289461599157 0.33770962823918554 -0.00022206678495386472 -0.0005299204609705246 -0.00011592344888841584 -0.0002033820547808154 -0.9681253145828865 0.05072959860756663
4.035571428571428 -0.8146962924973687 0.3455238697817874 -0.000693261972632156 -0.00034048204370135614 9.925337010212642e-05 -0.00017273428725287333 -0.9687352270813134 0.057903555892888946
4.036 -0.8110627636162223 0.3536996370685852 -0.00022607585430567008 1.4704058901011054e-05 -7.531206522659073e-05 2.360811651306763e-05 -0.9675143753393483 0.05648191413468163
4.036428571428571 -0.8203462299037961 0.3526059529831599 -0.0002220907606042579 0.00032147018958030395 8.141939686344123e-05 5.7799502754817134e-05 -0.9679466240803066 0.05249359486670509
4.0368571428571425 -0.8129040984005315 0.36529959641985277 -0.0005012241784886742 4.8319946931647924e-05 -0.00014767758089116246 0.0002586832261663567 -0.9697414612180384 0.055615733910117766
4.037285714285714 -0.8037232388891112 0.3717843463094818 -0.00046374937560477147 0.00039175162106166723 7.364083524508828e-05 9.885913270054952e-05 -0.9634424362199443 0.05795786386928686
4.037714285714285 -0.8036437342500482 0.3736439846127458 -0.00025985849382061457 0.00017028702186881275 -8.170630107618522e-05 0.0003354903002169417 -0.9686834832816286 0.0556363448900663
4.038142857142857 -0.7993457425356962 0.39288666003354034 -0.00026501134886170043 -0.00011651317712302714 4.151756318270022e-06 -0.00013877081889560882 -0.9625139438172295 0.06018639137687987
4.038571428571428 -0.7999100478884666 0.391108363575863 -0.00016988215990795737 0.00019308312362159165 0.00011339922140365125 -0.00010320918169613743 -0.9609306521105591 0.06704349606498651
4.039 -0.795176960331815 0.3945727874421721 -0.0003823535889204913 0.00013677213241481862 0.00025815579133995926 -2.4254346343736868e-05 -0.9607493225773676 0.06439164918281963
4.039428571428571 -0.7873848615947577 0.41375166018128806 -0.00015365984416597212 9.246911914224676e-07 -0.000127623076032438 0.00032378524204138833 -0.9624896493868356 0.07064814091275798
4.039857142857143 -0.7910832603373786 0.41220300958888617 -2.7271073613534888e-05 5.4825391320365554e-05 -5.760676565455438e-06 -0.00020379188846561818 -0.9710697937222174 0.07140550097311454
4.040285714285714 -0.786892535568987 0.4124003945736976 -0.00028111429885855775 -0.00022700940205873285 -4.4114615020792945e-05 0.00010553571127192044 -0.9611747500601777 0.07766868891577107
4.0407142857142855 -0.7868210518275637 0.42352357502025706 -0.0005882850947372798 -0.00022074486126105928 7.168066403628418e-05 -9.117665600669266e-05 -0.9572622398018745 0.07788976293555866
4.041142857142857 -0.7729457600448888 0.4290768753477275 -0.0005212471203061981 6.50260415249462e-05 -0.0003034122055349226 1.9416984564601283e-05 -0.9693782149128636 0.08478567306781191
4.041571428571428 -0.7715727435069161 0.4352326866255022 -0.00041556442839313617 0.00033400599613641805 1.660707267921309e-05 -0.0003823413783752203 -0.9656690516563178 0.08224901709564747
4.042 -0.7678610389183397 0.4461823899302456 -0.000413284244256004 0.00013356262851765417 0.00012328954626874872 8.606592744721863e-05 -0.9640421478679745 0.09084803344406393
4.042428571428571 -0.7631340034442564 0.45005926918500194 -0.0006749392717897384 -0.00020494541191565897 -4.823442236040879e-05 -0.000341279565476959 -0.9588478844431814 0.09307843688152875
4.042857142857143 -0.764010618599385 0.4470944486865306 -2.96196991309699e-05 2.009775279111041e-06 -0.0003218297706012468 -0.00014123133536604352 -0.9652441555393407 0.08827357131632672
4.043285714285714 -0.7579266791739181 0.4647329745200649 -0.0006763466875985377 0.00032625165394623224 5.257715207948295e-05 0.0001364879498336439 -0.9646557293223864 0.08552087238957765
4.043714285714286 -0.751123949549296 0.4654069192338539 -0.0003058055642219256 -7.435297064158112e-05 0.00038077550243838785 -9.041899492905662e-05 -0.9685027539490705 0.083372322116571
4.044142857142857 -0.7494776184835882 0.47480172191688635 -0.0004755961851891606 0.00011118235300877515 -0.00033217211494203825 -0.00027601495371173897 -0.9615826843975325 0.09624922902179397
