!Created with skrf (http://scikit-rf.org).
# Hz S RI R 50.0 
!freq ReS11 ImS11 ReS21 ImS21 ReS12 ImS12 ReS22 ImS22
4.0 -0.8478725325240475 -0.2505342431305889 0.0004137876832591472 -0.0004405717471126127 0.0002769848979717143 6.167776865610609e-05 -0.962486289395728 -0.12936763732619533
4.0004285714285714 -0.8560803978022747 -0.24632059366494163 -7.339912848287406e-05 -0.00036077780654986027 0.00013749218247901805 0.00011490241268624483 -0.971355399343269 -0.12314859260844878
4.000857142857143 -0.8599326326030787 -0.23770071057258774 -0.0002837568625811771 -0.00043771167803264904 -0.0003490503468305604 1.7031419147939173e-05 -0.9661391796324756 -0.11708964114400629
4.001285714285714 -0.8528679958750828 -0.23059771822105013 0.00010382315775510421 -0.000327137366544314 -0.00020502789866879188 -3.0392229022404692e-05 -0.964471593877618 -0.11796622676127566
4.001714285714286 -0.8593760007733934 -0.22409805176659786 -7.244226903257125e-05 -0.00010014030828880094 -0.00013767993379605703 3.281570924934346e-05 -0.9665281648298857 -0.12161650988342694
4.002142857142857 -0.8582938504322968 -0.2235578625457337 -0.0001312966364835603 -0.0003328659360188428 -2.0337917961557552e-05 0.00019752601413309604 -0.9648488450622483 -0.11244378669932871
4.002571428571429 -0.8614851636085513 -0.21196992070651574 0.00020590107810021245 -0.0004993549188940383 -0.0001523886153212045 0.00010581128122273793 -0.9698161531775064 -0.1075036116475844
4.003 -0.8668365100943025 -0.20278722499094562 -5.294665315630834e-05 -6.000058609708531e-05 -5.215102914928078e-05 6.361899279258925e-05 -0.9684823096177874 -0.10505208728369628
4.003428571428572 -0.8691865667039992 -0.19854614815660276 0.00040235022380625494 9.070571570623253e-05 0.0001793632079565132 0.00026714326308611107 -0.9599881806068162 -0.09769251652066487
4.003857142857143 -0.8643103579039997 -0.18925181682250125 -0.00017625170831079334 -0.0003337742580439563 0.00018354720618662455 2.1119182105967596e-05 -0.9695391331908241 -0.1119652621727903
4.0042857142857144 -0.8754725582406275 -0.18430651784354055 0.00019889213635568753 -0.00023644791935216024 -0.00020619607903182312 0.0003093366067530529 -0.9673258544347656 -0.09819076094254225
4.004714285714286 -0.8709392419689915 -0.17310808886726806 0.00037071072450847037 8.23682916919458e-06 0.0002680563120041787 -0.00016211967203566996 -0.959361133009533 -0.10817356549842563
4.005142857142857 -0.8734243208240389 -0.16490688226616484 8.924706624592301e-05 -9.155239826962962e-05 -4.4430640397196365e-05 1.8158503622166653e-05 -0.9691369239159897 -0.09671544643974815
4.005571428571429 -0.8722841547911196 -0.1590989251825848 0.00022508042554790885 -0.00017437527235648117 -7.770793114693415e-05 0.00010691267571057428 -0.9604359452589735 -0.09636766047527989
4.006 -0.8756635404541588 -0.15460397716123978 0.0002160267860524791 -0.00041230337724198725 -1.4183104815014692e-06 -4.626916949195046e-05 -0.9720880101167766 -0.09451444414931572
4.006428571428572 -0.8765998459370213 -0.15030204517840118 5.799373416061317e-05 -0.0004372521259413413 9.019687218357469e-05 0.0001421191010013514 -0.9689624551688069 -0.0930447889925934
4.006857142857143 -0.8823640548284738 -0.13929664875580858 5.071151130346666e-05 -0.00032132093283292364 -0.00025271908863205785 5.4440310588870886e-05 -0.966405035666902 -0.08690555370324968
4.007285714285715 -0.8831602720460111 -0.13094278218738042 1.481876589583314e-05 -0.000277181471824719 0.00011588199248126778 9.459656316605817e-05 -0.9701038235380018 -0.08042119983868953
4.007714285714286 -0.8803120958149421 -0.12750304783716113 9.635054978122948e-05 -0.000288467590801244 0.00010977306141089568 -6.40128918740392e-06 -0.964290162993358 -0.08417654671378298
4.0081428571428575 -0.8821618161721145 -0.12296642796953126 8.654494170525568e-05 -0.00013457451947958382 0.00015355512655066967 0.00016495184890082362 -0.9682850789431195 -0.08779414292395926
4.008571428571429 -0.8835909188947988 -0.10952995648654831 2.4400644810731905e-05 -0.0006043687087605796 -0.00017400110049013245 -0.00010362097921782521 -0.9628842674689188 -0.07819890940725452
4.009 -0.8851253191275206 -0.10331604634716375 0.0002611561143723743 -0.00028282818377842954 -5.551117585399887e-05 -8.90278885241266e-05 -0.973357684522132 -0.08509090907032156
4.009428571428572 -0.8823552924026761 -0.09958267579727699 0.00033855343415880343 -0.0005771521477418483 -1.4005120496967256e-05 0.0002249752984600812 -0.9763780235382502 -0.07768083512865316
4.009857142857143 -0.8872665408643698 -0.08825215680809241 -0.00020966794594107422 -0.0005806497559232528 -0.00011932528796584048 0.0001295170869919883 -0.9661587640774428 -0.07164307309048573
4.010285714285715 -0.8879417778289832 -0.08057717365274583 -0.0005392687527232986 -0.0006190377370902321 -0.00023193917647765298 -0.00015088692382295163 -0.9646560395720177 -0.07362029523167452
4.010714285714286 -0.8883964975227122 -0.07758396171906216 -0.0001219295227755194 4.2537039147177426e-05 -0.00010006785572529233 0.00016624978743485613 -0.9684252160821494 -0.07372317391570168
4.011142857142858 -0.8832768677981387 -0.07245812800496214 0.00023881307095966324 -0.00019425506472768881 3.642916045491991e-05 -0.00011702861928152761 -0.9688727673803214 -0.06779266079459625
4.011571428571429 -0.8840597913188476 -0.05791358969838264 -0.00020472693496562786 -0.00029840520971768176 8.309800581275922e-05 0.0002926317327276776 -0.9706495958153873 -0.0679798174125674
4.012 -0.888433592861037 -0.055759730331125634 0.0001975808877740417 -0.00030263202892112054 -6.442562742239581e-05 -3.466385756180127e-05 -0.9756271840982598 -0.06350016592254867
4.012428571428571 -0.8855666086295761 -0.0451659859220844 0.000258674385865797 -0.00025518555777483696 5.683076070162048e-05 -6.873277839303408e-06 -0.9643108739582834 -0.05700705066101917
4.0128571428571425 -0.8938048539439702 -0.03715903014627503 -0.0003458018425749531 -0.0004914657535885469 3.255653892781758e-05 4.4704672793579655e-05 -0.9630591226590322 -0.0642127703823299
4.013285714285714 -0.8847076801052782 -0.03176187631573869 -0.00012599299851022742 -0.0006457082819462681 -5.370798719026384e-06 -0.00013123812047950253 -0.9635640489224411 -0.06036165063922655
4.013714285714285 -0.8874332042764143 -0.02304344011673481 0.00012987567208985501 -0.00018759317104415085 -4.1185050448818164e-05 -0.0002084340043467163 -0.9756475932737738 -0.05310327854601614
4.014142857142857 -0.8871984641831672 -0.014696691001125159 8.220347787281859e-05 -0.0001375852683036994 7.342279956249987e-05 0.00011928067481935558 -0.9705241185774567 -0.047101413281476295
4.014571428571428 -0.8862225129704 -0.013252579691340074 -0.00026512742428379704 -0.000940479478414751 -0.00010369294369034434 0.00013806623182948123 -0.9712930180498259 -0.05355521446008206
4.015 -0.8947011601232036 0.0005949319560498647 -3.966857206547212e-05 -0.0003243179499764305 0.00016839949167539106 0.00012846784131291883 -0.9660122193297956 -0.05045572872391419
4.015428571428571 -0.8918870598099491 0.010490121577487632 -0.0003083167018900388 -0.00017288532855150315 -0.00013819069576430853 -0.00020558189961778468 -0.9729751167178929 -0.048794115237847546
4.015857142857143 -0.8889158511386394 0.01649484189503533 0.00011644275175474124 -0.00013533853410038402 0.00019428738875660633 -5.717982180510118e-05 -0.9713363094014476 -0.04601150049923224
4.016285714285714 -0.8888383744541257 0.020003935166799398 0.0001894562022186422 -0.00030815353151439026 0.0001684121430852251 0.00013354670486176798 -0.9667065146880881 -0.040014665829543876
4.0167142857142855 -0.8884269404196625 0.028656642362398396 -9.674843546519899e-05 6.3105348859201185e-06 0.00012783502514372106 0.00010595489262028075 -0.9659918826600857 -0.050926692669962574
4.017142857142857 -0.8862610170503382 0.03812547679525825 -6.372448590421004e-05 -0.000660184932128023 5.450515580757061e-05 -7.653783484946193e-05 -0.9610547907302323 -0.04198610595747509
4.017571428571428 -0.8906765481720704 0.04124338108948657 9.606721557736058e-05 -0.00016564453936487956 8.591340254756032e-05 3.4999296872096453e-05 -0.9731421670629782 -0.04297217359557065
4.018 -0.8863380101872494 0.04966020759899551 0.00012954294682608635 -0.0007386945871621164 -0.00014451733064248451 0.0001270945680455129 -0.9693550566655634 -0.04162444320548227
4.018428571428571 -0.8899334121076229 0.05722612014624517 0.00015923385473998013 -0.0005681325981792603 -7.985884733891699e-05 -0.00015204252618675283 -0.9733051635930684 -0.035633472070660956
4.018857142857143 -0.8815983336885436 0.0656421744019589 -0.00020971848895662366 -0.00015504790802050406 -0.00044141506109835 -4.5570774291272184e-05 -0.9603681916347518 -0.027024687011253996
4.019285714285714 -0.8806490642894453 0.07476612862027901 0.00024203017419864527 -4.0734467876663994e-05 0.0002105913979994902 0.0003025196258996945 -0.9718364739114103 -0.02891529634481134
4.019714285714286 -0.8871955243965488 0.08374738771452123 -0.00019490650303984376 -0.00048682268013018794 -0.0001615668365016805 0.0001767980652679579 -0.9659824807181526 -0.029457046299387047
4.020142857142857 -0.8872811111253699 0.0877476598040231 -0.00035952215880181396 -0.0006719247340360022 5.4365707138251816e-05 -2.747300741111007e-07 -0.9688363335404753 -0.024432137827559146
4.0205714285714285 -0.8850164193619879 0.10216490940629512 -0.00017004351495412506 -0.00024063075300389272 0.00018983289342474932 0.00045569213184108715 -0.967654632969039 -0.028928774970117314
4.021 -0.8809444409171346 0.10136065116391718 0.00011720737314032112 -0.0004577916404678338 0.00019140231778483436 0.0002579936842987768 -0.9678339757076105 -0.020871923563107714
4.021428571428571 -0.8797791550980503 0.11325940709487596 -0.00030924025084072044 -0.00044740142121340947 -2.5080108844069215e-06 2.8150982862943302e-05 -0.9694449692959161 -0.021033950154269114
4.021857142857143 -0.8820104819748149 0.11562737543829876 -3.69088257687616e-05 -0.0007320957092874422 -6.496963762274873e-05 -0.00044265369144656205 -0.9687065152611755 -0.017385738372007884
4.022285714285714 -0.8727517111627575 0.12087557071941563 4.434153950504042e-05 -0.00069332535388357 -9.079641382347732e-05 -0.00015705475305986748 -0.9762454634817922 -0.010836190019513092
4.022714285714286 -0.8786664176445966 0.1369120163896161 0.0001939285527625572 -0.0003665496111661985 0.00029288461189984333 -5.472727040316807e-05 -0.9662143953805352 -0.013973076926580792
4.023142857142857 -0.8756268506680132 0.1414789687190283 8.755145622158418e-05 -2.2371172170834962e-05 -0.00020244222036864239 -0.00021495082176608527 -0.9671547409026595 -0.007982015376950213
4.023571428571429 -0.8772338315593788 0.14360983736004165 -5.1476568484699486e-05 -0.0001051308818167533 -0.00017152499449922396 -4.9839316674234404e-05 -0.9630399529345806 -0.004817231176034055
4.024 -0.8705759068679663 0.15451998821278942 -0.00018513274506702445 -8.500649888138636e-05 -7.376602083907818e-05 -0.00044669969774698703 -0.9713863768344919 -0.008770577644813066
4.0244285714285715 -0.8729769837134959 0.15975885435743398 -0.0005377967907781912 -0.000542826085015509 9.423151208060309e-06 4.978694505133289e-07 -0.9705166356593354 -0.0027490400035225645
4.024857142857143 -0.87425824355541 0.17155808612082188 -0.00018696973950449368 -7.13872795941131e-05 -0.00016968852029951545 -6.918366739464324e-05 -0.9671161866551626 -0.0016218721689059573
4.025285714285714 -0.8727804104398005 0.1797111109578361 -0.00037078297234377413 -0.00044890682449243396 -0.00014381376615394263 7.377564165747771e-05 -0.9661402559141385 0.0013380355900433857
4.025714285714286 -0.8709001109411839 0.18509255420679763 -0.0005592553998302919 0.00021748438816985126 -0.00016770881422512238 -3.4248536787978983e-05 -0.9744710676851035 0.009567757881212493
4.026142857142857 -0.8729677446507818 0.19042461450552245 -0.00011895483111305853 0.00015019370706765138 -0.00027779795172607684 -7.2096465626962e-05 -0.9702215166372059 0.002521231170173124
4.026571428571429 -0.8603029644721311 0.20034918924650008 -0.00014385061304772828 -0.0007699623572801811 0.00017300342152556518 -6.297937035066779e-06 -0.9735569921747323 0.005815386372218485
4.027 -0.8646394505492286 0.20654198144421154 -6.0221295661793325e-05 -0.0003203358562225599 -8.047096786070337e-05 1.8049398205913647e-05 -0.9681745622909133 0.0035699759666647764
4.027428571428572 -0.8667444347157918 0.2059116931412182 -0.00018668256815139195 6.78111374941292e-05 -0.0002442288652566964 -1.6261114656747437e-05 -0.9662016637818286 0.014428395038034475
4.027857142857143 -0.8634938250490947 0.21710714132680278 -0.00018457062963152447 -0.00028578403825783573 0.00033859390077045447 8.202953979896805e-06 -0.9737296215947328 0.010457747265867982
4.0282857142857145 -0.8616732710017259 0.2309379880961527 -0.00026525087178980085 -9.487866186497065e-05 0.0001257696578812547 -9.515874164470706e-05 -0.9717904883871593 0.01978505012884672
4.028714285714286 -0.8648183291390664 0.228554093276051 -0.00030888747332659465 0.000258555251560329 0.00011047830502639913 -0.00020352440561236836 -0.9688797909008294 0.011915421902845199
4.029142857142857 -0.8593913375452026 0.24358920969120368 -7.430258919996682e-05 3.936399317402501e-05 -5.854293244456403e-06 0.00011010441920935029 -0.9717268468804147 0.023421815962159736
4.029571428571429 -0.8564791479774817 0.2449344192287143 -2.950573139716544e-06 -0.0002791315967448014 -0.00010961551043933491 -0.0002494967423779049 -0.962664606360899 0.019032046215930798
4.03 -0.8524405533320938 0.254229876433011 -0.0002713730551889162 -0.0003345849959103688 -5.477744975956676e-05 -0.00017918277457760698 -0.9709944178647459 0.03035198207681941
4.030428571428572 -0.8499460285525537 0.26449074154182084 -0.00027915916713170454 -0.0002996334391587319 -0.0001437680532374713 8.785863932493502e-05 -0.9692637681717245 0.02842912899703737
4.030857142857143 -0.8520374062155451 0.26583912653179187 -0.0001777903435135856 9.535280143434839e-05 -6.523999804711905e-05 7.13270930214767e-05 -0.9725391758814266 0.020320393031910584
4.031285714285715 -0.8448918504734805 0.2763289824742241 -0.000596938314258575 -0.0002523770348280556 0.00016110781404300674 6.048310897643554e-05 -0.96791937667421 0.03220292636353295
4.031714285714286 -0.8403612070310886 0.2788822779991082 -0.00018947809797339264 -0.00036645092484748943 0.000441868202058369 9.201562125489259e-06 -0.9647337075595983 0.024839077268840343
4.0321428571428575 -0.8383034380438298 0.28859146951289916 -0.0006207245599776625 -0.00016026058713333174 0.00015499479911865277 -0.00045286902277836074 -0.9729687458266483 0.03279902259588903
4.032571428571429 -0.8387402430312028 0.2954827938393833 -0.00038054087261234226 -9.398397057225555e-05 -3.699518030388909e-05 0.00012345875578717856 -0.96458256983045 0.042323211450936774
4.033 -0.8377416099192266 0.30118988377140804 -0.00016915976136486677 0.0002886938499668419 0.0001426078554043162 -0.0004607218505520099 -0.9656749141131439 0.04213296132028383
4.033428571428572 -0.8421933018140704 0.31049957167265213 -0.0007348780097992912 -4.014076382623824e-05 -0.00019939603053004132 0.00020596548289824717 -0.963861783255083 0.03812023952200561
4.033857142857143 -0.8328841405248114 0.317084139718958 0.00035643504643781507 -0.0005192012102287399 -0.00015084582616411066 -1.8200801604157698e-05 -0.9619048286830276 0.04588779557199309
4.034285714285715 -0.826191428798571 0.32243576888579323 -0.0003448934853391479 -0.00022673235322175658 -9.572031173206982e-05 0.00011583340746228786 -0.9657922111873027 0.04262751270127924
4.034714285714286 -0.8196013624264387 0.33443659612144117 -0.0004286175576181374 -0.00018657988720025418 -0.00012707237619308503 0.0001744692774422488 -0.9670241098189049 0.05012891843182972
4.035142857142857 -0.821725719916422 0.338454887239935 2.993493374900369e-05 -0.00011321496998154188 -0.00017693970462402602 -0.0001222869202508043 -0.9684856331391906 0.049564933875985984
4.035571428571428 -0.8146896064733572 0.3459892568173598 -0.0005027122283010795 -5.374100568039872e-05 -0.00012773691841045062 0.00017563535355213063 -0.9679419643584858 0.05598078625182037
4.036 -0.8121416341152818 0.3548297502444223 -3.6882689237653696e-06 0.0003071045871556484 4.1824895640589625e-05 -9.279334289309123e-05 -0.9702401709998597 0.05738125284604048
4.036428571428571 -0.8212145481766723 0.3530312204848314 -0.0005034250552303589 -0.0004188247990020138 6.097438231577036e-05 0.00010103859180967992 -0.9694312582409031 0.05154344561748613
4.0368571428571425 -0.8121509013363697 0.36408131593842363 -0.00030830418437582593 4.985340066817894e-05 3.545185673290449e-05 -0.0003068632590285648 -0.971383334982756 0.05196118913344082
4.037285714285714 -0.8050295130629019 0.3729748947817529 -0.00033441769126470487 -0.00020504804768783504 -4.091876161837484e-05 0.00010963301418948792 -0.9637176638660656 0.05815721149560005
4.037714285714285 -0.8036483928112479 0.37326401292080974 -0.00015620056844323083 -0.0004584302668025289 -0.00019847293504126408 -0.00014127434510159955 -0.9708923284896319 0.05541697289065066
4.038142857142857 -0.7992937141600227 0.39374856087362586 -0.000513744118458441 0.00029274174444093366 0.00022004420742575945 -0.00021913115489300252 -0.9635316469703091 0.060809395618823904
4.038571428571428 -0.8006252240342578 0.391897511321689 0.00018734728713761613 -0.00038637234680068805 -0.00022644373628732823 -0.0003949470471116895 -0.9602259178227177 0.06622907625830822
4.039 -0.7946503482296127 0.39411809177812707 -0.00027334735649640494 0.0002942562409408215 -1.3880538941673723e-05 -0.00017547002904746024 -0.958456671669839 0.06276647085224761
4.039428571428571 -0.7882140600109222 0.41349661018622036 -0.00044712028554733883 0.0003077015272542174 9.1798560087063e-05 1.4251777921577895e-05 -0.9646519736605306 0.06797783526924568
4.039857142857143 -0.7926181586057514 0.4097879166446676 -0.0005027200422313996 -0.00010370748355886233 -2.0368964835774066e-05 -8.155598868945351e-05 -0.9717331955444639 0.0709056651963082
4.040285714285714 -0.7875227610446935 0.4097374696071183 -0.0001557756118249887 -0.00012799906708893348 -0.0003934539110961824 -4.262864391807972e-05 -0.9650303251808932 0.07491314222804792
4.0407142857142855 -0.7858549992268389 0.4243892714386437 -7.573631618725164e-05 8.108014894057358e-05 4.804036018180794e-06 -8.456354991890929e-05 -0.9592488745024751 0.07482556953825416
4.041142857142857 -0.7739506386925572 0.4296151818038443 3.960426232441712e-05 -0.00018015890225836498 4.654195532563954e-05 8.063064525317234e-05 -0.9706700832030514 0.0841303613049642
4.041571428571428 -0.7725700477708357 0.43539562933884224 -0.00022413590580141072 -0.0003271677683380113 -0.0001364653451067078 -0.0002823101107668454 -0.9660338099725683 0.08280865392973673
4.042 -0.7686272714353137 0.4457002212427306 -0.00044182251203476775 -0.00018618012709243224 0.00018022708838385848 -1.0178053776193171e-05 -0.96431880412285 0.09071105947674386
4.042428571428571 -0.7640551711987659 0.45081384084707266 5.206415318432569e-05 5.068888149336756e-05 -0.00017585084447616675 0.00032704572868019695 -0.9581118821128923 0.0927290067830544
4.042857142857143 -0.7634579850781438 0.4480309074857381 -0.000136999996118542 -0.00040050349835303996 0.00010636279082865867 0.00021826742177051404 -0.9638705109837474 0.0871688808208387
4.043285714285714 -0.7578686826392795 0.4633964567834406 -0.0008381263033822457 0.0004051811900114442 -0.0001499791537310869 -0.0001176390250768069 -0.9654315916496691 0.08485089777896664
4.043714285714286 -0.7505455845912924 0.46584725268570504 0.0001485763144981603 -0.0001444383930930519 4.599256965083056e-05 -0.00011551808487833902 -0.9675986217353889 0.08202891929379416
4.044142857142857 -0.7517794768662941 0.4743581686255544 -0.0003848323335343027 9.044309601087097e-05 -7.839701174876521e-05 0.00012949351259581112 -0.9652854578009439 0.0982606681468182
