!Created with skrf (http://scikit-rf.org).
# Hz S RI R 50.0 
!freq ReS11 ImS11 ReS21 ImS21 ReS12 ImS12 ReS22 ImS22
4.0 -0.8483525424831149 -0.2530324976224147 0.00037045361652936367 -0.00046732894553619506 0.0002811835100073071 8.321271246062262e-06 -0.9643751210490006 -0.12989888928371957
4.0004285714285714 -0.8553678626019954 -0.2454947475007605 0.00020699225382663153 -0.000649369244020065 -0.00010830650312871025 8.651369779873645e-05 -0.9721972986214249 -0.12406080145748338
4.000857142857143 -0.8606201092132064 -0.23581901740227967 -0.0004224565210791688 -0.000357405939673399 -0.000168418386685704 9.760770706808586e-05 -0.9672500451159936 -0.11727960889605643
4.001285714285714 -0.8539164712261242 -0.23077473005208052 0.00013312673914693863 -0.00018549764090892764 0.0002449589949741022 3.6530456903899634e-05 -0.9642175336877081 -0.11523794006024067
4.001714285714286 -0.860218557663652 -0.2217858355227707 0.00021214099768347803 -0.0002609211205364976 0.00013535326901752354 3.804333547179076e-05 -0.9656928786266186 -0.12141512331094453
4.002142857142857 -0.8586868415786296 -0.2231190468654782 -0.00015780618839456015 -0.00047578452916460594 -0.0002028965482833424 -0.0001492444715410931 -0.9650938457060338 -0.11270819084996399
4.002571428571429 -0.8629736957309537 -0.21324558542970604 9.388142754584281e-05 -0.00016426281462640773 -6.964249133727707e-05 -5.7204730404370846e-05 -0.9688837192760359 -0.10605880068816517
4.003 -0.8657394313614453 -0.20141297509768455 -7.202403770812108e-05 -0.0004286513902888592 -1.1673916053202204e-05 -0.000148052187117774 -0.9693127560188043 -0.10315967086802628
4.003428571428572 -0.8686255135506401 -0.19889247845121458 -4.800516498002016e-07 -3.049218815080817e-05 1.6354543491209648e-05 -0.00020939770420114534 -0.9631793728779124 -0.09755344262219107
4.003857142857143 -0.8628925282234972 -0.18931356101572566 -0.00012392471225202722 -0.00023580237588900158 -2.5282491621758863e-05 7.0566793887135515e-06 -0.9702029517706227 -0.11009059724622335
4.0042857142857144 -0.8761827644608389 -0.18194981324340279 0.0001582068763557743 -0.0003125294235069441 6.16939925688895e-05 -0.00011355116985627906 -0.9646982684713973 -0.09825181865764857
4.004714285714286 -0.8700083886119597 -0.17360714618400133 0.00039617687354974744 -0.00024231156138251528 -1.800253419742262e-05 1.5513036911916688e-05 -0.9600567434959801 -0.10741296162848672
4.005142857142857 -0.8731934822353392 -0.16503977969214395 1.8061722707683278e-05 -0.0003403854797191739 -0.00016044899961582484 -7.490582580136884e-05 -0.9685761701869383 -0.0953238586543162
4.005571428571429 -0.8734874661549134 -0.15876583860720245 0.000154420383691649 -0.00024273860838647357 -9.338904358255645e-05 -1.7534907692482417e-05 -0.9614586849758273 -0.09414681332595763
4.006 -0.8760759061036476 -0.15438146938090036 0.0002519878398957423 -0.00045597806152049026 0.0002866163204729405 -0.0002841984456340501 -0.9706893875752033 -0.09515007341023692
4.006428571428572 -0.8771496994988465 -0.15039495813203943 -0.0001623298069803953 -0.0002950931331257451 2.7754717675210156e-05 -0.0002201626207233102 -0.9698833937297969 -0.09328437844617632
4.006857142857143 -0.88225420915662 -0.13815536652700808 0.00028438929904125537 -8.624550119679582e-05 0.00020756187787942254 2.264702792179151e-05 -0.9651966231710145 -0.08726416640028428
4.007285714285715 -0.8834923830277379 -0.1324409885362978 0.0002024998826445652 -0.00041505042071764966 7.40808770074221e-05 8.069307002079017e-05 -0.9681052850910432 -0.08049463308736345
4.007714285714286 -0.8803852127086764 -0.12670744346729143 0.0001356524752038077 -0.00025217011991776075 0.00018482557831994736 -0.0001390288759972725 -0.9635456102888538 -0.08254092925121083
4.0081428571428575 -0.8822193693269055 -0.12364329762734128 0.00015164304361987653 -0.0006588650040085742 0.0001237748858801993 9.001341649715306e-06 -0.9668645518564283 -0.08820926704273466
4.008571428571429 -0.8861323985914515 -0.10874531715890895 -7.208539521536243e-05 -0.000465675195878772 9.779293816817826e-05 -1.925746697426788e-05 -0.9628000398395636 -0.07795764183063086
4.009 -0.8851371591889691 -0.10347823330494242 5.78508121813841e-05 -0.0002695316017396285 -0.00010681994753896758 -0.00032000464732627194 -0.9746563340029142 -0.08519722521443253
4.009428571428572 -0.8830028487138812 -0.10113517563958947 0.00015223903745974614 -0.00043186994041818704 7.997439702758358e-05 -0.00033789002568165193 -0.9780960444258514 -0.07599776425405792
4.009857142857143 -0.8867908524406587 -0.08888158531656311 0.00016199909396963244 -0.00038971976006238967 -5.716142111090292e-05 0.0002033636752986059 -0.9666413848291731 -0.06933503764443585
4.010285714285715 -0.8890697882680884 -0.08285853964359233 -0.00028415336472327853 -0.0004851116987108639 4.574387904666845e-05 -0.00020221099032580628 -0.9643225805381953 -0.07249251393031772
4.010714285714286 -0.8897198842982225 -0.07705000749532408 -6.683050281017221e-05 -0.0005331158249523104 0.00017199172898958772 3.4182110350047583e-06 -0.9688050120686368 -0.07177869378012461
4.011142857142858 -0.8840498177105154 -0.07060862623391484 -0.0002296510871026698 -0.00022437217542291111 0.0001184277884124984 -0.0002646527206838999 -0.9687074183865874 -0.06619084785037684
4.011571428571429 -0.8849352882591315 -0.05943362579505625 -1.4390279036664171e-05 -0.00015019664991060847 0.00011396047063653633 0.0002140121922749588 -0.9711549114183219 -0.06772849526829833
4.012 -0.8905609327775924 -0.05673214587389237 -0.00046397859220121817 -5.51165638118378e-05 -7.869322696677544e-05 4.5710046617249274e-05 -0.9750355692969482 -0.06180207997237782
4.012428571428571 -0.8865376493137918 -0.048110959799523935 -0.0005432157536102674 -0.0002658086260233139 -5.621225709450867e-05 -0.00011905175387421458 -0.9624131126691321 -0.05643220899162501
4.0128571428571425 -0.8937582629764692 -0.03589746006658999 -0.00022949604370500474 -0.0006366644738410153 1.2080516667535081e-05 8.249727795956587e-06 -0.9652176258100512 -0.06222574079536134
4.013285714285714 -0.8835888442796768 -0.03200667729585626 -0.0002558750366170953 -0.00041942394334442594 3.720041841548704e-05 0.0001774048346156398 -0.9637266864167207 -0.0576645868086392
4.013714285714285 -0.8876571973074532 -0.023044362422938634 0.00010757971056451534 -0.00016931482582073214 -5.214226844324512e-05 -0.0001873392309875608 -0.9753582317946655 -0.051631101712070686
4.014142857142857 -0.8880527447450403 -0.01410382670364482 -0.00015787376247415456 -0.0003617230540946809 -0.00016109634180627838 0.00015137922766517677 -0.9719746863444928 -0.04658136012363473
4.014571428571428 -0.8856533348239547 -0.0119338281100456 -9.462754534253902e-05 -0.0005507762951479253 0.0001142399956050624 0.00016500601373982876 -0.9702111231252124 -0.052786706858275946
4.015 -0.8953446391140227 0.0005688414508433895 0.00015875890876064342 -0.0006497245801566509 -3.6951614189909366e-05 -6.614940284132597e-06 -0.965353929194953 -0.05090922834353188
4.015428571428571 -0.8910979662956667 0.01094417757152365 -3.4290173698328214e-05 -0.0002840025049839083 -0.00011333125668178024 -0.00030531377536699916 -0.9718696940853685 -0.0494299785976614
4.015857142857143 -0.8883458599726506 0.016190768536021447 -8.024992837448105e-05 -0.0001876150441836354 -0.0001871993843425549 3.1230263879342786e-05 -0.968739992719641 -0.04582632403292984
4.016285714285714 -0.8888819891623886 0.02359382320847228 -0.00037406913208037483 -0.0006502644753809001 -4.5354383856988804e-05 0.0003281018174915744 -0.9657030023010879 -0.040403394747169995
4.0167142857142855 -0.8892494262124656 0.030247852522559942 -0.00011422982257647804 -0.0006000881947941603 -0.00014743036519552138 -0.00034762113720356106 -0.9655527898138334 -0.050151984304902766
4.017142857142857 -0.8834437483088766 0.03784935341625809 -0.0003305380680001002 -0.00028507308306191233 0.0002521788723556864 1.576101037442293e-05 -0.9613698935623792 -0.03932380454741675
4.017571428571428 -0.889977680777734 0.04218586467174741 -0.0005293613395178079 -2.340267161809077e-05 1.4607123793157953e-05 0.0005462535422751864 -0.9744246046866274 -0.042923783952379516
4.018 -0.8886726864307898 0.047723491168135464 -0.0003702659967505529 -0.000336379681826304 0.00011993330693962968 -0.0002429056062780007 -0.969388443438026 -0.040793860127558555
4.018428571428571 -0.8893652823005493 0.057715995055005395 0.0002769641339292576 -0.0006186255825642203 0.00012032879108855262 -0.0003000569403961279 -0.9720076472637018 -0.0331838144298973
4.018857142857143 -0.8844313735256972 0.06872073530561065 -0.00020619459477939046 -0.00011456694354238867 -0.00021464629382403133 0.0001700346493795421 -0.9615643933113796 -0.02854923310285182
4.019285714285714 -0.8824337057865127 0.0762288342662895 -0.0002981578428093475 -0.00036707652522797866 0.0001199190009630898 2.910317536818042e-05 -0.9718714201383791 -0.028445952738806395
4.019714285714286 -0.8859911399956196 0.08524299352918548 0.00014944467932957275 -0.00023168093810954537 2.3647834534273205e-05 -0.0002073109415898952 -0.9648684469064942 -0.02983721703527304
4.020142857142857 -0.8865068206030584 0.08906810382554475 -0.0006260194022962652 -4.9654199439603845e-05 4.670360048956058e-05 0.00019022445189073462 -0.9677679111571004 -0.023997730375344768
4.0205714285714285 -0.8848008451513654 0.10285671182031254 -0.0005502707487542268 -0.0005880117830233771 0.000275770355898847 2.9959274568873387e-05 -0.9686736595935072 -0.02719268349713147
4.021 -0.8822447661819103 0.10107693190965601 -0.00031027897279182543 -0.00045253336341653013 -2.1871780502471428e-05 -3.704879551191912e-05 -0.9659357577722173 -0.02042546848462286
4.021428571428571 -0.8812295384898524 0.11341075805333518 -0.00015765099430599527 -0.0002487113854163067 -5.943227279761627e-05 -0.00019683884381111987 -0.9687110404552393 -0.01952691380406032
4.021857142857143 -0.8823728561902687 0.11623292807896046 -0.00043878737074969326 0.00010895048019217516 0.0001975856644471247 0.0004260717985760228 -0.9673336268416108 -0.016170781263790585
4.022285714285714 -0.8746237900385365 0.12161120208628287 -0.00037591416284616925 -0.0006198913693970053 5.865417656999493e-05 0.00021099564598845414 -0.9756676342830964 -0.00809816267451788
4.022714285714286 -0.879561485004594 0.1380828975167239 -0.00012835701974239953 -0.00041384492485777193 -6.229047489534365e-05 0.0002614687572457308 -0.9662088201590185 -0.01321018538674455
4.023142857142857 -0.8775585795283364 0.14165164190977528 -0.0004057340219319407 -0.0004924108801306806 7.4691262286996e-05 -0.0003100546879357374 -0.9681049400789408 -0.008158055982245735
4.023571428571429 -0.8776379234565582 0.14451892060004762 -0.00016303776690680032 -0.0002453513838687518 0.00013979864675390814 3.682503806233054e-05 -0.9640313682921897 -0.004186855174241431
4.024 -0.8707542575853194 0.15532544084986286 -0.0005378122051813136 -0.0003461206365457487 -9.848188577864151e-06 0.0001522297875725326 -0.9700463227691712 -0.007537114809776237
4.0244285714285715 -0.8751818312761109 0.15945285507045515 3.353477972347939e-05 -0.0005285280841087625 3.904144354324154e-05 0.00014847149828226797 -0.9694708219761813 -0.0015643666551346897
4.024857142857143 -0.8746286105058385 0.17162104314370183 -0.00015609326781964705 -0.00016436622936659691 -4.732747425128347e-05 -8.974170967794944e-05 -0.9666906079694791 -0.0007830197839311986
4.025285714285714 -0.8746775970329926 0.1792490406737779 -0.0005009835355622449 -0.00042680048889872735 -0.00023692773356973895 -9.314405734386463e-05 -0.965601528785813 0.0019387843624098825
4.025714285714286 -0.871122065358686 0.18663032651839653 -4.768341472985501e-05 -0.0002843338279584336 7.20284801182085e-05 -0.00015294266756255202 -0.9754991109578299 0.008010483906436359
4.026142857142857 -0.8732663736750743 0.19118953304584094 -0.00042513789525755463 9.510061933319058e-05 -0.00010643711795022502 2.1177252263040102e-05 -0.9702026864917284 0.005333635451721052
4.026571428571429 -0.8616937460283912 0.20064432248319158 -0.00042164955311727904 -0.0006086141124285108 -3.4819058701420648e-06 3.103583120160547e-05 -0.973312881725776 0.008330231766157867
4.027 -0.8632816425080212 0.20587267420751346 -0.00040437637729928065 -0.0003873299402467361 -2.4104930651908458e-05 -5.259529184079771e-05 -0.9681264231908504 0.005036672614853382
4.027428571428572 -0.8660440283488084 0.20856192648425925 -0.00024769386793800624 -0.00036925536888910484 2.519247055485646e-05 4.0424219627724866e-05 -0.967055582017229 0.015577982064456677
4.027857142857143 -0.8609153775897261 0.2161884629879009 -0.0008084315950057848 0.0002120962894507581 -9.240105190101605e-05 -0.0003096273800387541 -0.9749457372188265 0.01105008318830042
4.0282857142857145 -0.8602058623843764 0.23220826149903265 -0.0007758034510880194 -0.0003002137345884553 0.00012396210302307646 5.728800399572859e-06 -0.9715550480908655 0.02216396894404329
4.028714285714286 -0.8665629773012703 0.23020942462139085 -0.0005292562281721454 -0.0004519718851650119 0.00011097775641282187 -0.00011681017725252455 -0.9699022794685427 0.0130407723315711
4.029142857142857 -0.8585663568984505 0.24461520865381473 -0.0003235696113588697 7.307053296561544e-05 0.00015841183883246024 0.00012058678120258889 -0.9691612559454508 0.02490239510511585
4.029571428571429 -0.857434988688018 0.24614865584548065 -0.0003952996009868882 -0.00018257336589432908 0.00012401276832088828 -3.688924905075626e-06 -0.9619305148901636 0.023127229061904155
4.03 -0.8499158490892665 0.25162218259216856 -9.38482239828286e-05 4.4711132896622736e-05 -0.00014030326104745946 3.87128766761251e-05 -0.9725447668168739 0.03224322051784171
4.030428571428572 -0.8515351157578809 0.2632386525997844 -0.00012977661275626046 -8.237732142861586e-05 -0.00011466811347358709 0.00020417151317798923 -0.9693556657736412 0.029027769859843382
4.030857142857143 -0.8522960998298649 0.26723376909670793 -0.0006361882514253627 -0.00017663924136523788 1.1204292331846745e-06 -8.210321367480551e-05 -0.9706187817882389 0.022644285746694092
4.031285714285715 -0.8454398339221234 0.2768861369509659 -9.445591192087048e-05 2.334082210117217e-05 -0.00015251005611089793 -0.00021783270825980215 -0.9684102948414163 0.03494021094937332
4.031714285714286 -0.8402301925047493 0.27810908531175166 -0.0006259807862558324 -0.0002629148966765799 -2.1224242657451365e-05 -3.084615644607924e-05 -0.9670336687837185 0.026154019743442485
4.0321428571428575 -0.8371926677269721 0.2879489905860188 -0.00039698646025494255 -0.0003792098097780755 0.00022035448303961197 -5.139477101850018e-05 -0.9720025080977929 0.034580358026206175
4.032571428571429 -0.8385454335054912 0.29431898182419497 -0.00024320171006576486 -0.00010922670148175979 -8.944645126980361e-05 0.0003005111857696851 -0.9657522114586792 0.04454281484363077
4.033 -0.8384296127087908 0.3026477183586824 -0.00025644328482729686 -0.0004151372723726463 0.00022242921519669554 -5.435739196864725e-05 -0.9654248357006632 0.04368598930730812
4.033428571428572 -0.8419871279729447 0.31055201606617444 -4.596456846321828e-05 -0.00032409223042352444 0.00023550080977422563 0.0003046111592240777 -0.9639368519274293 0.03955316186314687
4.033857142857143 -0.8337891634327487 0.31740628374745933 -0.0002560901047705309 -0.0003128010353630187 -0.0003868874173822549 -4.9530033535082184e-05 -0.9644955476201006 0.04215858788313403
4.034285714285715 -0.826561279309244 0.32237914560583075 -0.0002335515744062067 -0.0001623616653012815 0.00011406519182729115 6.576324125777705e-05 -0.9681618657384254 0.04214073296892775
4.034714285714286 -0.8216142688779514 0.3334714467902578 -0.0006140110902040868 0.00013754097342884463 -0.00016784758681047472 0.00019667493957123172 -0.9649794199278187 0.05189152392456194
4.035142857142857 -0.8241612050986274 0.3377534996747341 -0.00012431906609356623 2.099271714651374e-05 4.874560651196999e-05 -0.00025392510049720545 -0.9690130756072207 0.05109188920162904
4.035571428571428 -0.8150578520676878 0.3448386993729956 -5.510956070835966e-05 0.00020595244758530432 -0.00010348397487284835 0.00027309827115850043 -0.9683455995634426 0.056167059688968096
4.036 -0.8132686623453942 0.35412968151312085 -0.0007621599202894073 -0.000494974807825351 -0.0003740358773994902 -2.3739385047927866e-05 -0.968910781951825 0.0559618662643685
4.036428571428571 -0.8216246922597585 0.3532370902745583 -0.00019078991637299687 1.3197160042645483e-05 5.7054332990559185e-05 2.7143793031276248e-05 -0.9672239728521305 0.0543509838248938
4.0368571428571425 -0.8129276006663246 0.3647958426231853 7.019605681013673e-05 -9.568507684146811e-05 0.000301143151152534 -0.00024245456792535577 -0.9716854200436371 0.05268488018200136
4.037285714285714 -0.8045052077143797 0.37332314116744447 -0.0005683492777495328 -0.00012363774631861334 1.1722216637733522e-06 7.852926230137385e-06 -0.9639913727240303 0.05919432219063234
4.037714285714285 -0.8045454050896735 0.3729267716892402 -0.0004929623246017466 0.00012585225104403108 0.0003112585604685303 0.00015915806475421426 -0.9706310003134447 0.05498626375016028
4.038142857142857 -0.7997977597884202 0.3935648723902624 -0.0002790388276107788 -0.00018396675673440784 4.422099149094426e-05 8.593031526468961e-05 -0.9648503220456841 0.06116663278302216
4.038571428571428 -0.7993558974493129 0.39139735729430186 -0.00021770884604814487 -0.00019197514011866357 -0.0002299113719941889 -3.9267425649675895e-05 -0.960152555686977 0.06539255259073931
4.039 -0.7959460179260993 0.395072181159131 -0.00030383086589123686 0.00023222383766416507 -4.055828918541997e-05 5.470744425979809e-05 -0.9594898687738486 0.06457979908821251
4.039428571428571 -0.788246611377383 0.4126175044841423 -0.000675688463372499 -0.00022317409183952305 -0.00011328389622397864 -6.4113585379830605e-06 -0.9634945622643174 0.07099267108895353
4.039857142857143 -0.7930556555188121 0.41107105720952986 -0.000278396756969033 -0.0004369483250602856 0.00014412121858209598 -0.0001445795984577493 -0.969811208306459 0.07076491149823723
4.040285714285714 -0.7871253063110004 0.4115967865706629 -0.00013480698885767192 6.839005050093692e-06 -0.0004334015143031208 5.3068142262139156e-05 -0.964790402908702 0.07552506614885901
4.0407142857142855 -0.7865451619082624 0.4252957602904537 -0.00038404235218033483 0.00023135874531297456 -0.0002315251702482322 0.00018207611225444536 -0.9611715574878341 0.07824342839503948
4.041142857142857 -0.7741926914564086 0.4299760510428344 -0.0004488152525650424 0.0005505202779185734 6.0955768656141526e-05 0.0005530604589305918 -0.969849874973914 0.08590985343651078
4.041571428571428 -0.7732739025163713 0.4371869029789325 -0.000486297410968352 4.0492705170497764e-05 -0.00018588976529241598 -0.00014626835957806786 -0.9676427740462052 0.0834865011718281
4.042 -0.7696781016213933 0.44658446111940026 -0.0005835840234331297 -0.00015361305285967292 6.430639763134909e-05 -0.0001420747658600375 -0.9643147818891116 0.08952444001857394
4.042428571428571 -0.7643742919206378 0.4505170668427953 -0.0005950680986122142 -0.0003108506299674196 -8.689028398688097e-05 5.736258808892528e-06 -0.9607197769593644 0.09249966509872208
4.042857142857143 -0.7643869854884107 0.4457954688522289 -0.00034917466845089175 0.00022292437330432625 -7.538482084388841e-06 -5.1901536656403144e-05 -0.9630565936906483 0.08811762438098175
4.043285714285714 -0.7572008577751129 0.4639116252131821 -0.0002796015642444908 -0.00013749024834397908 2.9304935866449203e-05 0.00023982678907557718 -0.9638799762501338 0.086435471063296
4.043714285714286 -0.7497614068964609 0.46604742810973804 -0.0006771600999736744 0.00011173929845555702 -1.762139134460274e-05 0.00011520154165621285 -0.9652210671310895 0.08300310830885223
4.044142857142857 -0.7508096185820515 0.47573496261512427 -0.0005000869152790359 0.0006071356146243398 -1.9847235948903253e-05 -0.00023233673483324488 -0.9617660797681918 0.09606810220173796
