!Created with skrf (http://scikit-rf.org).
# Hz S RI R 50.0 
!freq ReS11 ImS11 ReS21 ImS21 ReS12 ImS12 ReS22 ImS22
4.0 -0.829419460317768 -0.2550838928224468 8.364906093272876e-05 -0.00041542956669443496 -0.00010513986098356077 6.109500166016204e-05 -0.9621562087865793 -0.13156140872365607
4.0004285714285714 -0.8366423537351939 -0.24971785011366102 -0.00038975602878295687 -0.00044463557299618254 0.00018348849895375978 -0.00021855842362528501 -0.9704191633738952 -0.12274431258836657
4.000857142857143 -0.840364519263294 -0.23913137764909503 -0.00036708427061471314 -0.0005919938973798645 -0.00014867038791953642 0.00024338842083680546 -0.9658495006831349 -0.11686730764352773
4.001285714285714 -0.8347498278548308 -0.23326622044689307 1.3667614951344365e-05 -0.0005196227278843035 0.00019501122151743082 4.074944803480283e-05 -0.9642019167414242 -0.11683926362099185
4.001714285714286 -0.8405710950270372 -0.22415165699133066 -0.00028212884084811665 -0.000379201331097739 -0.00016959869507665273 -6.105807512087402e-05 -0.9647457809212542 -0.12192572371190766
4.002142857142857 -0.8399162306164459 -0.22406567624600607 -0.0005663273682180877 -0.0009009624994087592 6.122711739686701e-05 5.180572438723355e-05 -0.9653941909755458 -0.11194306830893627
4.002571428571429 -0.8425754933926126 -0.21327961222641711 -0.00039932124480701874 -0.0007388694666691347 -6.254888021055154e-05 -0.0001588481863575873 -0.9693228094453188 -0.10744933343454637
4.003 -0.8479459943555238 -0.20296282640122607 -5.0678481154376634e-05 -0.0008208003531809428 -0.00019962900748010355 0.0002770520414972149 -0.968582769755999 -0.1056018518057697
4.003428571428572 -0.850821110786176 -0.19947043942576287 -0.000444674364161152 -0.00036542659970383034 0.00010584328877909062 0.00015710359022723744 -0.9612722488275953 -0.09702498412565809
4.003857142857143 -0.8468752266765871 -0.19173852646956735 0.00018856965887126547 -0.0005715781521508894 2.365153967979541e-06 -1.63521339977264e-05 -0.9707687903004515 -0.11190859460108649
4.0042857142857144 -0.8568412440369241 -0.1853865313818908 -0.00041397634467174165 -0.0006839015391333015 0.0004470554184362874 0.00013214488039089764 -0.9651514882136716 -0.09910107706370906
4.004714285714286 -0.8517228551637231 -0.17617072536846617 -3.764951811100732e-05 -0.00045567770999752066 -0.00020965992787856793 0.0001468750074973519 -0.9582051632213966 -0.10858250537552692
4.005142857142857 -0.8530968998713154 -0.1672907513392894 -1.7704812232422642e-05 -0.000764011799076256 -0.00021262058994253114 -7.767693139815643e-05 -0.9668733899643955 -0.09602011220136421
4.005571428571429 -0.8537361228164908 -0.16279733515989558 -0.00020565515853621506 -0.0004389265873133949 4.9431065990471925e-05 -5.2151287615970905e-05 -0.9593531710712703 -0.09664018505898067
4.006 -0.8577436712088347 -0.15942054964265762 -0.00033105983321344586 -0.0003227786202034719 0.00020947624480730878 -0.00026858205152950214 -0.9700287839212687 -0.09459132948979598
4.006428571428572 -0.8585208608703372 -0.1542341128757508 -0.00031659325077886566 -0.00027346441194388684 1.9040553185734627e-05 -1.7097575385746548e-05 -0.9691827644029434 -0.09198355225247445
4.006857142857143 -0.8620381113801922 -0.14236473334814448 -0.00023633128590231126 -0.0007719419972747836 0.00014999637302918697 -0.00033451571248438596 -0.9643162775085415 -0.08670412981657874
4.007285714285715 -0.8648656014172005 -0.13558708715231535 -0.00019672748372139115 -6.831271412032366e-05 -0.00014846819733315 -8.601612555173002e-05 -0.9691973132700782 -0.07990344794877645
4.007714285714286 -0.8624295642471705 -0.13010877273626734 -0.0003228750002032533 -0.0005737929423449595 0.00029845730293195775 -7.5652811815179e-05 -0.9624151007398081 -0.08348946631407073
4.0081428571428575 -0.8636120010667007 -0.12713668020824972 -0.00024947045821014524 -0.0006252214886831952 0.00013084048941102043 5.4249536777205646e-05 -0.9681663049693838 -0.0867327211859078
4.008571428571429 -0.8669470522267407 -0.11347498771614872 -0.00019429250453072063 0.00026646741395284303 -0.00010026472262075875 5.1771522423158264e-05 -0.9647609883089925 -0.0801417091388888
4.009 -0.8666555393919994 -0.10857676313753158 -0.0004002911763582386 -0.0004935672192666766 0.00037462486227941844 -0.00019863171751550703 -0.9737848679566279 -0.08492406050520396
4.009428571428572 -0.8646022951324036 -0.10417378042952918 -0.000482937583278838 -0.00021706346834900257 -0.00011319235156176608 0.00011468495005521708 -0.9755982790626092 -0.07537757153477923
4.009857142857143 -0.8679045008125924 -0.09385262053479666 -0.000695458827870775 -0.0006768643771063321 -5.80006726064849e-05 8.242694355402224e-05 -0.9666322530038737 -0.06885707875426407
4.010285714285715 -0.8695002359324012 -0.08569154607454896 -0.0007512492858540285 -0.0008407327590489188 -6.092639507014312e-05 -0.0001448741575061194 -0.9663758848479805 -0.07245493575482426
4.010714285714286 -0.8689927637631043 -0.08115084717411426 -0.0004784660436109114 -8.137497802797494e-05 -0.0001058388695202531 -0.0001487087168055008 -0.9683647614776604 -0.07234638144510029
4.011142857142858 -0.8651941686782705 -0.07573906370189167 -0.0003305229557695034 -1.5016669157624825e-05 -0.0003039688146582181 -0.00010170330997617984 -0.9689273678501458 -0.06586538856960598
4.011571428571429 -0.8679560034828054 -0.06451624283629437 -0.0005247191447201435 -0.000674543764227047 0.00013738886454214434 -6.918357143735427e-05 -0.9691233550769481 -0.0673178360181898
4.012 -0.8697804807555751 -0.05966296005950924 -0.0006322224353735495 -0.0006504599972158444 0.00024172181851933128 -0.00023799674694871775 -0.9741967024214955 -0.06517405595044794
4.012428571428571 -0.869940615875698 -0.0511876533141849 -0.0001546897112808914 -0.00027183921207293236 0.00010454465164805673 0.00020299448497842584 -0.9621750853907818 -0.055541393314096105
4.0128571428571425 -0.8766667529888299 -0.04311687458743025 -0.0004249423599333796 -4.915552770437888e-05 -0.0003412119254210528 0.00010644499133973627 -0.9643204449937318 -0.06439203266222979
4.013285714285714 -0.8661557722533005 -0.037500738926836114 -0.0005189125930014022 -0.00021523050638602937 -0.00012954479666025813 1.7140657307651337e-05 -0.962375636005381 -0.05897632214556361
4.013714285714285 -0.8680749570276269 -0.029172097564221598 -0.00041837071330962935 -0.0001072541119199502 0.00015240693549100655 0.00011441367854484484 -0.9760867636278246 -0.051618715189623805
4.014142857142857 -0.868272694458801 -0.020564800818772242 -0.0008053022058169779 -0.0003843055125025841 -8.580695894482738e-05 -0.0002719559951794521 -0.9707085866757327 -0.047194070984896544
4.014571428571428 -0.8690714966383843 -0.0171821378800025 -0.000325334350493652 -0.00017179774664058875 -1.2430635830992608e-05 6.092981355061431e-05 -0.9706910206849811 -0.0522666915387146
4.015 -0.8765002078302352 -0.006616327060652257 -0.0006525391204099811 -0.0002377950568917445 -5.331569036729746e-05 0.00026462317061384436 -0.9657013973956943 -0.05119558096739989
4.015428571428571 -0.871946277622753 0.001971407797706003 -0.000129552582586194 -0.0004742527686839531 -0.00017003242909828563 -5.996799310345823e-05 -0.9734026868837963 -0.04843423551743008
4.015857142857143 -0.8714243151304212 0.010001042884375286 -0.00032595662995876145 -0.0006275226939520069 -0.00022393732179001006 -9.492999900055322e-05 -0.9708695864038709 -0.0476668062558484
4.016285714285714 -0.8698272800883357 0.014542166789715852 -0.0009479081770441341 -0.0007281440610513801 9.171557585505509e-05 1.0888914061606387e-05 -0.9674342287718445 -0.04336946282036224
4.0167142857142855 -0.8700501229417051 0.02157313591127094 -0.0004041709708005478 -0.00011579777086811246 0.0002990286240056347 0.00011360159010548981 -0.9655984631625972 -0.04915167110718371
4.017142857142857 -0.8674535126969484 0.030529121330765158 -0.0009984578972570164 -0.00021603259948109617 2.2586730064618623e-05 -8.157318273189759e-05 -0.9617216554493884 -0.04075827601900041
4.017571428571428 -0.8727909706688258 0.033993283780589176 -0.0007295030958391974 -0.0002498567634424959 7.704441451246179e-05 2.729152949712081e-06 -0.972806442009107 -0.04229710518015853
4.018 -0.8686678889872161 0.041753496563878355 -0.00034962736626328064 -3.0014791267460416e-05 -9.393496871686878e-05 -0.00021363810296609896 -0.9672601038283252 -0.039733875988574835
4.018428571428571 -0.8720048849584039 0.05082563977678919 -0.000442778146538033 -0.0001741053860254467 0.0003236948323292732 0.0003187643036235684 -0.9711718452890594 -0.03422595050855604
4.018857142857143 -0.8649366262797556 0.060935922407155334 -0.0003947528732711615 -0.00047289485953630565 -0.00017828293537516655 0.0002019194297449291 -0.961005153211218 -0.026087833899126833
4.019285714285714 -0.8650984243714273 0.06866460500119631 -0.0010213110218950084 -0.00038096760708841075 6.680678858899708e-05 0.00014270848878398688 -0.9712021295406963 -0.02777178677492723
4.019714285714286 -0.8698880175419477 0.07680233645442196 -0.000640788343176823 2.9329185970329278e-05 0.00025480506902516355 -0.00021842466623010325 -0.9644357226375876 -0.02967344564822279
4.020142857142857 -0.8681236391438137 0.08066846875108186 -0.0006926418865565345 2.7861574540111087e-05 1.868799962528871e-05 -0.00020628512545294375 -0.9667381160028111 -0.026708122661551974
4.0205714285714285 -0.8673156283276717 0.09300396946353126 -0.0006658699425584178 -1.9065384988641025e-05 8.81695121951992e-05 0.00012619983602626467 -0.9689301197243558 -0.026308861528650772
4.021 -0.8649574192704976 0.09405939692010672 -0.0007476552075801361 -3.5526602272704146e-05 -1.0877566101147366e-05 9.632856413447027e-06 -0.96649432588146 -0.02017510375144454
4.021428571428571 -0.8636658981695929 0.10517290738120597 -0.00012535890642653247 -0.00011480731401473931 2.8881283320606095e-05 0.00017612524838021165 -0.9696290224493693 -0.020077426729857715
4.021857142857143 -0.8642982123291728 0.10938019597790437 -0.0009298092082942099 -0.0005119170675968366 -6.047906404428157e-05 -0.0002826517471796379 -0.964658101066829 -0.01512562928123435
4.022285714285714 -0.8568101372840023 0.11457437674423203 -0.0007469903922743683 -0.00027069067204906275 -0.00024061722896213762 2.4324621199047333e-05 -0.9752226469696824 -0.010227523112510736
4.022714285714286 -0.8628367327563251 0.12979539293829487 -0.0004075160695520238 -2.980009497679769e-05 0.00024482910381949446 -0.00010220380730379151 -0.9651677034390509 -0.013782369413564137
4.023142857142857 -0.8585300699447777 0.13265234402012532 -0.0007849843345831122 0.0006652733252789976 0.0002500784302810706 -7.599758767106426e-05 -0.968567158681557 -0.008318533197715354
4.023571428571429 -0.8608056711289052 0.13454181944935822 -0.0007743626022823611 -0.00018192572520867706 1.1106391781324939e-05 0.00019650935688970048 -0.9615452025252373 -0.0026747863316212224
4.024 -0.8565617447419029 0.14601276723620976 -0.0003805694767623736 -0.00023180425503351233 0.0001596987471118799 0.00015719841569708547 -0.9694924048424138 -0.007610342847596019
4.0244285714285715 -0.858773702271176 0.1501883735742903 -0.0005299792205595092 0.00038909549290220804 -0.00017495541483519118 -7.157036581590618e-05 -0.9698760672439976 -0.0028143399540589737
4.024857142857143 -0.8580406351806102 0.1611125289414463 -0.0007059508669177444 0.00031951139008887193 -1.224378116185164e-05 -5.900975576942773e-05 -0.9668268587492483 -0.0011427949723216877
4.025285714285714 -0.8587939920964783 0.17003075241697488 -0.0006339002092902538 -7.651004372160011e-05 0.00012412813595175296 -0.0002862342403422612 -0.9658573302920179 0.0028137599800164103
4.025714285714286 -0.8542301691732399 0.1759630350271218 -0.0007825605714090432 0.000120642531299958 -0.00036803358523622393 -5.1342542162056044e-05 -0.9744644308219484 0.00767235866918427
4.026142857142857 -0.8574763807960765 0.18278642306741735 -0.0009942458994301978 -0.0002041307900245961 -4.8265909094777924e-05 7.700251660249066e-05 -0.9698631944960768 0.0037649987242877633
4.026571428571429 -0.8436785828275282 0.19109709568672995 -0.0006879613088585675 -0.0003065345688703227 -5.545607831778236e-05 9.106973770432023e-05 -0.9737866401234285 0.007947850769785639
4.027 -0.8461406596335332 0.1967892213886121 -0.0004798945671993088 0.00013172110696441552 7.735322755501818e-05 0.00018107277519900812 -0.9689092166501881 0.0029155389313531843
4.027428571428572 -0.8504725173475691 0.19895324301260048 -0.000731129257127777 -0.00012583588296669515 -6.81835159569159e-05 -0.00017338002695457824 -0.9669554588362299 0.015645460859692022
4.027857142857143 -0.8456529748885923 0.20708823530674494 -0.0005176286930779352 6.390538914098896e-06 7.351202818209813e-05 0.00015994580380068868 -0.9756719448938901 0.009909703476605206
4.0282857142857145 -0.8446348877404204 0.2204519611218903 -0.0005895591101439172 0.00026615980854396943 -0.00012838840346242447 -0.00011480882069955992 -0.9724689332459365 0.022061908517574787
4.028714285714286 -0.848518860659666 0.21959633104523132 -0.001102148779753029 -0.00020545632163718167 -3.605850282067769e-05 0.00026195346626031675 -0.9699960341484994 0.010854401619389931
4.029142857142857 -0.8417406882401163 0.23353645501278025 -0.0004930297226881278 0.00019764259603787416 -1.6714550904367402e-05 2.2077448085318662e-05 -0.9695988955668714 0.02279409650284558
4.029571428571429 -0.8424153750620155 0.2336551038030196 -0.0005487902862840116 0.00016495808948806042 0.00013236952290617 -0.00015200324345370788 -0.964200047661935 0.023160395219345604
4.03 -0.8362325744309769 0.24137683577010757 -0.0004995584680279209 -0.00014960264100516072 0.00010657612948717823 8.125803981006846e-05 -0.972627754803165 0.03300130864306595
4.030428571428572 -0.8337687020660743 0.25333415773934465 -0.00038267047919618766 -0.00020223258380257873 9.576085762969661e-05 0.00013938172070477407 -0.9705240121090479 0.028069004396665105
4.030857142857143 -0.8359101758045868 0.2548088774603044 -0.00019445073467412065 0.0001307096313691828 -0.00013477008943974225 0.00018329869788133552 -0.9719570443833185 0.022623594580866716
4.031285714285715 -0.8295177428673522 0.26584571582630434 -0.0007072773221757414 0.00012796372883753994 -0.00018044589022679899 3.174471470158285e-05 -0.9687737597425418 0.032891977809523326
4.031714285714286 -0.8255489202080024 0.2658302333847106 -0.0007441293959226744 0.0004759502392893161 0.00026114015484576364 -5.031154526993354e-05 -0.9637450176960066 0.024870908094245543
4.0321428571428575 -0.8232900693652901 0.2780707439680548 -0.0007229159024092064 8.40194015781193e-05 -0.00017010175557614105 -0.00026168585074886084 -0.9727687660875716 0.03763690295474589
4.032571428571429 -0.8245248198864655 0.28303273758008424 -0.0003753282323601608 0.00027952059687372824 -4.013485634372761e-05 0.0002226298974513565 -0.9656317449041049 0.041848386613767816
4.033 -0.823420184855905 0.2900125973148403 -0.00048667328711792787 0.00025684717249892496 0.00021325942297055115 6.506339600610627e-07 -0.9654068383067332 0.04491391868489911
4.033428571428572 -0.826487122872237 0.2988860311281306 -0.0006358657459716289 1.5016969004447616e-05 -1.3972929376593739e-05 0.00034585163646356793 -0.9637115792276455 0.03865565959635991
4.033857142857143 -0.8186684931903165 0.30439966859433787 -0.00028603296542066797 0.0001298492224662031 5.8279927402975035e-05 0.00022334911657847457 -0.963036159763205 0.042730988759501626
4.034285714285715 -0.8119449299526587 0.3098349469091544 -0.00023518858200977823 -4.26275989361842e-05 2.4384390761047498e-05 0.0001233147166588787 -0.9664124656608795 0.0422891645504246
4.034714285714286 -0.8061436214963568 0.3227422131408803 -0.0007176119016973088 -5.963395527874679e-05 -0.00021670930326720737 1.3904729289573253e-05 -0.9655679130192577 0.05172400134612589
4.035142857142857 -0.807726388267271 0.32628014304274394 -0.0007350683364666844 -0.00012188940547452169 0.00018060941438991502 -0.00029335419409509466 -0.9682509439482493 0.051313576319531984
4.035571428571428 -0.8009778994021983 0.33205383529076454 -0.0006396149145870407 0.000358276026797844 -0.00015957919032530686 -9.554797058655099e-05 -0.9673494862726107 0.05697410156837151
4.036 -0.7963660677713919 0.34245483837015905 -0.00046307342039715794 0.00027834841370650225 -0.00017963183444273526 -0.00010279867527167857 -0.9687179657652418 0.05425861202006679
4.036428571428571 -0.805317295071318 0.34007399451569126 -0.0006715857184932721 0.0003746220337492972 6.362582722821186e-05 -0.00021607031860955707 -0.9679578421894095 0.05232579334073768
4.0368571428571425 -0.7993552474208184 0.3516372365532279 -0.0003877621568009676 -0.00024165592267118277 5.3777820958985434e-05 0.00039067214743437043 -0.9704955630349594 0.05224744111059137
4.037285714285714 -0.7911418056552463 0.3613246661038058 -0.000416523009277586 0.0006898706000257008 4.349210493883919e-05 5.936023062281458e-05 -0.9639057940748452 0.05886779904150311
4.037714285714285 -0.7897648176388253 0.36063262467591317 -0.00046844187620573237 0.0007637535608015354 0.00013693330060763297 0.0002483672439474519 -0.9696375536820745 0.05548533864894301
4.038142857142857 -0.7860097177099261 0.3795080095364455 -0.0006556410230950603 0.0003910837837409563 5.342845314527628e-05 8.724609518550994e-05 -0.9645841693845365 0.06093903724732427
4.038571428571428 -0.7866652409049375 0.37828101106661194 -0.0003667468904158633 0.0003376035588180928 -5.827066005803042e-05 -0.00014566009512131887 -0.9608811090664584 0.06684993721653651
4.039 -0.78202788724894 0.3827251611588629 -0.0004521557871264929 0.0004408138037700749 6.19506660308463e-05 -4.097939380644461e-05 -0.9605790678087438 0.06450220524968985
4.039428571428571 -0.7751249296082469 0.39939953125835354 -0.000636457133277153 0.0003599400860346037 0.00027486215548951337 -0.0002536743832971169 -0.9640947217611436 0.06720439169713768
4.039857142857143 -0.777855940057584 0.3968775919493101 -0.00028454645408113835 0.0007552374026564349 -0.0001422534595575515 -0.00022231225753179521 -0.9709822262577488 0.06740808488454231
4.040285714285714 -0.7734883772582902 0.3988615079053457 -0.000439773402383399 0.00028285425528908314 6.291902599675234e-05 0.0002002223258980642 -0.9630158637206638 0.0734547651997288
4.0407142857142855 -0.773455905330147 0.4114856397216975 9.497929651494682e-05 -2.0123396612020234e-05 -0.00016699590312790045 -7.789504878083804e-05 -0.9579204755717486 0.07636422370749024
4.041142857142857 -0.7603447261927248 0.41696622674565986 -0.0003451580927355013 0.0004179980998630113 7.876679456269839e-05 -0.00033389962373507544 -0.9695101280443952 0.08405185569968084
4.041571428571428 -0.7607196016870478 0.42216298861756674 -0.00047989891004388365 4.162666429950481e-05 0.0003417121213334579 0.00017769306525988878 -0.9656601708325238 0.08419557315452464
4.042 -0.7562292476097358 0.43113838237233343 -0.0004351704999826463 0.00013744687037758248 3.924207438299509e-05 -0.00013859800771935004 -0.9627262283685422 0.0885748691431711
4.042428571428571 -0.7506020514306873 0.4369362676926973 -0.0005128377366804552 0.00024850176435289016 -1.8298948782787805e-05 -7.322208084568717e-05 -0.9591767363913614 0.0911175712813539
4.042857142857143 -0.7505299688546988 0.43224454651429595 -0.0006019846265882977 0.0003354725540365806 0.00019131818658215934 -2.747258874265206e-05 -0.963923683496005 0.08646530360422973
4.043285714285714 -0.7450273992391132 0.44964143114664235 -9.640483189801486e-05 0.0003087196708335244 0.00023296023262071102 -0.0002619912604347489 -0.9650430173141757 0.08425374739940761
4.043714285714286 -0.7392945592575205 0.4524527259703005 -0.0002232062630872588 0.0003420982561425557 -0.0002378548395162796 -0.00014236579851864602 -0.9664808798789443 0.08186313503170542
4.044142857142857 -0.7375588149321118 0.46110307711933773 -0.00019373463481537348 0.0005006955993272171 0.0001917603685591892 0.0002926444083503834 -0.9620444653653857 0.09633524068889447
