!Created with skrf (http://scikit-rf.org).
# Hz S RI R 50.0 
!freq ReS11 ImS11 ReS21 ImS21 ReS12 ImS12 ReS22 ImS22
4.0 -0.8314412126750861 -0.25679400535622415 0.0004133230567460377 -0.0005330746801728781 0.0001849146036658014 6.971305673369346e-05 -0.9629298696658704 -0.1297470214967282
4.0004285714285714 -0.8396381086331164 -0.24887712368719864 -0.0006117221488427661 -0.0003778624997168324 5.254166846288835e-06 9.413064566648688e-05 -0.969925037704233 -0.12356918777081125
4.000857142857143 -0.8432551309695028 -0.23951065835904864 -0.00023987244560116878 -3.765283395748815e-05 0.00014306040316130236 -9.266011324879161e-05 -0.966452784191808 -0.11596110726563365
4.001285714285714 -0.8384833358624969 -0.2327505208137622 -0.0004953607466804012 -0.0003007783570384822 -0.0001446093293458062 -5.221148801144474e-05 -0.9647531250098468 -0.1157183779567716
4.001714285714286 -0.844140644398129 -0.2267652507513965 2.8142744082904205e-05 -0.0006567273284086916 -4.4575239480730276e-05 4.0053137717287434e-05 -0.9671420113609056 -0.12300440226077745
4.002142857142857 -0.8419985540886942 -0.22553661704247044 -0.00013407468346221692 -0.0006897857598244469 -1.9546321451413802e-05 -0.00034790121473254025 -0.9640427126458915 -0.11132737558977723
4.002571428571429 -0.844932543390747 -0.21524354796272394 -0.00018675926728935408 -0.000441077149604385 3.3579975204249587e-05 -9.120317857308395e-05 -0.9707892328575343 -0.10580499703926484
4.003 -0.8499083518349687 -0.20381347316877574 -0.00030239314816249456 -3.519227950734767e-05 0.00018787440652860888 -0.0001881170177941733 -0.9693540442201253 -0.10504923697217021
4.003428571428572 -0.8515609991326453 -0.20177625457152346 -1.5504168740512502e-05 -0.0004901229178222367 -6.849312659900896e-05 -4.749961552471125e-05 -0.9619528068783093 -0.10075746412814589
4.003857142857143 -0.8486383136367028 -0.19343448142464695 -0.0002103526757774618 -0.0006538334742845704 0.00019446920698702565 -5.948683850197635e-05 -0.9698245681565617 -0.11098232282343592
4.0042857142857144 -0.8587882731639309 -0.1855671758458675 -6.332922328846656e-05 -0.0009083297609651232 -0.00010931660431902475 -0.0005155851966715143 -0.9671173646574013 -0.0998759893862102
4.004714285714286 -0.8545617350379664 -0.1775662770864252 -0.00011876045695355963 -0.000778258359675579 -0.00023090582895552288 -0.0001860361587296759 -0.9594879209680203 -0.10874783662237163
4.005142857142857 -0.8569191599168564 -0.1687988581958182 -0.000177993558782758 -0.00046781843807621983 6.491472991642516e-05 2.8916685493924837e-05 -0.9683733574032467 -0.0967907169273124
4.005571428571429 -0.8587190561455089 -0.16348757308073109 -0.0003104794756453448 -0.000518718895250826 -0.00010696770456359092 1.2647733434287229e-05 -0.960220308453157 -0.09480405969302605
4.006 -0.8613679615939623 -0.15919236174271034 -0.00018601895656908984 -0.000522505296247439 -0.00041660270852321066 -0.00018587726489542467 -0.9706213946248584 -0.09367948056822681
4.006428571428572 -0.859566792996441 -0.15487466488229604 -0.0002546310852478702 -0.0005700100318382136 0.00012725932531553887 0.0002638253715771203 -0.9672115708153481 -0.09325466490684661
4.006857142857143 -0.8650210037662529 -0.14213737766578183 -0.00043136125305070203 -0.0006711962068041887 -0.0001244223788923257 9.477885924746222e-05 -0.9652083789453457 -0.08730099577925249
4.007285714285715 -0.8681229582497164 -0.13478401049119906 -0.000441973379162907 -0.00011302507358419394 -0.00016578067554438402 -9.285615001410145e-05 -0.9699776156128792 -0.08012403348282217
4.007714285714286 -0.8645693870570991 -0.1301945143532196 -0.00045000426491024765 -0.0001492843382838022 5.039665538797403e-05 0.00016878337193037006 -0.9640309345397217 -0.08131196162096199
4.0081428571428575 -0.8654352556846879 -0.12691189567376907 -0.0006873776093111482 -0.00012902894131642127 -6.480786670541511e-05 -0.00013961370027867705 -0.9675501694225845 -0.08803410381600922
4.008571428571429 -0.8693067026608851 -0.11324435334723894 -0.0004116184653441719 -0.00017308139913532885 -0.00017853003115671774 -0.00017642579812803636 -0.9632769545419216 -0.07738741840194974
4.009 -0.8707228560518355 -0.10968563948644817 -0.0002441190627021323 -0.00021016729587307884 -7.57875503215264e-05 0.00023245248577397892 -0.9744916466265741 -0.08537104557914457
4.009428571428572 -0.8665527104306273 -0.10588082436660873 -0.0001336762949397131 -0.0004098120094066838 -5.816682015374556e-05 -0.00023348402379041983 -0.9773308714461975 -0.07508137989699615
4.009857142857143 -0.8703348406653459 -0.09346831743359549 -0.0006712890062029699 9.361578757920173e-05 -8.136586293975008e-05 4.099154225262949e-05 -0.9681404662624888 -0.07086427725690737
4.010285714285715 -0.8723840804949475 -0.08782166191781496 -0.0005126145781760985 -0.0007826339873203343 2.7520874269420965e-05 -0.00012549367119575868 -0.9643258595715828 -0.07434123422499803
4.010714285714286 -0.8723882616088267 -0.08102714602342186 -0.0006046043966756458 -0.000256566433547687 0.00030734151184978465 0.00013077284208127017 -0.9681595108534343 -0.07322586668922632
4.011142857142858 -0.8670441835764225 -0.07679830263250303 -0.0004090373432901165 -0.0003697587919248819 -4.6317313461430746e-05 -4.723709354106586e-05 -0.9715500968360525 -0.06572706303821431
4.011571428571429 -0.8684317863150058 -0.06302076592838426 -0.0003374425992408227 1.85534106097936e-05 0.0001563876499567018 5.643743165992345e-05 -0.971209504209075 -0.06787685187060695
4.012 -0.8732422367971452 -0.05978287233298614 -0.0001578952194581963 -0.0001790051867312104 1.68651203876275e-06 2.7193176262862398e-05 -0.9743036404896787 -0.06391587294465506
4.012428571428571 -0.8714044764273717 -0.05200899069999457 -0.00041093481132268574 -0.00042905627160180906 0.0001387193909840332 9.573292305637822e-05 -0.9624200221040061 -0.05606131316660328
4.0128571428571425 -0.8774917251854031 -0.041396354064929725 -0.00034322011008338944 -0.00040609189874789525 0.00010824437177614247 0.00015366906468454317 -0.9656192040521916 -0.06435586816562822
4.013285714285714 -0.8675640233238565 -0.03939814167100915 -0.0005577268131875216 -0.00041204799642231946 3.0374448879708517e-05 -0.0002446658698165541 -0.9637561602098503 -0.05946097384767763
4.013714285714285 -0.8713159591556325 -0.028445449835098204 -0.0003016574458281216 -0.00026061978664234314 -0.00015504366373824476 4.045636214542854e-05 -0.976325616579637 -0.052608097149320965
4.014142857142857 -0.8732597226871192 -0.021122913336305955 -0.0005430678960102879 -0.0006185656108288344 -0.00015293811544041494 0.00012370295778227203 -0.9720243249271255 -0.0473944969974701
4.014571428571428 -0.8706870013147731 -0.018999367917076654 -0.000309956630868584 -0.00020939331133610804 -0.0002722245249161171 0.0003496263460190168 -0.9685306010876303 -0.05373072338342609
4.015 -0.8799479387678464 -0.00593047000907288 -0.0007999473457065942 -0.0005130628433826207 -7.333916919016326e-05 0.0002595017506717603 -0.9643262859975056 -0.05015772034268019
4.015428571428571 -0.8759279546307599 0.0029081762275301663 -0.00020143725533993472 -0.000363937466390379 0.00011024545557311844 -0.00021191749194649038 -0.9711268529390314 -0.05072793578372331
4.015857142857143 -0.8741095650326359 0.008930375875168631 -0.0003857318077287295 -0.00025982309478051114 0.0001317269665615472 0.00016217098028073126 -0.9695254450562442 -0.046627917591465486
4.016285714285714 -0.8743753070252416 0.016825679645162236 -0.0007495247171519139 -0.00040782281638636244 9.395319019137295e-05 -0.0004429558763125732 -0.9645219150922595 -0.04307887604881396
4.0167142857142855 -0.8740457303571396 0.022277587452512886 -0.0002642291998838095 -0.0003440437098062869 0.0001841127441822118 3.055197934495761e-05 -0.9639272374290038 -0.04817057735801224
4.017142857142857 -0.8705372691123241 0.02996048775159278 -0.00057005417607774 -0.00023481887780047752 -0.00010621633658205315 0.00015884679275097479 -0.9609834944387016 -0.04054327977516163
4.017571428571428 -0.8764910474732086 0.0351986521349372 -0.00013116139713893028 -0.000713725390832018 -0.00018002529463241663 -0.00011851405456234037 -0.9750537947883711 -0.04138834134197923
4.018 -0.8712792264697738 0.04115474612860726 -0.000608236710687267 -0.00020582569517821117 6.064745959685607e-05 -7.929174063608589e-05 -0.9690364787947153 -0.03995894750907676
4.018428571428571 -0.876502656372278 0.049379760490929285 -0.0008566444248427232 -0.000174111321994226 0.0002524317782997562 -0.00032379923934164405 -0.9735582503756112 -0.03326161565594399
4.018857142857143 -0.8689797468060758 0.05835617112651535 -0.0003651885579047557 -0.00011917948054176509 -4.5922666065825634e-05 0.0001461696958327075 -0.9625660885464054 -0.027076297429484922
4.019285714285714 -0.8671016877082738 0.07144116681070872 -0.0002877018092505974 -0.00027689036166240913 4.254048292139819e-05 -0.000253556414746923 -0.9707608695399602 -0.028288399648038504
4.019714285714286 -0.8728051054722002 0.07429762527323237 -0.00022547571830909487 -0.00013154407223644226 7.96356319639934e-05 3.5527703628976944e-06 -0.9656656443036121 -0.02828818040365012
4.020142857142857 -0.8729094701097192 0.08067327527511643 -0.0005014369825505491 -0.0005093325488709476 0.0002911194073234965 8.02525463100512e-05 -0.9694023593985301 -0.022830401452856298
4.0205714285714285 -0.8704782231217516 0.09599846941488951 -0.0006835071288762781 -0.0005005585324785515 -0.0001085647910122174 0.00011197906967470892 -0.9694665442977956 -0.027313824211801542
4.021 -0.8662674175808108 0.09485609933992746 -0.0002677683154068684 -0.00019022023774334002 -0.0004984294593425974 -3.402543073236297e-05 -0.9675932835100387 -0.021186081773224643
4.021428571428571 -0.866691445972369 0.10517230713024989 -0.0004191847987973605 0.0002301765054895194 -0.0001646713378547177 -0.00016814475648118125 -0.9694468223846701 -0.020300073697532426
4.021857142857143 -0.8685827904516619 0.10961655330953113 -0.0004963992539311937 -0.0003830314657340213 -8.95676614344159e-05 -7.007674138663292e-05 -0.9656671523118697 -0.015923253441867676
4.022285714285714 -0.8601462563715575 0.11267124166421048 -0.00045526303211144227 0.00011323071330039257 0.00037302478239324135 -0.00017536008023667557 -0.9772913100307644 -0.01009848551078574
4.022714285714286 -0.8640666304630817 0.12846729933198697 -0.0006282452710596821 -0.00045965572413690615 6.708390557217199e-05 -9.246546516346144e-05 -0.965575301079934 -0.015689055838862393
4.023142857142857 -0.861119188113251 0.13365700788940196 -0.0006449932037376501 0.00020196292224367458 -0.00021995502062255215 0.00015549669224828043 -0.9666247111241554 -0.007069741238055134
4.023571428571429 -0.8621968586284184 0.13517227090029854 -0.00025267315382526657 0.00026247319347067215 -7.065413076199495e-05 0.00018676823050203364 -0.9637866855580903 -0.005411862682548767
4.024 -0.8582240796053591 0.14619718191191483 -9.632129007126943e-05 -3.925571714785648e-05 1.9256084307528298e-05 0.00011085329325720387 -0.9699551643751123 -0.008936554449093866
4.0244285714285715 -0.8597571172768755 0.15207741268510483 -0.000335648893148555 -0.00038792112984398507 -5.8938452937639865e-06 -0.00026857710058106516 -0.9714278123206594 -0.002141158491166723
4.024857142857143 -0.8611519514285061 0.16185425508232323 -0.00046561381729962205 -0.000302540181520599 0.0004918066195541988 -6.367638253105573e-06 -0.9678258669172892 -0.0027089046240221944
4.025285714285714 -0.8612852103171902 0.16905672079208495 -0.000465802886111993 9.001269584632773e-05 1.886554108736003e-05 -5.642524973088329e-05 -0.9645494223416241 0.003748277021925372
4.025714285714286 -0.8590898404220808 0.17687487802546803 -0.0006388284675816825 -7.948440124583097e-05 -0.00022083549140902532 0.000297963478255164 -0.9750758631102819 0.008168041328051623
4.026142857142857 -0.859387743356161 0.1793703427282158 -0.00037958668134016875 -0.00011513785632713028 4.624389977198182e-05 -2.3808985473396297e-05 -0.9707393562910981 0.0024234331289710717
4.026571428571429 -0.8471582044465382 0.19051490065586496 -0.000391094155499383 -0.00011216774077720927 -0.00024773223278107737 8.840725702588828e-05 -0.9734471735856396 0.008619229391309043
4.027 -0.8510921786420373 0.19789161435322322 -0.000478700647706103 8.713867293430183e-05 -0.00010460599287102766 9.467356539903067e-05 -0.9691624261814147 0.004228791095970872
4.027428571428572 -0.8541016115826684 0.19839563847719013 -0.0006061982234985204 -0.00017392225390376113 0.00024827371470666475 0.0001422649220475909 -0.9652085153658734 0.016447631241822778
4.027857142857143 -0.8474047851781986 0.20480679129774784 -0.00033047932094222115 -4.608325003960649e-06 9.197663334779237e-05 -0.00012152959854968812 -0.975224093227475 0.011157655200570982
4.0282857142857145 -0.8463660298403726 0.22203403264901017 -0.00054282786642886 -2.6294567863714028e-05 0.0002239808680393118 0.00012542558091983315 -0.9708869122660864 0.021126326600261716
4.028714285714286 -0.8505451697019263 0.22096221638847077 -0.0006501928012722604 0.0001926272323285623 5.581058752983084e-05 3.3355206876003214e-05 -0.9714225171496353 0.012529023208824897
4.029142857142857 -0.845994735290651 0.23325433217422642 -0.0006083041112469703 -0.00035255779876775396 0.00017770323150791535 -2.1521307647542576e-05 -0.969211463458712 0.023631378597845806
4.029571428571429 -0.8446570497671411 0.23580212987005908 -0.00017897239218642248 -4.6751740409940065e-05 -3.0534779362862816e-05 4.626022311255124e-05 -0.9639860210488966 0.020848948486539797
4.03 -0.8375877008824388 0.24364281561398196 -0.0004493680604761721 4.3590104581068016e-05 6.719315972732623e-05 -0.00012888566383408048 -0.9727161850832013 0.03266756883175498
4.030428571428572 -0.8376707691162943 0.2531578602229056 -0.0004423709305987512 0.0003458830582610184 1.4863799627511324e-05 0.00019148468189741235 -0.9688612244786838 0.028665971639896353
4.030857142857143 -0.8400660628865249 0.25613218654388537 -0.0006502665596117836 -7.71346031671417e-05 0.0001583996067161752 -0.00021034846960496853 -0.973098983786796 0.022301297367687576
4.031285714285715 -0.8344420649834748 0.26452689643295746 -0.0006226481109582152 0.00022223620098375704 -0.00016120862825791545 8.486398712955438e-05 -0.9692617285701218 0.03435181912440648
4.031714285714286 -0.8282232545655471 0.2677908721960299 -0.0006171578879094429 0.0005513489032771175 0.0001254253420940545 9.216837223220383e-05 -0.9655331024207289 0.02490354186127609
4.0321428571428575 -0.824352436070759 0.27812571723786744 -0.000616622092893029 -9.245550096629709e-05 4.3917867114361196e-05 0.00021671661055488697 -0.9746454226557357 0.03620987040367627
4.032571428571429 -0.8258018043019228 0.28467181597177293 -0.0002270394866893955 0.00015674171759411703 -4.120282578613719e-05 4.678196450325276e-05 -0.9662154706395994 0.0460375512376074
4.033 -0.8254294676484901 0.29208911161333695 -0.00016373191921756174 -3.328517102048164e-05 -0.0001479868416681713 1.634258338077963e-06 -0.9657045000521355 0.04602654940080582
4.033428571428572 -0.8279822358956559 0.2996599433715859 -0.000436588139809937 0.00012674509377001995 -0.00011825386188601444 0.0002220374287979029 -0.963376452068987 0.04086456346617083
4.033857142857143 -0.8214995476117626 0.30627246125713425 -0.0007095175447615226 0.00032059301853183675 -0.0002066465906893657 -0.000142304238157441 -0.96323736907927 0.04382201897145643
4.034285714285715 -0.8135120611386367 0.31001523441681045 -0.00037347902447002623 0.0003088600654167416 9.072883800254503e-05 6.746169314831978e-05 -0.9668587074027677 0.042138129741181946
4.034714285714286 -0.8086976582177755 0.32418318617279995 -0.0005825839190934566 -3.993701457299927e-05 0.00033962093084786933 -0.00012488081182073684 -0.9680746772662032 0.051588611600906734
4.035142857142857 -0.8102871786495871 0.3262495650289494 -0.0002775533211066463 -3.1431376909332444e-05 -0.00024600117425239044 7.061130798011005e-05 -0.9685484984316998 0.051033118097177955
4.035571428571428 -0.8042954301841243 0.33378534339645616 -0.0007379842987020903 0.0003023151499987082 -0.00020606710658601667 0.00015311976185197637 -0.9686653655449904 0.054249350208572154
4.036 -0.8015595919257373 0.344497559517241 -0.0004933759553306614 0.0007796695126456269 0.00011330577879714911 -0.00018598233356205928 -0.969327535429568 0.05844514737811746
4.036428571428571 -0.8096115088236606 0.34199374791266557 -0.00028636744912781035 0.0002573413718761133 -1.135978136278671e-05 -0.000200196864371726 -0.9673171028293345 0.05210436715061861
4.0368571428571425 -0.8013865838372844 0.35423204726010404 -0.0004563846106506348 0.00020503664887094837 0.00024098156043755664 -0.00013954105456589835 -0.9703313031551385 0.053647542113594085
4.037285714285714 -0.7929348248110293 0.36022273505428376 -0.0006426982720563441 -0.00010805121956149118 -8.06288168752752e-05 0.00028542519371862004 -0.9631574462034237 0.057916659590579796
4.037714285714285 -0.7922474333563901 0.36171068532555656 -0.0007087389925400262 0.00021554898366089935 -0.00015174830780882975 -0.0002125663779665331 -0.9719318316908745 0.054864238244653835
4.038142857142857 -0.787679108888333 0.3799192646440895 -0.0003428620867236013 -0.0002551404988104789 0.00038225718404609493 4.689405710413739e-05 -0.9654140769109166 0.061474162586859504
4.038571428571428 -0.7880187691580939 0.38019982021448 -0.0003482425925185676 0.0005841049923244466 -2.0969337751619274e-05 -0.00019504442012162308 -0.9593277032889604 0.06566893288237029
4.039 -0.7847276987437456 0.3843146993954505 -0.00044720430495047084 0.00011244746174863187 -0.0006533360913117133 -0.00021827042933976012 -0.9605325516067873 0.06436593416162553
4.039428571428571 -0.7774326821439419 0.39986581390215004 -0.0004558470523152782 0.0004122640136490115 8.48864619691783e-05 -0.00038111223701644723 -0.9628408481856293 0.06789588349278432
4.039857142857143 -0.7815817778150049 0.40041434504068735 -0.0003879611859201631 8.114952569776398e-06 0.0002469925827722585 -0.00022557819196274896 -0.9686616691887668 0.06971306965263384
4.040285714285714 -0.7754665103694851 0.3987342740434976 -0.0005594878839082903 0.0005011148669087969 0.00027997329284747434 -0.00032859613012242153 -0.9628132535663406 0.0758072046916665
4.0407142857142855 -0.7766076877094554 0.41321183637657877 -0.0003296235285976754 4.8661085670391293e-05 -0.00026353506972915557 -0.00047831754393784563 -0.9605435308407112 0.07543279466895533
4.041142857142857 -0.7627794399435849 0.41680520832618645 -0.00011575291873904644 0.0006410285777229491 -0.0003531877994388992 0.00012463100528369657 -0.9683869215172143 0.08636229622353164
4.041571428571428 -0.7623058892214037 0.4239394663114406 -0.00028181280204090894 0.00011348346746808438 0.00011324901918841283 -0.00029030525471600326 -0.9666862131414947 0.08306542182470024
4.042 -0.7578177144157332 0.4348232308166852 -0.00027147665128379614 0.0003474745548693684 7.328245693442775e-05 -9.823341154975466e-05 -0.9623935552790327 0.08848741480803056
4.042428571428571 -0.7530251773312434 0.43623237244844937 -0.00033089673856807406 0.00010064589321405385 0.00017897149589066175 0.00022208494755454212 -0.9577045877698747 0.09146054170634678
4.042857142857143 -0.7535277683901185 0.43365473059089504 -0.0004530578934367435 -0.00028648874907492784 -6.391280121704126e-05 0.00021508691419759707 -0.9647451991647498 0.08726857025485409
4.043285714285714 -0.7466385894330749 0.45269559130161846 -0.00021390489439104243 0.0002526464397818688 4.27771163478033e-05 0.00018542611063502204 -0.9648828534480146 0.08553307228610815
4.043714285714286 -0.740970054637354 0.4544016184341862 -0.0009429225184980926 0.00045737787680547677 -0.0004022726288248514 -0.0001268673537295189 -0.96651832570907 0.0818522266787578
4.044142857142857 -0.7391824616357305 0.4635963765164942 -0.0002348570570338519 0.00033865165148820093 1.0204406944470433e-05 -0.00019434612144609325 -0.963489692559622 0.09471551069134733
