!Created with skrf (http://scikit-rf.org).
# Hz S RI R 50.0 
!freq ReS11 ImS11 ReS21 ImS21 ReS12 ImS12 ReS22 ImS22
4.0 -0.8491934584790851 -0.25284740059289795 0.0005017680425667797 -0.00047937718871768104 -0.0001557582709187283 7.807119293260759e-06 -0.9634976308413761 -0.12997598063966007
4.0004285714285714 -0.8561158445568554 -0.2459326419541294 0.00012945780408586043 -0.00024045688364394993 4.0908230447453656e-05 0.00011882916878054088 -0.9720337623223241 -0.1235271201384714
4.000857142857143 -0.860131107110893 -0.2371197253350397 9.980340070073371e-05 -0.0004824136135350645 -5.542279838907352e-05 5.261033676846107e-05 -0.9669042762786102 -0.11697283039556175
4.001285714285714 -0.8549928844051184 -0.23097086723309476 0.00034020717016540453 -0.00040273709672191495 -3.5832358489963014e-05 0.00020165174763751075 -0.9637305391947433 -0.1172025748064777
4.001714285714286 -0.8605480785397603 -0.22323221995788428 0.00015213345161594325 -1.7654367742786904e-06 -2.749004943491299e-05 0.00015230431548230336 -0.9674437892311801 -0.12095417935819902
4.002142857142857 -0.8589821412660299 -0.2227998165780028 -0.00017807146372079798 -0.0002456213201440309 0.00026526648493911063 -6.703967379734894e-05 -0.9647055207864493 -0.11229499896382508
4.002571428571429 -0.8628369198988208 -0.21206576925105616 -8.098344721091186e-05 -0.00037124667612515894 -6.920465335971366e-05 -0.00019178278573622797 -0.9701958923672865 -0.10539080907984708
4.003 -0.8669300886629988 -0.20186574150276865 -1.0833375168311112e-05 -0.00024006831588490934 8.313943009052102e-05 -0.00015117848777794292 -0.96773479650745 -0.10557831402814288
4.003428571428572 -0.8678604210946825 -0.19913482513509578 0.00016413998732918572 -0.00041360540013333927 0.0002444302240587712 0.00023515155023860176 -0.9615576560421124 -0.0980792786118817
4.003857142857143 -0.8658257015314315 -0.18857327694412693 -5.060397676688577e-05 -0.0003057326498949417 5.07804667662343e-05 -2.5633339354018807e-05 -0.9716678600583395 -0.11031329914898308
4.0042857142857144 -0.8777056767007427 -0.1831921600558335 -0.0001189272281160506 0.00013878783083371408 5.323400335690182e-05 0.00011552768749072602 -0.9662361836712435 -0.09876251014005415
4.004714285714286 -0.8706321634591305 -0.17250266348618928 -0.0001330404596675392 -0.0006774066389049306 5.655921264981503e-06 0.00015385732850812825 -0.9592468452625206 -0.10912999269071502
4.005142857142857 -0.8730424689954549 -0.16555099747131075 -0.00019843473233252087 -0.0006623489584877232 -0.00010604204038964977 0.00023168711397558245 -0.9696374361037084 -0.09761844808841158
4.005571428571429 -0.8748225649788071 -0.15838783910316329 -0.00016202163928300483 9.947609439203352e-05 1.6228775467821865e-05 -0.0002849998315224538 -0.9580541903796019 -0.09684883254953315
4.006 -0.8784545265705811 -0.15644609585212596 -0.00011866751722232837 -0.0004655014597499641 -0.0001539949718724646 4.6983830736022376e-06 -0.9710800513148636 -0.09361880280916468
4.006428571428572 -0.8767309655952863 -0.1500953002445732 0.0004898873370029203 -0.00014360149765413525 -0.00024126685563869194 2.747916923027509e-06 -0.969552768829122 -0.09397049406586921
4.006857142857143 -0.8814419862416344 -0.13915436450906724 -0.00012359936971091583 -0.0001329839972741761 -0.00022924457547481578 0.0001942027167208872 -0.9647191316410585 -0.08709062926694172
4.007285714285715 -0.8835317302304654 -0.1314925033885417 -0.0001432040032530242 5.180597384086463e-05 -9.501616068339873e-06 -9.511419744037148e-05 -0.9694025260063425 -0.08104696931036859
4.007714285714286 -0.8827864286100997 -0.12633300470763292 0.00024646535952891485 -0.00023334444451907337 0.00022889000607667677 -0.00020626350497624226 -0.9623057923224704 -0.08268774546159005
4.0081428571428575 -0.8825934301067833 -0.12307848241234198 -7.627073010609445e-05 1.9330225353266314e-05 -3.4035395081780356e-05 -0.00042196536215769484 -0.9672451952704263 -0.08701905125134202
4.008571428571429 -0.8855903034290602 -0.10902279322865827 9.620438696186993e-05 -0.000203817905242382 -7.816465130324992e-05 0.00022933669655564824 -0.9643373516375724 -0.07743289754970298
4.009 -0.8885375709390398 -0.10535425447461172 0.0006103016112612866 -0.0003887038926384182 -4.830698527479341e-05 0.0001579377175201259 -0.9726023684130246 -0.0854530412093809
4.009428571428572 -0.8852976321391842 -0.10036765502186146 0.0001319735851181012 -0.0005041606135235703 -4.14629558182618e-05 -2.4837161748233693e-05 -0.9768222467505014 -0.07639075741190018
4.009857142857143 -0.8861530407565249 -0.08870275327297347 0.00021709579049998632 -0.00012777089439711234 -0.00041148490267788117 -0.00010914392737233246 -0.9678749846801551 -0.07245926061707626
4.010285714285715 -0.88820405396763 -0.08342917475412935 -0.00026840590844047117 -0.0004262403426052909 -0.00019425012418838742 -3.779659255807005e-05 -0.9645880710520319 -0.07381331593426563
4.010714285714286 -0.88788907765761 -0.07616916993442442 -0.00012222985471158868 -0.0008135106834697147 -0.00014330543407156316 -0.0002271872739151704 -0.9686484748898604 -0.07388544948255511
4.011142857142858 -0.8846476918819879 -0.07322868847524928 0.000393656465570205 -0.000332397082278777 -6.4295687317853e-05 5.705954090650758e-05 -0.9692916991318579 -0.06490036211638146
4.011571428571429 -0.883807931673354 -0.05952196030493441 0.00023448634162653026 -0.00015800136203201028 -0.00032036024959646275 -0.00015313654056722673 -0.9717439218446257 -0.06630981909893652
4.012 -0.8903949130910056 -0.055764819912346074 0.00033512808839753286 -0.00027034771327652025 -0.00032356118813359474 0.00013041071951460612 -0.9759410330453253 -0.06416852679757029
4.012428571428571 -0.8875370375012805 -0.047095186061772876 -0.0002545461149652808 -0.0003337603662061865 0.00043415452048627546 -0.00017621769402036404 -0.9629058463726947 -0.05598705121447316
4.0128571428571425 -0.8944700222142522 -0.0364244724908414 9.670322085974149e-05 -0.00022231324821582883 -4.563191891545375e-05 0.00010414190305251397 -0.9650850337640537 -0.0648319095102211
4.013285714285714 -0.884921309606323 -0.0326488530160467 -2.0598844143092624e-05 -0.00034555992839183244 -0.00017587929275673984 -0.000135981204317882 -0.9637526678708295 -0.05899753915206299
4.013714285714285 -0.8876004136288401 -0.022519498567304008 2.5901931077315424e-05 -0.0008314927346535568 0.00013484552715895053 -8.0204674000696e-05 -0.974838204066957 -0.05246625451395226
4.014142857142857 -0.8882702417007029 -0.014853751968751432 -0.00018532850866334513 -0.0005318524051006934 -0.00022309211570597186 -0.00013530557033324795 -0.971158860817701 -0.04891848156605627
4.014571428571428 -0.8870291422268874 -0.013286143929525233 -0.00018626508782953655 -0.0008893273384600734 -4.0148358077483486e-05 -0.00014219703646687674 -0.9692125422242619 -0.05240248712022924
4.015 -0.8960509779489642 -0.001377374264806123 2.7573299672185895e-05 -0.0002915408936285314 0.00012190477535445907 -0.0001153661018435337 -0.9658655127582575 -0.05152141968818524
4.015428571428571 -0.8909525928512667 0.010447282949136215 5.802490982016235e-05 -0.0001891379439789041 -7.020134969139718e-06 -4.35482882398946e-05 -0.9718561526391823 -0.0503324535616655
4.015857142857143 -0.8895826396914809 0.01660573545275474 3.1571612818260967e-05 -0.0004287009657485881 1.4227410747077863e-05 0.0005389178623979308 -0.969395517566116 -0.04692656571485286
4.016285714285714 -0.8912307855955407 0.022355914845217636 -0.00033785096276111915 -0.0004069749881367765 -0.00039004732674346933 0.00017181535942015536 -0.9646942311977349 -0.044573250653957314
4.0167142857142855 -0.8900082490825239 0.027400342344097082 7.426448823256596e-06 -0.0002730094840077606 5.347562415015835e-05 0.0001513255316704818 -0.9651081441571278 -0.050338645955049485
4.017142857142857 -0.8868902512310465 0.03839904876193797 -0.0003337140266912064 -0.00037277666182778735 -7.199502248119458e-05 0.000388822288317936 -0.9615722246839143 -0.039631310537308666
4.017571428571428 -0.8906581400108607 0.04111992109242619 -0.00019686180593208048 -0.0006561198823317988 -0.0004223842827723389 0.00024577541220586585 -0.9709972470570567 -0.04128076461831308
4.018 -0.8859980584165446 0.048704400455747754 -0.00031667162205797423 -0.0004785348028946777 0.00012254933719259276 0.00010532310391157097 -0.9693877309885601 -0.04042082249244082
4.018428571428571 -0.8911453352653244 0.05631841063534283 -4.17954511259808e-05 -0.0008176519045333861 0.0003893441867587432 0.0002455087670367916 -0.9720840834375881 -0.032306529068665886
4.018857142857143 -0.8835172457644653 0.06541461454938333 -7.309131451362358e-05 -0.0006977042056551274 5.396475119826537e-06 -2.0902917581877715e-05 -0.962578115331312 -0.02929037306794226
4.019285714285714 -0.8826290190433734 0.07873623873474415 -0.0002557164814289779 -0.00042658302217172834 0.0002195352726520414 -3.125165183861221e-06 -0.9711594701780358 -0.02896790880850772
4.019714285714286 -0.8891645670238117 0.08290279361045924 2.3073652627541004e-06 -0.0003600049211976832 0.00022998012213328346 0.00024586096287232016 -0.9640017530906609 -0.0285543623577408
4.020142857142857 -0.8871101647778007 0.0880702857799541 -0.0006099351770828743 -0.000560196240794879 -9.252236208596246e-05 1.1199286719614135e-05 -0.9687442678532855 -0.025686061419295712
4.0205714285714285 -0.8868444258461472 0.10192817075076877 -0.0003066331041790355 -0.0005026258139557456 0.00013230638630392359 -0.00039444695680185764 -0.9679289284995296 -0.02589445189518453
4.021 -0.8818475275058026 0.1007643525891216 -3.293579857375178e-05 -0.00016653458795928234 0.00019238061598066014 -0.00029823368671930004 -0.9653279174030724 -0.022161837985101535
4.021428571428571 -0.8808269440817584 0.1133150920019213 -5.4848978041978515e-05 -0.0003494205752360766 -0.00011630512823609739 0.00012262155693246844 -0.9685085144236315 -0.019992169640612647
4.021857142857143 -0.8833221800661776 0.1176595062923508 -0.00019183096188054774 -0.00045232215056571426 -1.2592031861582152e-05 0.0001700492409632004 -0.9673919538452389 -0.01773957250804701
4.022285714285714 -0.8752455456703665 0.12039760677663422 0.00017080761660109154 -0.0004081498310372926 0.00013004179341088168 -0.0003347369313222358 -0.9761926407261361 -0.010263148272113273
4.022714285714286 -0.8798338513815963 0.1370757639202043 -0.000331852062738602 -0.00017491395606997754 -3.084311933971841e-05 -0.000576960316903088 -0.965141905526915 -0.014580940698658933
4.023142857142857 -0.8761662070222292 0.1420549302358822 -0.0004578277047833386 -0.00036034365491404184 0.00013759737286853503 0.0003185177068308932 -0.9681256702252528 -0.008039524873790883
4.023571428571429 -0.877947357462181 0.14373327336108827 -0.00040498042800857475 -0.0006818931148475206 0.0002172460950705033 3.762625211108273e-05 -0.9636870351579514 -0.00550252007595495
4.024 -0.8724645656060721 0.15581035168474355 -7.407692822797896e-05 -0.0001906945943214844 -0.0002049184253264267 6.824344156479692e-05 -0.971442403005411 -0.00821725748022813
4.0244285714285715 -0.8754144374663276 0.16015294344510392 -0.00016802964406720792 -0.0003031287094684327 0.00023367080841046404 -0.00010361916187238453 -0.9710351470792201 -0.0033811718863653016
4.024857142857143 -0.8757688186086173 0.17121731390868755 -0.0003943509874947706 -0.0003573697257743934 0.00011378160066306817 -0.00022498483071667865 -0.9692021434453527 -0.0009850725076779596
4.025285714285714 -0.8762451701159661 0.17835715047352946 0.00010670846629974385 -0.00037117131759847324 -0.0001221956496987731 -0.0001492975742080281 -0.9652179948744783 0.0021195530803218223
4.025714285714286 -0.8718021566757763 0.18539288535870493 -8.374229262101924e-05 0.00018099371043518595 0.0004267000962793193 0.000173305918010586 -0.9752570577231631 0.008178924754420312
4.026142857142857 -0.8748888825258297 0.19373710406929506 -0.00041861669121015033 -0.00033470437105062405 -0.00017633673537714484 -0.0004252016344265097 -0.9693023796008936 0.0022136994267342816
4.026571428571429 -0.8622236253964457 0.20069052707576368 8.252447533722852e-05 -0.0006279273556738057 0.00024132389109470475 -2.3436319119048936e-05 -0.9749084622319877 0.008255207158961395
4.027 -0.8641689041373916 0.20734698550676342 -0.00020910202250127086 -0.00016318936493663609 0.00036363646506826046 5.352445416179707e-05 -0.9697924169579464 0.004610193597859491
4.027428571428572 -0.8681059270212814 0.20796280381989402 -0.0006986376936848424 -7.994469379214223e-05 -0.0001434237044121829 0.00021102604720901278 -0.9656086041514448 0.013887231146074796
4.027857142857143 -0.862693870385359 0.2155203303364549 -0.00028694709450434154 -9.929843479737352e-05 8.704377251478855e-05 -0.000420894342484343 -0.9736953388502645 0.010061428713055112
4.0282857142857145 -0.8620003331930455 0.23033304191701043 -0.00021939285541893849 -0.00041615615141913834 -8.623409446898807e-05 2.1937311975471248e-05 -0.9711071403267668 0.02018502814124586
4.028714285714286 -0.866196757574865 0.22980256704030091 -0.0004285175589467316 -0.0003637871354540095 -0.00010358156678323432 -0.00018802478276193723 -0.9714001447885244 0.011929249622857739
4.029142857142857 -0.860064360011483 0.24419067945758216 -0.0002901098230761883 -0.0002305053864900033 0.00018694046060180208 8.19753653648363e-05 -0.968278654198631 0.022871281459999282
4.029571428571429 -0.8575971100814901 0.24638251773118408 -0.00020408107643485118 -4.479209511320181e-06 0.00012193675803130569 0.00022346524194733272 -0.9615630032897238 0.02080555475389902
4.03 -0.8519237599224462 0.2516706947979286 -0.0001598146978203167 7.376709586655825e-05 -9.656830910010126e-05 -0.00025656824627326864 -0.9723629516620295 0.03173535131274784
4.030428571428572 -0.8520530642490661 0.26322613870882716 1.898656362130042e-05 -0.0002968860255660555 0.00023460935224947556 -8.536961829901198e-05 -0.9709342010714912 0.027712225747087156
4.030857142857143 -0.8539213066618018 0.26638077681267824 -0.00020749591973199112 -0.00047769238053010276 0.00011073283759614527 8.285568502867374e-05 -0.9730443172091979 0.021335309111681185
4.031285714285715 -0.8469137068585868 0.27408626164114036 -0.0002880221977661763 -4.617441398210302e-05 0.00013789095717933408 -4.176833330397464e-05 -0.96766208192036 0.03264383705702355
4.031714285714286 -0.8423173475970162 0.27723842395701376 -0.0003046531460079439 -1.9947960233698243e-05 1.096682873290889e-05 -0.0002928249089797328 -0.9673229325480595 0.025248944891734938
4.0321428571428575 -0.8394742085098388 0.2871672887602418 -0.0002616986839237476 6.800775985396022e-05 0.0003266499085954512 6.0570786629782374e-05 -0.9712154270106808 0.0350007927773476
4.032571428571429 -0.8384693264747481 0.2939239505637491 -0.0006828966306847107 1.641015441225385e-05 -0.00026676875826600556 1.4280652311537914e-05 -0.9673327665733222 0.04262762792671123
4.033 -0.8394465663061306 0.3008167335137274 -0.00018638627401561033 -0.00014486604522926695 0.00017447207521663173 3.582011022094988e-05 -0.967019037612235 0.04457721253455308
4.033428571428572 -0.8421255105865129 0.3092999418040241 -0.000759543426969135 4.435869126205266e-05 0.00011114332537819017 -0.0003277370932450342 -0.9632919199586337 0.04044781207640831
4.033857142857143 -0.8349773077537785 0.31771375993807704 7.481124743619284e-05 -2.186744278256749e-05 2.5173190868624882e-05 0.0003313022547455878 -0.9617904909270322 0.04606784054953394
4.034285714285715 -0.8272445321346168 0.32053222276056176 0.0003184730675797195 -0.00035322942200402026 0.00010183188908481871 0.0003462660991122424 -0.9681980910754666 0.041238290049314306
4.034714285714286 -0.8202585314479853 0.3341406307628601 -0.0002944256285927918 -2.339572442464184e-05 0.0003285305155038431 -6.813153340295767e-06 -0.9668510763471992 0.050916229954791566
4.035142857142857 -0.8218353159086265 0.3374778665250928 -1.1078262870717354e-05 0.00022933696452636214 9.454027341750337e-05 -0.00010428056272153518 -0.9685280534157721 0.0501306635548154
4.035571428571428 -0.8161662383013578 0.34392964249820535 -0.00017473299504550146 -0.00034582209100732594 -3.3565041692232364e-05 6.375511568311343e-05 -0.9669672492301316 0.054980391490234856
4.036 -0.8147958039331866 0.35613629401987507 -0.0005148619050652305 -0.00033433238499890923 4.1213734843659616e-05 -0.00018437681685559853 -0.9691335982572626 0.05621594804103863
4.036428571428571 -0.8212502753029503 0.35391617395128394 -0.00015837944682644428 -0.00022893768315346505 -0.00012554558119267186 -0.0002543248020031364 -0.9686539524631499 0.05031869555235105
4.0368571428571425 -0.8140787429897965 0.3641513968585618 -0.0006011741305423481 -0.0002380827165699523 -0.00014876410777393145 0.00011478837583271133 -0.9703624299406916 0.05227157544758196
4.037285714285714 -0.806472095932629 0.3721540764880194 -0.00030078360353347374 -0.00011981168478465233 -0.000109933398953401 0.00021166111281060285 -0.9618446459309425 0.05902794360488663
4.037714285714285 -0.8055503872067842 0.3710574693417369 -0.0005190207656358762 -0.00012053052216059157 3.499340887801203e-05 -5.105195754879955e-05 -0.9711671946899527 0.05483447996531369
4.038142857142857 -0.8021177681424075 0.39227364580454394 -0.0005223560355336158 -2.504010715419204e-05 -0.00022056788448544665 -0.0002973495184308812 -0.9624088199559403 0.059868414196495884
4.038571428571428 -0.8023834385987626 0.3916752701346296 2.0371896036981177e-05 0.00026826913172528337 -0.000186940127891455 0.00034319506359434363 -0.9596712894910805 0.06556494065868416
4.039 -0.7970850956162568 0.39492109291311905 -0.0004146480954217188 4.1371370778557834e-05 -0.0003344999890372927 -7.584609820109e-05 -0.9596095977014242 0.06384151946843368
4.039428571428571 -0.7893104519877933 0.4127840159987455 -0.0001902467310051369 0.00016009545540936256 -0.00011980870469682714 0.00014692367842496917 -0.9635576269858139 0.0679020631753352
4.039857142857143 -0.7916741475111729 0.40947933174217677 -0.0003968100327557282 0.00019218665462649923 0.00020431046441241708 -0.00019024525580683073 -0.9710231507416467 0.06950445474333752
4.040285714285714 -0.7882465744254508 0.4111222685140129 -0.0002969988662973779 -0.0006034293821951394 0.0005837928624162997 0.00028474601190761845 -0.9630534753680025 0.07505226131799465
4.0407142857142855 -0.7888975302957429 0.4248528064650176 -0.0007677155597961922 0.00014638748775452478 9.08522471863764e-05 0.000252535971626694 -0.9604708021438447 0.07548604043193818
4.041142857142857 -0.7767909581968835 0.42903806109716747 -0.0004254274564794346 0.00011644294800451084 0.0001620272750776422 -0.00011545713000384406 -0.9689623639183543 0.0861075307898107
4.041571428571428 -0.7748906556933389 0.436447066691731 -0.00014890594794955117 -0.00018993168144688246 -0.00016416547940948704 -6.0926368793310695e-05 -0.9654942777544007 0.08366339315974217
4.042 -0.7713401387026138 0.445611270338613 0.0002262223754709297 0.00027510854161179863 1.3024406075075825e-05 2.8071505021790056e-05 -0.9624193818422679 0.09023694760792683
4.042428571428571 -0.7673989731132107 0.44971836529078707 -0.0005492009878487815 -5.235010232986373e-05 -3.9517157053385455e-05 4.480130892915683e-05 -0.9599757366997462 0.09044179527032531
4.042857142857143 -0.7652431037751516 0.44705659689571053 -0.00011318762785516399 7.5837931892876345e-06 7.338504098781921e-05 8.567222325955607e-05 -0.9660721129632448 0.08781176695163584
4.043285714285714 -0.7596994525453877 0.4642474977253196 -0.00031554709964656867 0.00020666509305302175 -9.678060126963143e-05 -9.21205835575283e-05 -0.9645367453748157 0.08608447064744944
4.043714285714286 -0.7529376327931229 0.464261782976612 -0.0002064885670540551 -4.498444119748806e-06 -0.00020897486214557675 -6.53875607330194e-07 -0.967502368368658 0.08174488548619883
4.044142857142857 -0.7524119394464597 0.4754179661185888 -0.0005964703620508432 8.053795709848181e-05 -2.9861004952135142e-05 -0.0003358915493657989 -0.9639683396368118 0.09654490602134239
