!Created with skrf (http://scikit-rf.org).
# Hz S RI R 50.0 
!freq ReS11 ImS11 ReS21 ImS21 ReS12 ImS12 ReS22 ImS22
4.0 -0.8403409662210908 -0.24871088328629573 -0.0004078305130799688 -0.0007795540169761012 -0.00015031613633139978 -5.759318963286618e-06 -0.9626166297177389 -0.12924516201901043
4.0004285714285714 -0.8475117132841361 -0.24197728688685025 8.502114696010535e-05 -0.0003239594364892442 1.2790511605768156e-05 0.00013837359905094563 -0.9720199411578523 -0.12271227622284425
4.000857142857143 -0.8512261189272893 -0.2323042547436719 6.356009426330714e-05 -0.00028506266198886893 -7.368316571559392e-05 0.00018071988031629222 -0.9670765317529982 -0.11632442415429518
4.001285714285714 -0.84551703017258 -0.22695030666186364 -1.8633460357281517e-05 -0.0006601010707519084 4.6567709156640715e-05 -0.00025589379764154075 -0.9630023013855683 -0.11748776607064156
4.001714285714286 -0.8513637740434142 -0.219137777863433 0.0001866058814640651 -0.0008210300938649835 0.0002982728315355321 0.00015419678639574496 -0.9672082372845661 -0.12099705991633002
4.002142857142857 -0.8503554103609702 -0.21723173124103526 -4.588636882543913e-05 -0.00033656819568246354 -1.97957240597608e-05 9.499541692437982e-05 -0.9653960693482252 -0.1110142680355128
4.002571428571429 -0.8529255333100791 -0.20817081859837253 4.721812210937142e-05 -0.000520516773392631 0.00011511089470529469 -3.329425078357887e-05 -0.9698755207498596 -0.10583122798260212
4.003 -0.8589046490654225 -0.1974374751874748 -7.0376207626664e-05 -0.000584733727635687 0.00013064265206397973 -1.0394439928764469e-06 -0.9698217001442498 -0.1037429718405956
4.003428571428572 -0.8595498254320998 -0.1944411015782514 0.00020301623120704156 -0.0004122546380197913 3.6644343517277942e-06 -6.737235843916891e-05 -0.9624155513834037 -0.09879775270976339
4.003857142857143 -0.8557260563669937 -0.18555802175155717 2.1094642579604203e-05 -0.0005376541249904817 0.0002673566515499257 0.00017723778215283294 -0.9714449085260266 -0.10940950189687894
4.0042857142857144 -0.8681593594997936 -0.17832395157115563 -0.00010428531245446957 -0.0005209248388581695 -4.922926623330025e-06 -0.00013689163672786354 -0.9639079578022017 -0.09848791394159637
4.004714285714286 -0.8624423626311118 -0.16938443127391115 -0.00022799590777131676 -0.0006349662805784803 -9.06627144787054e-06 -0.0002090174012642666 -0.9592666129126244 -0.10679022964034891
4.005142857142857 -0.8638407607642692 -0.16168802631396823 0.0005364288503785752 -0.00046085417113841053 -0.0001027485342892614 -2.2731221262035935e-05 -0.9685639650054705 -0.09463588866113941
4.005571428571429 -0.8645443786925731 -0.15468374691978745 -0.0001450826239004308 -0.0005089030339395819 0.00012836549602432808 -0.00023935032928845871 -0.9608725995435154 -0.09559679463191034
4.006 -0.8665834363271541 -0.15129867842481784 -0.00013478008106407853 -0.0004704841964210022 0.0003235507941987699 0.00012558385584515591 -0.9697750106345503 -0.09283522418033215
4.006428571428572 -0.8684257955540882 -0.146357338648758 0.00029444690451022596 -0.0005254756992299734 -0.0002622172163048365 -7.194110549381612e-05 -0.9674582492675114 -0.0931875675377305
4.006857142857143 -0.8713709904041376 -0.1351252694669888 -0.00012867804899098628 -0.00034978979623175163 -0.00019254881835323748 -5.453140284161645e-05 -0.9652149571044963 -0.08622891420157622
4.007285714285715 -0.8737455017848829 -0.12748631248024128 -0.0005450548407915526 -0.0007539512528759995 -0.00023049625008996627 -0.0001958652306030581 -0.9703190888867824 -0.07908115248340196
4.007714285714286 -0.8715960669404932 -0.12252498394682268 -0.0003181993319987916 -0.00014647411502053819 0.0003520330257451928 -0.00016171110615402967 -0.9643466114078999 -0.08417272494261434
4.0081428571428575 -0.8733464341359881 -0.11868420905042565 5.100892805329853e-05 0.0002230079089652824 4.5137819563208116e-05 2.4290831597720356e-05 -0.971029247239366 -0.08647009286670813
4.008571428571429 -0.8749771763863615 -0.10565370405856005 -0.00026775787554255104 -0.0003335138419258732 -0.0002582341975828445 -0.00017468881038645588 -0.9624588579935833 -0.07854028543091955
4.009 -0.8752980169480142 -0.100992597427873 -0.00016263887027339425 -0.000434239645802691 3.560746574773576e-05 -2.518160289615139e-05 -0.9731828596229075 -0.08527207040835999
4.009428571428572 -0.8742054561147949 -0.09743946375620724 5.6322524810193743e-05 -0.0004736592816063116 2.084817167039724e-05 0.00012865575330765056 -0.9779309677463912 -0.07628307556784944
4.009857142857143 -0.8766539943915631 -0.08533684408865924 0.00037574293838384766 -0.0010565266446714771 -0.00020906577439109149 0.00010319455586853709 -0.96693168776994 -0.06834764799077539
4.010285714285715 -0.8803204108558674 -0.07828983601852198 -0.000563432811414862 -0.00033370952674192423 0.0003607893991316903 0.0001369570055518303 -0.9665683948557444 -0.07472509056637992
4.010714285714286 -0.8798887400474887 -0.07148960653191412 -0.0003723447180001382 -0.0006665258540894751 0.00011307459239418948 -0.00033811966645583535 -0.968192636771051 -0.07099190815488637
4.011142857142858 -0.8763836733941983 -0.06867377034415047 -0.00033450350368296366 -0.000510727931437796 5.264848310291638e-05 -0.00025737015771093517 -0.9688076265400061 -0.06541604942372853
4.011571428571429 -0.8759654085344184 -0.056839160247518276 -0.0003242549793872013 -0.0004182398087238295 6.664414403891313e-05 9.288636431833539e-05 -0.9721684931080051 -0.06734412333955474
4.012 -0.8807286215882915 -0.052854263705859425 -0.0002682179162839678 -0.00026416328017127364 -2.267756925648103e-05 -0.0003061749375020265 -0.9744392537587221 -0.06410308866466467
4.012428571428571 -0.8771312781511358 -0.04291598520975958 -9.138029800606021e-05 -0.0007656649607137369 0.00013233204056436258 -6.3227387146058844e-06 -0.9625877966297685 -0.05718544343147765
4.0128571428571425 -0.8842204824519998 -0.03241313802910887 -0.00013417744039001937 -0.00013778397911317435 -5.925935576771164e-05 -2.5145863478812676e-05 -0.9650824961828695 -0.06435466031343554
4.013285714285714 -0.8751019279044426 -0.02974118177780352 -0.00012008357382084896 -0.0003293213250255647 -0.0003598374627092074 0.000279850784228087 -0.9621663986036414 -0.058825472515279816
4.013714285714285 -0.8776857090367368 -0.019784879848688833 0.00045694382872046315 -0.0008453435077094589 -1.2589400977509828e-05 0.00012497560670117786 -0.9763489874217891 -0.05189064347514698
4.014142857142857 -0.8770149400069894 -0.01188681250588533 -0.0003525050569782994 -0.0001631043084210461 -2.3966744670656134e-06 5.442319698157045e-05 -0.9713798366524811 -0.04836392588940197
4.014571428571428 -0.8768178690565708 -0.00986952638490405 -0.00011660754774003854 -0.00036174998221402503 0.00021209721131847174 0.00014924530458094214 -0.9685657272473286 -0.05076901469697316
4.015 -0.8866932501819718 0.0030552719129410253 -6.159856318079726e-05 -0.0008009602379169122 0.0003459400923106219 0.00010525532421910396 -0.9650119042313833 -0.0514007575603903
4.015428571428571 -0.8820014999266044 0.012770676029993325 -0.00040575253451300374 -0.0003699446925465358 2.1837211561596093e-05 3.279650714700931e-05 -0.9715283728207889 -0.05018166116957955
4.015857142857143 -0.8807453643768143 0.01923294350198534 -0.00010727733665681267 -0.0007789827619891321 -0.0001700976135866504 -0.00016549655897942083 -0.9699100952627393 -0.04558878482661839
4.016285714285714 -0.8782665259096324 0.023281537365571023 -0.00018113997648592595 -0.0005189212243680547 -0.0002512736512297992 9.52164309396306e-05 -0.9657951491098875 -0.04123260386848942
4.0167142857142855 -0.8798141416039081 0.02943166063790176 -3.977023153474022e-05 -0.0003463690079469563 -6.944054580883261e-06 -1.48582153504571e-05 -0.9641888773622106 -0.04712336411764485
4.017142857142857 -0.8759207064097029 0.03952600532827719 -0.0003611467039795868 -0.0002024548659713799 0.00022663406756571634 -2.4350624583861704e-05 -0.9610196926298051 -0.03973330389501589
4.017571428571428 -0.8820370052046639 0.043356536961716076 0.00022198175082579555 -0.00029850052634185085 0.0001549509468493687 -0.00012280970134741733 -0.9720351584066701 -0.04092342472400323
4.018 -0.8779298678998343 0.04842344114808536 0.0005260099952887704 -0.0004180160964043019 0.00030603141246715024 0.00011011450936458133 -0.9687689563937726 -0.039682441968671885
4.018428571428571 -0.8827156268322918 0.05957312572342428 -0.0002694418990715952 -0.0006178989250987422 0.00046428862607600645 0.00018643449439979944 -0.9717975900914009 -0.03486173168184294
4.018857142857143 -0.8734337531759055 0.06803237205007327 -0.0007964362915827582 -0.0001833971539553231 8.9300195573272e-05 -0.00046617951246111597 -0.9621375107960866 -0.02537762968321201
4.019285714285714 -0.8733449699368397 0.07942074079811025 -2.909058995740644e-05 -0.0006303685735079461 -0.00011843553682314419 -1.2463282405338085e-05 -0.9710145615420092 -0.02794852153558487
4.019714285714286 -0.8770845412134208 0.08528205406263344 -0.0002632901796752461 -0.0004077836047949123 -1.9344545481226e-05 -0.00019023973966697112 -0.964424344500213 -0.026518161006898605
4.020142857142857 -0.8774523452725012 0.08956438404153272 -0.0005714300094806527 -0.0004962874251767978 9.131263209786726e-05 -6.296571621061366e-06 -0.9700313309042115 -0.0241514958673007
4.0205714285714285 -0.8749014907712763 0.10345272196249797 -0.00018022557668369527 -0.0004379923971826204 -3.6593545266612556e-05 0.0002677906691856034 -0.9678420421263838 -0.027410438070502245
4.021 -0.8735331789884467 0.10433947381868172 -0.0004883858935995513 -0.0007696517194588008 0.00011596604138998663 0.0001581814513653704 -0.9653287725282189 -0.019300684744192127
4.021428571428571 -0.8716622034795909 0.11451482354231303 -0.0004620993473942069 -0.0003259432039122107 -0.00048382282313253535 -0.00014884690689713937 -0.9691864455780502 -0.01978990761408426
4.021857142857143 -0.8736996542312554 0.11859552626634565 5.3994090606349204e-05 -0.0003418849230422741 -0.0001898085530441582 2.9330864763460495e-05 -0.9671977418276002 -0.015350605630379639
4.022285714285714 -0.8647888384126429 0.12382957652755858 -0.0004495841001220667 -0.0009201618297348444 -0.00011327808744630211 -0.0002024596922109318 -0.9766339028497285 -0.008642381945024095
4.022714285714286 -0.8712028432261941 0.13808742072781127 -0.0001996275152652974 -6.582933415813254e-05 -0.00011319388100741402 -4.175737555394387e-05 -0.9647513906723882 -0.013905296469047462
4.023142857142857 -0.8649176175022667 0.14347143573421617 -0.00017243619388945998 -0.0005011040635461632 1.3005165851521012e-05 -7.122083328986437e-05 -0.9671144636459781 -0.00859634978953602
4.023571428571429 -0.8685568265527593 0.14521209371579025 -0.00017358258806585047 -0.000193984563522149 0.00018840008854365583 -8.396269027592804e-06 -0.9613331563424972 -0.005575868284625323
4.024 -0.8614424770490867 0.1576886307811905 -7.59526798593218e-05 -0.0002552100489111216 0.0002672768117922617 -0.00027558448813498214 -0.9705032591603207 -0.008305903146912912
4.0244285714285715 -0.8666464804401056 0.15983986236970402 -0.00045616944605500714 -0.0005422239758881013 0.00011086592032268503 -2.471235069768686e-05 -0.9712145006977799 -0.002317310636618777
4.024857142857143 -0.8657494978750115 0.1728605348682324 -0.0006061237813133662 -0.0005061461142459993 -9.523867695701068e-05 0.0001583691208147418 -0.9685987597693596 -0.0018652785465775067
4.025285714285714 -0.8645516988306239 0.18077621603605093 -0.00013966609149802879 9.600750973552463e-05 -0.0001347873822673608 0.0002741850742018982 -0.9679005013078164 0.0039032763670587933
4.025714285714286 -0.863833118616818 0.18703831558410747 -0.0003873871338922641 0.0001117776347007545 -2.1520077978688713e-05 9.484162350495458e-05 -0.9767040068118394 0.009962836647595227
4.026142857142857 -0.8660509496401422 0.19234077990979428 -0.00017325841025930423 -0.00021454065174099574 -2.0528834729884434e-05 -0.00015873894426293665 -0.9684837152736582 0.004583280520210604
4.026571428571429 -0.8515109173297221 0.2010740601936825 -1.3856028772091874e-05 -0.0002409356349029574 7.031817268587607e-05 0.00011225058213987178 -0.9739270261707657 0.00805790998121996
4.027 -0.8534368250933315 0.20669054823292538 -0.00037000666429539255 -8.043278542221963e-05 3.10892901634127e-05 7.115426438171158e-05 -0.9691158283729281 0.005598988398163876
4.027428571428572 -0.8593094818626804 0.20984316543883277 3.272354722459404e-05 -0.00011711086028938413 0.0003532171047670287 2.6208435853575234e-05 -0.9662223465194616 0.015120386359978233
4.027857142857143 -0.8531228885741843 0.21578182416929104 -0.00036126084062289553 -4.806394171241875e-06 -4.8601445569289e-05 0.00012032150618160068 -0.9752260402083723 0.011722016693453763
4.0282857142857145 -0.8520599575631456 0.23182723029130034 -0.0001675533395924424 -0.0005724201078240187 -2.494714477086535e-05 -0.00013825117959751016 -0.970088828851862 0.022427680329667875
4.028714285714286 -0.8555270318708286 0.23011863329531507 0.00017754367413392482 -0.000475745484246856 -1.883944466913057e-05 0.000301124908629696 -0.9697827467723872 0.01326048585951344
4.029142857142857 -0.8498425070995927 0.24329778466108415 -0.0005330700344817638 -1.9814975075782063e-05 -0.0002912204486386524 9.833363269111723e-05 -0.968098338171924 0.023055552121655904
4.029571428571429 -0.848811542099635 0.24538363124999044 -0.00042624852887032037 2.3418439896096212e-05 -9.811836070888397e-05 0.000181998989820268 -0.9642324044445012 0.02039203446635787
4.03 -0.8411924086751214 0.2538858190426186 -0.0006428888192581685 -0.0002032571695022012 0.0003460368502838334 0.00017660090368245876 -0.9718365890472223 0.03387518629553426
4.030428571428572 -0.8422688187800126 0.26383644685273894 -0.00038190397131500055 -0.0005132367415062436 0.00014495204057404088 -0.00046985531927207485 -0.9684547391430708 0.03017989062490402
4.030857142857143 -0.8440778275988202 0.26750979122271384 -0.00013374291285561362 -5.627730205267204e-05 0.00028740271197180397 -7.424615802965739e-05 -0.9719591688044383 0.022604409953860066
4.031285714285715 -0.8347449352780588 0.27653588441563487 -0.0004938014864369159 0.00019090970144356928 -0.00037588418887928433 0.00030872691132676703 -0.9667597139415164 0.034133623898711635
4.031714285714286 -0.8311598053332017 0.2773322392274048 -0.0006553234276223582 -0.00018470160219164999 5.207424916296033e-05 -8.678952963488174e-05 -0.9650200325778651 0.026016964206581117
4.0321428571428575 -0.8281742871219542 0.28884006941687396 0.0001807899385079392 0.00010178122090797112 -0.00010248522628732756 6.365975385851475e-05 -0.9714636288852568 0.03395602407634317
4.032571428571429 -0.8309438469386258 0.2962514603249667 -0.0005167220836202686 0.00017396688014755212 -0.00010177376629045045 0.00043035790995341863 -0.9658985469848316 0.044569709279374314
4.033 -0.8302245108006547 0.30072811153752194 -0.0007049790632932077 -9.394911935627082e-05 6.893622203086999e-05 -0.00014803782170887022 -0.9659933831936275 0.044915102160227795
4.033428571428572 -0.8326042709242661 0.31138952811628 -0.0004475542000646437 -0.0002598367697328841 -4.083195703837389e-05 -0.00023120613142815262 -0.9636565739596938 0.03774496296528335
4.033857142857143 -0.825260930337689 0.31720726684602474 -0.0006192714783614789 6.610551018151242e-05 0.0001843070260514443 0.00021497502034724327 -0.9646911036700354 0.04490248266192906
4.034285714285715 -0.8181873875325711 0.31972369076110113 -0.0004415734347492615 -8.861113003365538e-05 -8.642635939529816e-05 7.057463257097174e-05 -0.9635145510596166 0.0429187287133935
4.034714285714286 -0.8122898714465511 0.3338962349713268 -0.0006696980265297937 -0.00044057058461752685 -0.0003888902140464641 -3.0048188919548914e-05 -0.966252087844467 0.05290597507331587
4.035142857142857 -0.8131715430177217 0.33851220467330817 -0.0006987562427387643 -4.042952551350508e-05 -0.00012525969092162226 -0.00010080756736066902 -0.9677978982375138 0.05113256125179439
4.035571428571428 -0.8073141632683528 0.34519146274752255 -0.0006263281050678894 -0.0002288471718584878 0.00015087373471018683 0.0002166575981411405 -0.9684734294260143 0.05789972085106198
4.036 -0.8038394305441435 0.35440235784647034 -0.0005262603979572535 0.00022569127315018498 0.0002838107076469135 -0.00023670800773198869 -0.9702366618083963 0.056173491078408855
4.036428571428571 -0.8125494654469365 0.3523958771559516 -7.697231719248085e-05 0.0003457586093467008 0.0001544056123157098 0.0001756688356466079 -0.9695580165202023 0.05199204794319194
4.0368571428571425 -0.8024247265846758 0.3634598272909961 -0.0004953452660284674 -0.0002842221829640464 0.0001708339833079548 8.153293298631812e-05 -0.9697371486043486 0.05464859834896617
4.037285714285714 -0.7970694444022596 0.3712912275246919 -0.0005474759314169842 -0.00019148077737968547 -7.515301086264216e-05 -0.00014352835943679795 -0.965318958363388 0.05758948859099729
4.037714285714285 -0.7941641960293072 0.37198575952045193 -0.0004687797234510109 6.575834802423888e-05 -0.0001451836862339224 -3.0451830342775363e-05 -0.9714322247376626 0.054999554937376426
4.038142857142857 -0.7903030838476994 0.39199583965017076 -0.0007231654881606702 -0.00023488787588134486 -8.003343791591238e-05 -0.00016516610052306414 -0.9637166844425884 0.0636665726287334
4.038571428571428 -0.7928364500802942 0.39034460907677637 -0.0004439425209567679 -1.5314650641086448e-05 0.00016688434056593663 -0.00039703023888876216 -0.9611550153603927 0.06564778448277543
4.039 -0.7855932187849871 0.39278575287836365 -0.0005500191345503162 6.488672181827248e-06 -0.00029620852797706827 -1.9309823159763156e-05 -0.9594735193641966 0.0638947243985963
4.039428571428571 -0.7806740592748356 0.4123816881764663 -0.00018159591502014778 -0.0001508030533339039 7.341031047675931e-05 0.00026161030446478244 -0.9652522395960826 0.06930905035419448
4.039857142857143 -0.7822006787586779 0.4090395172446223 -0.00041850874356027964 0.00024022052256477967 -2.2174234156625406e-05 0.0003474190660353457 -0.9695364840208646 0.07205380688515275
4.040285714285714 -0.7783081180986098 0.4104473205711304 -0.0008189900722832002 0.00023330050258317287 0.00014467854165163636 0.0002722775965026 -0.9630798115819686 0.07670319677395819
4.0407142857142855 -0.7779152136042581 0.42269200957028114 -0.00044296014366912743 2.9247312176245655e-05 -0.00023023197229749605 7.434897260267109e-05 -0.9595444875448447 0.0757114146223041
4.041142857142857 -0.7650548865743815 0.4272041631393398 -0.0010288810093923627 -0.0001182225686717206 0.0001827613443132145 -0.00015398015571897516 -0.9681333666921592 0.08478603638902563
4.041571428571428 -0.7635822733343154 0.43586855047619394 7.486257060996439e-05 -4.934613606921804e-05 -2.2776996519962326e-05 -5.852372774878607e-05 -0.9649317154141213 0.08515020713829399
4.042 -0.7611548258174317 0.44300261240144656 1.1395954539653545e-05 -0.0002703515538573743 -0.00013677520832489404 -9.67276143690492e-05 -0.9620548571985928 0.08979007958183158
4.042428571428571 -0.7561335911012435 0.4474623528748132 -7.19067164590658e-05 -0.00011012308209162288 0.00017239254052379545 2.6800864976325067e-05 -0.9603780889263458 0.09248114378983113
4.042857142857143 -0.75605152601013 0.4434193482688548 -0.0003921724206545076 0.00021738352951412003 9.736060615775938e-05 0.0001672502309780035 -0.9651092542306638 0.08733000888456884
4.043285714285714 -0.7486264297192926 0.462289669266883 -0.0011274715979879843 -4.2498561232547454e-05 -0.0001338868284726254 1.398370835642584e-06 -0.9636227906205787 0.08542718529537188
4.043714285714286 -0.7426429703800764 0.463105193919922 -0.00025984503596142067 0.00040237211584273364 4.938173977083955e-05 0.0002581874329478404 -0.9671657535374094 0.08342708080519731
4.044142857142857 -0.7436810149939594 0.4734609099888973 -0.0001742117123149131 0.00028528350481916385 -4.204035599673057e-05 -3.8784118194490795e-05 -0.9625152720998083 0.09669630879086469
