!Created with skrf (http://scikit-rf.org).
# Hz S RI R 50.0 
!freq ReS11 ImS11 ReS21 ImS21 ReS12 ImS12 ReS22 ImS22
4.0 -0.8420359365631026 -0.24956730696302987 -9.00605739446921e-05 -0.00012358283496184756 -8.61929268184819e-05 -3.793626713591784e-05 -0.9639099364216945 -0.12988891459426924
4.0004285714285714 -0.8487794704753754 -0.24359372080343997 -0.00022658592703011517 -0.0005431822672226767 0.00010725449794443972 -0.00013403552094503362 -0.9695321169112684 -0.1216903195366725
4.000857142857143 -0.8529589339429522 -0.23182466471943308 0.0002607980555348614 -0.00020795012975953725 -2.012462183018277e-05 -0.00018256662277455423 -0.9671113750957658 -0.11591050443889618
4.001285714285714 -0.846492721740925 -0.22835546656141698 -0.0002571423971614774 -0.0004529392869184187 0.00014582217678688509 2.5818394841132025e-05 -0.9639896220107425 -0.1145923451003263
4.001714285714286 -0.8539060160733617 -0.2189461333169863 0.00020349275126045122 -0.0007877172675828988 -0.0003817926255442612 6.880695586503665e-05 -0.9658787758891441 -0.12126275498406143
4.002142857142857 -0.8525975941909242 -0.21888518387003386 -0.00015067820796350648 -0.0001344074234675036 -0.00010627316917827171 0.00014343506703699433 -0.9637763977339494 -0.11126641427577376
4.002571428571429 -0.8547249107228512 -0.20873926542448518 6.732882233039833e-05 -0.0009152906518248018 -0.00011781330747591797 0.00016455042418660624 -0.9709819466470618 -0.1063547685438549
4.003 -0.8598147046359625 -0.19789487017908333 0.00011504221767783617 -0.0005751540645322681 0.00010325811686750952 0.00011882763715398149 -0.9697302861388913 -0.10368413659757204
4.003428571428572 -0.8625307306950536 -0.19563741752808 -0.0003068406352033515 -0.000477692437731564 -0.0002387332448632652 -0.0002495336498556343 -0.9628309395713527 -0.09848828060865938
4.003857142857143 -0.8569095609883827 -0.18523573560617118 6.151318939222202e-06 -0.0006305621418387968 -0.00012197364818050888 2.8465437631222953e-06 -0.9699333035162426 -0.1088523473322147
4.0042857142857144 -0.8688203857645992 -0.18008695852734782 -0.0003959794512507455 -0.0005101535955525611 -0.00015721246490901382 -0.0001591696006635094 -0.9654896191302692 -0.09924770630667651
4.004714285714286 -0.8633769372713337 -0.17037422998627336 -0.00011700924957661875 -0.0008022737643527714 -0.00013804068538568188 9.077519963953979e-05 -0.9595835461339205 -0.10624462398444022
4.005142857142857 -0.8670090965334707 -0.1615483509616674 9.37764692930735e-05 -0.0003529394088755919 -0.00013401043432707455 0.00025178394932578654 -0.9682000837072708 -0.09527316853574035
4.005571428571429 -0.867093186919695 -0.1573749989585465 -7.974003166336585e-06 -0.000508091724392133 -0.0001145001737188852 0.00023555138057670616 -0.9608729845346253 -0.09484941362258532
4.006 -0.8704986861851204 -0.15263461744752183 0.00012879857755680157 -0.0006721571144603875 -0.0002763277776087858 -5.4429443763825156e-05 -0.9709243914791377 -0.09338586706023332
4.006428571428572 -0.8688140224506664 -0.14761154689897818 -0.00028815820571342644 -9.528060190512716e-05 -3.363594937578445e-05 -2.2168208022838825e-05 -0.9681813432689681 -0.09280915283400523
4.006857142857143 -0.8747205975382669 -0.13616563804557114 -0.0002596440331494042 -0.0004027206039764285 0.00014563164618946038 -4.388221938552702e-05 -0.963786669727823 -0.08614763246121392
4.007285714285715 -0.8762621718724961 -0.12828268951159572 0.00010294484586276958 -0.0003925222014664336 2.806905174866446e-05 -3.1387228105597354e-05 -0.9687216057471602 -0.07916699401696807
4.007714285714286 -0.8742382438727574 -0.12362378602613415 -0.00031401925069224763 -0.000456432055302265 -1.4251677540317763e-05 -0.00014095966578507826 -0.962989560270268 -0.08062305918169901
4.0081428571428575 -0.875573308373612 -0.11982139893561691 -3.405388573202232e-05 -0.0005163274518094268 -0.0001328094427158637 6.175880982276245e-05 -0.9673055025983334 -0.08792151926338396
4.008571428571429 -0.8770526174376664 -0.10692040477354676 -0.000238728657356179 1.4940229422206131e-05 -8.252500462060922e-05 -7.475980816641509e-05 -0.9619926829369633 -0.07806541724325829
4.009 -0.8782288863105809 -0.09968722601836355 -0.0003087954182619952 -0.000439033592779239 9.868980890020076e-06 0.00028429276704801816 -0.9749464019283868 -0.08430844237564056
4.009428571428572 -0.876370123435207 -0.09797037431392468 -0.000486447496818673 -0.0008887259934147369 -4.449343699178096e-05 -0.00017427063437860382 -0.9771099793363299 -0.07543848627879295
4.009857142857143 -0.8804923598014583 -0.08625706951952397 0.00023929385014456785 -0.0006498110177286996 3.3784438033985745e-05 -0.00012292510583339006 -0.9670063707976885 -0.06836374703379353
4.010285714285715 -0.8828413887210271 -0.0798887302349383 2.5211322787659835e-05 -0.000573849197606706 -5.133338698850299e-05 -5.882638306594642e-05 -0.963767564906192 -0.07277529732788496
4.010714285714286 -0.880826614201797 -0.0742634973302242 -0.00019812553225126818 -0.0004246331250005831 -9.549841245858892e-05 -0.0001184713381437362 -0.9685275267073711 -0.07021716887369708
4.011142857142858 -0.8784357421345443 -0.06932834614920373 -0.0002769560629074614 -0.0005388699475671974 -0.00013170454354913532 0.00013379714501523922 -0.9698003401711089 -0.06381362172047429
4.011571428571429 -0.8773461617000823 -0.05489681486625251 -0.00030770739684452854 -0.0003515381524965911 -2.52643796670738e-05 -0.00012665337912592072 -0.9699469893529733 -0.06575448547592294
4.012 -0.882660555038646 -0.05256139718198475 -0.0001666620580176876 -0.0006361264345882044 0.00019722373179488948 9.673854282650682e-05 -0.9742846516764991 -0.06395985644584157
4.012428571428571 -0.8803374661794184 -0.043537968003635664 8.27724035037293e-05 -0.00031780373020671884 -4.661548338999695e-05 8.79575411348128e-05 -0.9612332722904513 -0.054500563593577654
4.0128571428571425 -0.8873092151329652 -0.0323138709139826 -0.00015524049172146708 -0.00044516495202440225 0.0001907442545868684 -0.00026194214869860555 -0.9660142914152944 -0.06210552621807782
4.013285714285714 -0.8791139108614483 -0.02981187898902133 -0.00014786249461407248 0.00013211414034543863 0.00021147026465354458 -2.0575806787839985e-05 -0.9619475743792515 -0.05894737346549616
4.013714285714285 -0.8798141456318117 -0.019588025113801418 -0.00033566795254604524 -0.0002752665278770509 -1.0495894461775265e-05 0.0003870242051132497 -0.9746512519829915 -0.05163589485924025
4.014142857142857 -0.8786500682674809 -0.012237037010553942 -6.571595304338174e-05 -0.0006221477775413233 -7.964873449912673e-05 -0.00023850912437759254 -0.9705538857007117 -0.04474728050433988
4.014571428571428 -0.8778436709067531 -0.010439764259227071 -0.00011925030434096858 -0.0006855044236206865 2.1717569437860708e-05 6.679063932181237e-05 -0.9706764120341591 -0.05050871030617653
4.015 -0.8893880554529415 0.0006209996569710674 -0.0001831908521693479 -0.00013289499800480387 0.00015992598576604038 -3.090687681484352e-05 -0.9664899793675805 -0.049515492541994145
4.015428571428571 -0.882763968200433 0.012127892680270286 -0.0004895912224908075 -0.00015734781808826988 -4.727635868445986e-05 3.190001417852943e-05 -0.9710353519760387 -0.05013913518138022
4.015857142857143 -0.8819576993635153 0.018066118108265607 -0.0002664851449256693 -0.0009447238079708297 0.00032922892591544836 5.787983085587555e-05 -0.9700970029532479 -0.04659305139178658
4.016285714285714 -0.8824076679721887 0.024827643125935786 -0.00034363534910030147 -0.00011392073124546752 1.94958593382177e-06 0.00018336967126861376 -0.9653813744320974 -0.0415546645862037
4.0167142857142855 -0.8811961899764329 0.030043517747772912 -0.0001847981327337747 0.00011558320304249157 0.00018285239635054104 -0.00012153978764456683 -0.9638700077468552 -0.04905117346132401
4.017142857142857 -0.8788748946533322 0.041088421941821364 2.974272003527998e-05 -0.00013077262728935693 5.942908548146182e-05 -0.00016763805678099184 -0.9620945945710875 -0.04042094011225625
4.017571428571428 -0.8834418798169763 0.04427213501852337 -0.0004952845694281129 0.00019234477750512858 5.283523015195463e-05 1.8858944517117796e-05 -0.9722135819587832 -0.04046731977016067
4.018 -0.8794555316562646 0.0505462051250669 -0.0005171914007820506 -0.0003398906565023581 -0.00032282220381622936 -0.00024472208617472757 -0.9695549544851346 -0.03860428121105118
4.018428571428571 -0.8820781009794187 0.06008958302220692 -0.0001841719861284582 -0.00025249743744953484 -0.000352451336151037 0.00017340784205764626 -0.9713850622025536 -0.03323821139768414
4.018857142857143 -0.8747711627451967 0.06946299576359449 -0.0003393829179913444 -0.00030819113250425256 7.648550665275291e-05 8.763671762788543e-05 -0.959169549442226 -0.02462035925858112
4.019285714285714 -0.8741244943147477 0.07829438527314585 -0.00010696270662011322 -0.0004489288117749862 -6.154141483227426e-05 -5.987463816924021e-05 -0.9706727612701679 -0.030105937821864194
4.019714285714286 -0.8789921295953671 0.08479971001367735 -0.00011618897844160456 -0.0006860105880383481 -0.0002809634980040913 -0.00016217661926698113 -0.9626913502161628 -0.026393890801752178
4.020142857142857 -0.8796105531289253 0.08862980924497174 -0.0002028461412890896 -0.0007324330870614349 -0.00010122186386097025 -0.00012551772391229294 -0.9685469641402386 -0.024284383627562467
4.0205714285714285 -0.8766309696298569 0.10351757300723027 -5.616998207006448e-05 -0.00030725538214799634 -0.00026028777432548903 -2.8069022752800866e-05 -0.9680966010095116 -0.026599076867910295
4.021 -0.8746574370968352 0.10220991221774597 -0.0005099670765228808 -0.0005309122050568202 0.00017598145559986496 0.00015181316643503816 -0.9649921370083391 -0.019056306157530598
4.021428571428571 -0.873414235446828 0.11478879129430895 -0.0007554000048960732 0.0003249776560011653 -0.00037230766151772704 -0.00012281319149031215 -0.9696267480468761 -0.018971295158363953
4.021857142857143 -0.8752756604957213 0.11887549204003373 -0.00011881943737660916 -0.0001767327149699092 -0.00011786574996227524 -0.00011094066068940026 -0.9678618821064655 -0.018478789371544783
4.022285714285714 -0.8671971709361617 0.12150820324204738 -0.0004252738262727929 -8.337014299404744e-05 -0.00011653436559253217 4.006124742397054e-05 -0.9727089243992021 -0.009626147062290364
4.022714285714286 -0.8732373108401985 0.13870166079753707 -0.0003721743596414082 -0.0002888715252587174 8.281259206581007e-05 0.00023214860332793224 -0.965926537126246 -0.013794615648978933
4.023142857142857 -0.8681056524759516 0.1428834996229626 -0.0002483567953503067 -0.0005129168290063398 -2.092235000055763e-05 2.7083225228709043e-05 -0.9654988749091099 -0.007239296276886703
4.023571428571429 -0.870136653625868 0.1452234428897797 -0.00023709948447953996 -0.0003433861088015351 -2.5995787596352856e-05 8.455656377645629e-05 -0.9601904444764194 -0.005130723721838735
4.024 -0.8638095166372716 0.1560869211562155 -0.0006238440169252716 -7.96203331497568e-05 -9.974921043436333e-05 9.18568560115672e-05 -0.9717822731027077 -0.006123851057576616
4.0244285714285715 -0.8664355925638056 0.1620294558491331 1.1030661358918134e-05 -0.0002500626773528535 -0.00022326423946195939 5.867982394833616e-05 -0.9700605891321924 -0.001381555687491134
4.024857142857143 -0.8668464483174554 0.17209697031773372 -0.0005126327209897578 -9.122335556358224e-06 4.434673363858194e-05 0.0001208281519234625 -0.967355900328985 -0.0021295347717558955
4.025285714285714 -0.8661965680224489 0.1804072345064917 -0.000488140786541603 -0.00016321050228243828 0.00024485305493803145 -0.00028266458834968984 -0.9659092775624567 0.002758481422860741
4.025714285714286 -0.8636942732356833 0.18556714076369038 -0.0003368466393108945 -0.00012767031737270803 4.63657909765951e-05 0.00017956852221184214 -0.9756873934178839 0.010406482850619753
4.026142857142857 -0.8665729598879799 0.19294064564632216 -0.0002206381682829174 -0.00021883581564414355 -1.7544491061840117e-05 -7.014017760561458e-05 -0.9709089279469637 0.004014522123274648
4.026571428571429 -0.8521494313408864 0.20084911934650954 -0.0003451891751108787 5.8790009620201647e-05 0.00015811420623853617 -4.64088607935186e-05 -0.9751626804847585 0.007583387534102181
4.027 -0.8562307654096657 0.20625193125839755 -0.00041199830260210744 -2.55641214253835e-05 -9.501049843516761e-05 -0.0001309193766737436 -0.9694807319689563 0.005348120132110191
4.027428571428572 -0.8598957428832504 0.2087578671452656 -0.0005136027006587314 -0.00035720389784849065 -0.00015582882796718947 -0.0003604112955053115 -0.9660980219649015 0.01840785278888803
4.027857142857143 -0.8542192872195855 0.21608054288286882 -0.00025670549678003657 -0.00015062077772515033 -0.00010706908207214171 -0.00018582221693885418 -0.9734788120377046 0.011545592771512219
4.0282857142857145 -0.8542033516257881 0.22984726206048411 -0.0006022013282478437 -0.00015538259399081034 -0.00011065603186975677 0.00018048235748845473 -0.9718108153858414 0.021201366597465306
4.028714285714286 -0.8579271932681786 0.22951527210103448 -0.0003638415681414415 0.00023670743462911062 -8.462723812697845e-05 -0.00018240006828357616 -0.9677239939046188 0.01470165063138112
4.029142857142857 -0.8509223579489444 0.24401762030418517 -0.0005376197561594824 7.768575235752754e-05 0.0001636191821833894 -4.066648276290832e-05 -0.9649430901881594 0.024000826605727568
4.029571428571429 -0.848674538234504 0.24518225394246546 -0.000912017979434023 -1.9331584166167802e-05 0.00036200654457700426 5.6646576852687057e-05 -0.9628018341082466 0.02110500893495371
4.03 -0.8449165551082063 0.2512705503656792 -0.00036846249761197936 0.00012191017893477408 -0.00010339365792351366 -4.857012045969415e-05 -0.9726408836899834 0.03238918394701115
4.030428571428572 -0.8435304006543186 0.26339048804790316 -0.0004954112775824009 -0.0004133496619527165 -5.401337762295045e-05 -0.00022824955929841862 -0.9684859474231058 0.028449746283570734
4.030857142857143 -0.8462304369278923 0.26661132820687966 -0.00014848120278975247 -7.502603854560106e-05 0.00019538151280993604 -0.000162213191741926 -0.9722815371017658 0.024205656027691008
4.031285714285715 -0.8367689965084495 0.27698243607157963 -0.0002990483651023158 1.9702404348973685e-05 6.199302935232713e-05 0.0002168424556687184 -0.965636524810598 0.034850115270246305
4.031714285714286 -0.8344810158033993 0.27697096490849143 -0.0006269479474889496 0.00019409208815416643 -5.1714356016583164e-05 5.4852295263788106e-05 -0.9649645147510694 0.022738125930816196
4.0321428571428575 -0.830720231783916 0.28923458045433637 -0.0003740136957630328 0.00022609593447784452 5.508767795184487e-05 0.0004063465478636869 -0.9725636430776536 0.03578074916462486
4.032571428571429 -0.8326399975075558 0.2957837390821743 -0.00042485099935891257 -2.574870870833891e-05 -0.00011776767220086146 0.00018427454151756539 -0.9654097166102189 0.044729776886336
4.033 -0.8311602996114688 0.3016634973586742 -0.00041296211480827655 -0.0004794019990625012 7.738098336764608e-05 -0.00026281602403475403 -0.967183306760016 0.04566428001101474
4.033428571428572 -0.8349992545630869 0.31076780562357803 -0.00045079008066110834 0.00016930882277147572 -0.00011429273647916797 -0.00029726100260932286 -0.9622317307762244 0.04125092992239898
4.033857142857143 -0.8270449409571073 0.317970481027898 -0.0004727717546038381 -0.0003476841444399299 0.00013412399842555191 -1.4417702337470454e-06 -0.9625093863326618 0.04557561807646634
4.034285714285715 -0.8201277236139463 0.32276773085736504 -0.0003705167575278754 -0.00020835865584209562 -6.056322129420003e-07 -0.00013455408587872958 -0.9655593611319742 0.04382932387609029
4.034714285714286 -0.8132452713596878 0.3339848361414578 -0.00041490240270639783 0.0002278632355595464 8.323845785856324e-05 0.00018441301813525542 -0.9676944887234817 0.05158874955963109
4.035142857142857 -0.8140948540402835 0.3363676255493413 -0.00030274811144060987 0.0002833084118545245 0.00021742688847495144 9.092863977154357e-05 -0.9689899408320071 0.05289479013721196
4.035571428571428 -0.8079002784039347 0.34527104975085876 -0.0001744073018329472 -0.0004067362418635197 0.00019040712312694757 -0.00030529739489011063 -0.9679734168504918 0.05612639772409671
4.036 -0.8058834071431595 0.3544411637202522 -0.0007511378444001665 -2.0129102196015932e-05 -7.971684013633571e-05 -0.00010107557428347244 -0.9693354488592296 0.05605967417039388
4.036428571428571 -0.8140078560854972 0.35136167008100144 -0.0001964741552675899 0.00022006785400564705 0.0001967789400656918 0.0001053813236072668 -0.9701761585427904 0.05276126653487275
4.0368571428571425 -0.8061332237250534 0.36386693756840843 -0.0004748379103262967 0.0001774046177808062 3.9579822262118456e-05 -6.822053702199498e-05 -0.970300313434197 0.053348063504078856
4.037285714285714 -0.7973068951674237 0.3727172113816209 -0.0005258262573131905 -0.0002229588571563236 0.00010020354175494973 -0.00021508716738656873 -0.9635330900433925 0.05904593260809329
4.037714285714285 -0.7977639936619685 0.37203409441929236 -0.0006182450147368524 -0.00012872032105371657 -2.6240895760635777e-05 0.00025160346201235387 -0.9701376845301967 0.0560246460345676
4.038142857142857 -0.7931542226019579 0.39282574796166964 -0.00033793397465544035 -0.00020640830533109173 0.0001568348262642508 0.0002594530195348736 -0.9618232150148368 0.05907345591784994
4.038571428571428 -0.7930576363891225 0.39100322642115287 -0.0006408008020686023 -0.00046122253278556763 0.00014031619657643132 7.49500850349256e-06 -0.9597105930604191 0.0678991441153768
4.039 -0.7902965143597812 0.3955442416729387 -0.0007094804209435151 -0.0003402283069991092 -0.00030131977914733116 0.0003545118314752859 -0.9595972816557343 0.06518822219171498
4.039428571428571 -0.780635334692565 0.4125324527558081 -0.000716833494173231 0.00017481737791213265 -1.1581536304371135e-05 4.742954308182232e-06 -0.9640518984472507 0.07165036157536418
4.039857142857143 -0.784781195214107 0.41178228164554165 -0.0009618936976687864 -9.07352093983781e-05 6.719774900024035e-06 9.876393570601216e-05 -0.9697932204642365 0.0703724110222614
4.040285714285714 -0.7799198575233914 0.4095950000041702 -0.00041456376953797177 0.00027292162006040707 -7.060045690938519e-05 -0.00025318039817772987 -0.9626147950941518 0.07646998120160597
4.0407142857142855 -0.7806204457172409 0.4238285926479436 -0.0004311419425378652 -0.0003052166416997544 0.0002451646371366119 -6.735205624597262e-05 -0.9583540954111835 0.07665553722686738
4.041142857142857 -0.7666074085887667 0.4282134697742832 -0.000701651494266147 0.00011061547993662782 -8.616065397273855e-05 0.00011712740573501125 -0.9683082803319477 0.08707705781988362
4.041571428571428 -0.7658163185852402 0.43338612842196444 4.3311703317961676e-05 -0.0005477904835208154 -0.00017629822270820558 7.336375731663737e-05 -0.9653048283346111 0.0821287781236612
4.042 -0.7619345183345376 0.44554254894690437 -0.0008658561637645897 0.0002250479521346253 0.0001247995171473654 -0.0002209755568891107 -0.9626842348743341 0.08989364491002656
4.042428571428571 -0.7589141515093437 0.44908900167489374 -0.00032483605806382816 0.0002800424176608647 0.00010908272971800516 -4.037852592261098e-05 -0.9601048674456999 0.09224464172222478
4.042857142857143 -0.7577807663669321 0.44592048983041577 -0.0004030609372751562 4.634506440933324e-05 -7.013214833783123e-05 8.60126759369593e-05 -0.9632038691741022 0.08844611578683352
4.043285714285714 -0.7512218335508573 0.4633001681686243 -0.0004466371788891983 0.00024010018049888736 0.00016591531814030177 -0.00010465264759620137 -0.9648529053987557 0.08617472476875401
4.043714285714286 -0.7454897399524351 0.4635068091320471 -0.0007562458649856455 0.0006169104369846094 0.00020169406714704786 -0.00020035693542751044 -0.9657629652261696 0.08277368453597911
4.044142857142857 -0.7444803547012621 0.4734529696312028 -0.0005017300990764361 0.0006376162087969029 0.00011908670517369726 0.00021771735952493364 -0.960634491438513 0.09713781459977999
