!Created with skrf (http://scikit-rf.org).
# Hz S RI R 50.0 
!freq ReS11 ImS11 ReS21 ImS21 ReS12 ImS12 ReS22 ImS22
4.0 -0.842262705694417 -0.2471747818542897 1.5633265331130515e-05 -0.00038451265020257163 -9.47115016079468e-05 -0.00014970780722128066 -0.9627052609874427 -0.13017553021434675
4.0004285714285714 -0.8495880795496951 -0.2392779918820015 0.0001448243255862995 -0.0005136918939859499 -4.658479114282435e-06 6.969280118740514e-05 -0.9704481758886331 -0.12330179166005306
4.000857142857143 -0.8528258496337069 -0.23150937639380476 0.00012960873309983902 -0.0001319700958058313 0.00019254547564748656 0.00038524332381379697 -0.9669588795084741 -0.11464285319402695
4.001285714285714 -0.8462990134638512 -0.22589771102769055 7.471623302900916e-05 -0.00019586587829523456 -0.0001832954391543608 8.22254501751048e-05 -0.9620013412538192 -0.11623049964350486
4.001714285714286 -0.8531969468985211 -0.21794110371878722 -2.442032157061423e-06 -0.00047286388732526314 5.517500357723398e-05 3.34890432616607e-05 -0.9669292680401761 -0.12029512560421164
4.002142857142857 -0.8509202322620971 -0.21687505697586779 -0.00024253952085228624 -0.0002355823672591229 0.0003244660550509479 6.08791694337419e-05 -0.9651863328471846 -0.111772025707177
4.002571428571429 -0.8561017671206462 -0.20686253544194588 9.676991079412879e-05 -0.0006498458859678396 -1.2192486125678656e-06 -5.508961864984483e-05 -0.9689131874435486 -0.10629784092423916
4.003 -0.8591675590230502 -0.19708561709976027 0.0001588948368073082 -0.00023563264942457783 0.0001807004916662382 0.00025260616529208384 -0.9694859556537258 -0.10345796199676607
4.003428571428572 -0.8621982257852301 -0.19272669163551306 -2.7801659910723844e-05 -1.961043671877783e-05 -3.655735847382042e-05 0.00019033983383286163 -0.9632913893880084 -0.09702268664832123
4.003857142857143 -0.8584358613859036 -0.18391508995304576 3.4941324343046625e-05 -0.00040735932778993223 0.0001198129196169396 1.4986186721065664e-05 -0.9716922364158074 -0.1083906370265199
4.0042857142857144 -0.8690198213545484 -0.17653903501006954 5.8038264746547014e-05 -0.00039740588422323286 5.020660610647751e-05 0.00016597983075997673 -0.9650852160433828 -0.09787595139730544
4.004714285714286 -0.865077069585099 -0.1684435441837009 -6.882172326660501e-05 -0.00039633340415646574 9.855874322156001e-05 0.00014724532235476325 -0.9600743007543039 -0.10707693035217644
4.005142857142857 -0.8659026007730403 -0.15890773038811667 -6.822726735613724e-05 -0.00024299029328350081 0.00034520193111618774 0.00014362353018857146 -0.9682287050891024 -0.09558726351198617
4.005571428571429 -0.8663266802583925 -0.15315996337967588 0.00021243730234328905 -0.0008331441329186049 -1.9030392172996287e-06 -8.737443303399354e-05 -0.959466585055111 -0.09356082833188374
4.006 -0.8690557229194746 -0.15057497300708408 -8.093542342121732e-05 -0.0005025670854170458 0.00024797752697877065 -0.00013023552864222762 -0.9713029214077618 -0.09239655340559041
4.006428571428572 -0.870083602470608 -0.14613272616358136 -5.072057269980252e-05 -0.00014158906514278075 -4.874190183666611e-05 -0.00025563212903060645 -0.9681945725510798 -0.09153752235732214
4.006857142857143 -0.8735928901124369 -0.13266474615902862 6.542567277829764e-05 -0.0005542863483691473 -0.0002534315242884157 -8.880046132095483e-05 -0.9653133859872448 -0.08609244503214783
4.007285714285715 -0.8762225270604906 -0.1268616199287647 -0.0003255643450908823 -0.0003738463274185062 -4.7960314827936183e-05 -0.00010908690854091873 -0.9686823354367191 -0.07816073951479638
4.007714285714286 -0.8734640252787248 -0.1216541889864453 1.8095172638917148e-05 -0.000370805048434519 6.362158348005489e-05 0.0001731994836933569 -0.9622398674755409 -0.0821992962733288
4.0081428571428575 -0.8750536288023454 -0.11754744323308024 -0.0001181723982647736 -0.00043960030132394085 1.262057482141747e-05 -9.551624150166143e-05 -0.968145963527829 -0.08502251822443874
4.008571428571429 -0.8776713495815237 -0.10681157212087723 -0.00012946245611956372 -0.0007470164522097509 -3.930803482494643e-05 8.929012592677773e-05 -0.9647965355737707 -0.07820128892956248
4.009 -0.8787782792043446 -0.09949808823529298 1.995294389442129e-06 -0.0006856516242615123 -0.00012246569335135865 -9.125575882001689e-05 -0.9738810290080279 -0.08568241320754744
4.009428571428572 -0.8762723972589388 -0.09545787030095695 7.481808273404142e-05 -0.00021910874084891127 0.00019987937269212074 -1.9974079872746928e-05 -0.9751320466623011 -0.07606759292189051
4.009857142857143 -0.878739505626199 -0.08453451136371494 -0.0001779613260748687 2.4323407577758037e-05 0.00019652262772895204 0.00013692779558359847 -0.9681345526405392 -0.06717636565231029
4.010285714285715 -0.8806693658828245 -0.07765896428062859 -0.0002933172932975971 -0.00024822878752428057 -0.00029135072790773973 2.0125303440257118e-05 -0.9654105454899088 -0.0724601817106256
4.010714285714286 -0.8818986848849715 -0.07191955883473959 -8.466447811373145e-05 -0.0005896364612198639 -0.00015050537236180835 7.7643773931788e-06 -0.9692256620538678 -0.07015724494360359
4.011142857142858 -0.8763792751302407 -0.06724094566318708 0.00014399474152441513 8.787436526441516e-06 5.3130221795467715e-05 -0.0001531683393360524 -0.971567647518342 -0.06479798994583229
4.011571428571429 -0.8781948787842698 -0.053213911735651286 -0.00011415110446051612 -0.00013301824635907048 7.889653466401379e-05 4.422130209690537e-05 -0.971677796410367 -0.06479433119236436
4.012 -0.8811416655156531 -0.050362358546931704 9.587652354696133e-05 -0.0004503215669631464 -3.9814337728282076e-05 -0.0003404980448611274 -0.977406664420846 -0.0626038064778348
4.012428571428571 -0.8808698282220816 -0.0410968921294323 -0.0006765204713318892 2.5121692066530323e-05 0.00011923053815311389 -3.0637275333853534e-05 -0.9639577438664972 -0.05521514724850218
4.0128571428571425 -0.8882784326707374 -0.03175209026362013 0.00011586473808904947 -0.00010557601083321932 -3.9733867219485744e-05 -0.00011742868907399875 -0.9650628374440499 -0.061885801215650973
4.013285714285714 -0.8753554831696746 -0.028208338609212884 -0.0002274407246396168 -9.98947104510817e-05 0.0002396995921187229 -5.648781708163807e-05 -0.9627514546131504 -0.05716097550730242
4.013714285714285 -0.8801250637652115 -0.01857059467841281 0.0003681563053873463 -0.0002472689596263784 -0.00012446933567440002 -6.743235309157883e-05 -0.9757991715700802 -0.05069718956695384
4.014142857142857 -0.8809830888740848 -0.011459987632275143 -0.00020094935817506203 -0.00013259782928316666 4.424775105503303e-05 -0.00012725456281812857 -0.9710226727312217 -0.04683934406225766
4.014571428571428 -0.8802144881680074 -0.00917688160141201 -0.00016921713292088102 -0.0005167034189876573 0.00021460502336925953 4.03255454216043e-05 -0.9691148299630179 -0.05260171930541311
4.015 -0.8880364103198918 0.0025899859875672974 -5.379712378624647e-05 -0.0004859937767160615 0.00011207200437488542 -0.0002171737961512864 -0.9640239173586307 -0.05029965199538259
4.015428571428571 -0.8829389435877716 0.015557564001284444 -0.0005416085820223464 -0.00046900819990313244 -7.236785521621986e-05 -4.249109338878577e-05 -0.971663039032157 -0.05004240384899198
4.015857142857143 -0.8797644841229837 0.020516950844031188 -3.5909332972814155e-05 -0.0006349768412902831 9.398932322716634e-05 0.00010211276425652982 -0.970231741217253 -0.04559421395637861
4.016285714285714 -0.8813467922712016 0.02551833032661666 -0.0003441614847142514 -0.00043170340759033146 0.00013741375532261207 6.459456146976642e-05 -0.9662185070593023 -0.04173134352746767
4.0167142857142855 -0.8801253907570957 0.03187892426529677 6.194386153354105e-05 -9.467277830586055e-05 -0.00012070928231884904 -0.00024370202241995632 -0.9643039139659055 -0.048383013883141854
4.017142857142857 -0.8785415479428607 0.0412698405908015 -0.00013151054496004036 -8.610879724393224e-06 -0.00015284676339891908 8.138985512758821e-05 -0.9619627785065726 -0.03744348392711607
4.017571428571428 -0.8845169036044699 0.046207633596351376 -9.136301184820746e-05 -0.00033849552292674543 -0.00021392070416265455 7.851246625484934e-05 -0.9728728017270888 -0.040263998231234936
4.018 -0.8771061968239805 0.05274511334698129 -0.00030357092232463124 -0.0010135122893260207 -8.889021296487762e-06 -0.00018181166294274742 -0.96837927457399 -0.04002955460097922
4.018428571428571 -0.8837413190198606 0.06251379562751991 -0.0002530670610205506 -0.00013598569639044488 3.509355199839773e-05 -8.055370256596332e-05 -0.9708253236664582 -0.033736962333339095
4.018857142857143 -0.8764117694681884 0.06872863710342467 -0.0003037291746321884 -0.0005192011704731624 -0.0002805120134368215 -1.869482077964723e-05 -0.9613124698755942 -0.02662954421311152
4.019285714285714 -0.8732534841831046 0.07869353520181666 -0.00013624728673682578 -3.993262320111715e-05 1.8055053420233575e-05 -0.00014066242085327297 -0.9717804112037425 -0.027170884653181328
4.019714285714286 -0.8786181292569557 0.08549312816530535 -0.00023934970898122925 -0.00034270969674602287 -4.874432465413048e-05 -1.3217049124705206e-05 -0.9623962717511649 -0.026984981870272984
4.020142857142857 -0.8770796771025277 0.09059410694131158 -0.00039971000019702274 -0.00034949993941961043 0.00024962647627673476 4.8240772011074696e-05 -0.9683736884818412 -0.024272758137557117
4.0205714285714285 -0.8755476514682816 0.10747417709482762 -0.0006415168959965235 -5.0216304736963435e-05 6.57524095473139e-05 3.725330086141648e-05 -0.9683010716105186 -0.02605853250369101
4.021 -0.8749042644956161 0.10508334033987332 -0.00021573204252650435 -0.00025036012516660547 0.0004152608451147067 9.323086917312017e-05 -0.9658527343389427 -0.02011430347079538
4.021428571428571 -0.872022696668257 0.11546651107514748 -0.00029752464372172747 -0.0004112822713607827 -0.0003894610990255255 0.00013961677037697048 -0.9696148099591648 -0.017919237139152125
4.021857142857143 -0.8739309790853542 0.12002179948623576 -0.0004598276010127333 -0.00021957070296208265 1.8124061845603628e-05 7.227931065613138e-05 -0.9674331545485643 -0.014815532628209279
4.022285714285714 -0.8652882227099377 0.12368040094989859 -0.0007089681049100106 -0.0007095702052404767 0.00011517416232589195 -1.016471461644846e-05 -0.9767441086824795 -0.010066467706363652
4.022714285714286 -0.8725629904979173 0.14088905886170955 -0.00043617381326303036 -0.000312744544856186 -0.0001481517715593256 -0.0001824605981432774 -0.9665368193693158 -0.01367397633550131
4.023142857142857 -0.8681178416233412 0.1442830653488368 1.5582979222107776e-05 -0.00018774030016896584 1.07363664761839e-05 -5.1686069730287055e-05 -0.9662519660736434 -0.006464300773759933
4.023571428571429 -0.8686716072069924 0.14573727478520387 -0.0002644229512263434 0.00013692890297986672 -3.782998333016336e-05 -0.00017168742500875224 -0.9613065929060252 -0.004713345036220483
4.024 -0.8637764182436783 0.15674558312948017 -0.0003962496304148022 0.00010605653705897866 3.1106666644305544e-05 8.564932399008554e-05 -0.9712284490335082 -0.007167687770977529
4.0244285714285715 -0.8677508582629957 0.16158846087569784 -0.00022035107901809367 -0.00030480431365408186 0.00031230399470913694 0.0004299529976690196 -0.9703861055056047 -0.004682480669556797
4.024857142857143 -0.8662679799097422 0.17316039343991743 -9.800602305388525e-05 -0.00018075774944607942 -0.00011801877588142377 0.0002382557692670493 -0.9679323926737813 0.0011965718342344643
4.025285714285714 -0.8666932036373641 0.18178247313042764 -0.0004685148088343586 3.8199113298888315e-05 -6.836612555536624e-05 0.00012103495836682144 -0.9671966351765969 0.003944234000451234
4.025714285714286 -0.8652680615099487 0.18601758806392488 -0.00030393709907824073 0.0001524481792199737 1.8924385464138236e-05 -3.261389694394013e-05 -0.976517487763804 0.009451050770820294
4.026142857142857 -0.8678552619435187 0.19447772751897108 -0.00044733947761577315 -0.0003730637547484665 -8.86800509652862e-05 -4.592080878641829e-05 -0.9693879894121966 0.002758329833283476
4.026571428571429 -0.853554155381613 0.2036714755421354 -0.00030302779137583984 -5.063051302976676e-05 -0.00011669074307196683 0.0005857278222937859 -0.9736339551528403 0.008323096423203636
4.027 -0.8562897577078433 0.2082635065076794 -0.00011660792565358528 -0.00041573891821049036 -0.0002445073197601386 -9.389251949883027e-05 -0.9705087664376599 0.005746822796601285
4.027428571428572 -0.8596198791932191 0.21033434678055593 -0.0003448485873889616 -0.0004758519963582319 -0.0001673453561632981 -0.00012928181785209364 -0.9657194216181288 0.017109179449765935
4.027857142857143 -0.8535621367986532 0.21936023917787728 -0.0006054778571397231 -0.00022462047694355778 5.190096755237127e-07 -0.00013460677350381913 -0.9739916768436098 0.012497792437460135
4.0282857142857145 -0.8529596969276902 0.2332060857571395 -0.00031569053976369314 -0.000224146787905806 0.00043468090160917475 9.445108321041598e-05 -0.9718626119649315 0.02363160644773206
4.028714285714286 -0.8562572898475125 0.23170738922018624 -0.0005446812283809356 -0.00021210100316206351 -5.164158600330134e-05 0.0001089817366817813 -0.9684281886113628 0.014284573112599062
4.029142857142857 -0.8507520086640602 0.2467154434305728 -0.00022485628440075553 -1.0355350623797564e-05 4.201118233025572e-06 -0.00011566696594626124 -0.9679974271493765 0.023643571323756753
4.029571428571429 -0.8499045690666186 0.24824727535133545 -0.0005825687271044575 -0.0004070897329094445 0.0001540857418690543 -0.00013887300697129035 -0.9638663220932177 0.022945501627772452
4.03 -0.8437734870342128 0.2538567836167319 -0.0008804317726211621 -0.00015168025042585807 0.00016524571685748706 0.00016712971631049748 -0.9716124725536803 0.03313976435580974
4.030428571428572 -0.842629114348757 0.2650179579230606 -0.0002807082485465713 -0.0003879038058146907 -0.0002528567237654004 9.688500064199398e-05 -0.9707609684222144 0.029332389308799965
4.030857142857143 -0.8446699841842423 0.26799999536435803 -0.0007016022913321492 -0.0002982853806465988 -5.941492079778353e-05 5.5314730812694804e-05 -0.9724594125603736 0.02324183730572739
4.031285714285715 -0.8364725622442247 0.27824260007336477 -0.00026826100576937326 1.3836468845357607e-05 3.1666244160642304e-05 0.0003606865388272394 -0.9682270041786603 0.035219483962789296
4.031714285714286 -0.8321926453315345 0.2807207991529939 -0.0007105937135933369 -0.00011022516043325774 0.00013183980119967266 -0.0002814414829441417 -0.9646833920360254 0.024963414983253326
4.0321428571428575 -0.8291714006226036 0.2905971314971458 -0.0003152494777663406 2.800827277563968e-05 0.0001455261106914474 -0.0001294136121270406 -0.972068195253326 0.037131892401297946
4.032571428571429 -0.8290194581140085 0.2976851546812455 -0.0009406335663125515 1.8552222702147005e-05 -0.00021066153815407413 -2.9230854561334344e-05 -0.9662988432867827 0.044832257968227845
4.033 -0.830482442277465 0.3032486766900928 -0.0007659258302634987 -0.00010785204219632972 3.983688335789124e-05 -0.0003323640643372923 -0.9646716037786094 0.04777399749226878
4.033428571428572 -0.8331337912869579 0.3117407774015821 -0.0008235659116076897 0.0003614708489159417 -1.2652855704454785e-05 6.51188610741083e-05 -0.9633662575835291 0.03835734495118814
4.033857142857143 -0.8263791221729421 0.31865872605164497 -0.0005579575548864134 -0.0002580001132376567 0.00017396838695550625 2.249835539366344e-05 -0.9617204016203724 0.044124819460584004
4.034285714285715 -0.8173644436124146 0.32406111478151783 -0.00031403519411261357 -6.40380405472843e-05 0.0002841769212963906 0.000221465259349702 -0.9647135841360928 0.04363932364646225
4.034714285714286 -0.8123896739162737 0.3362073794728831 -0.0006495576542866943 6.006903304957514e-06 0.00021710601086811167 0.00021258885676495254 -0.9671168132534655 0.05370716827089321
4.035142857142857 -0.8156454376029773 0.3388428830541089 -0.0005377796022025329 3.548512479172352e-05 8.331464214122737e-05 -7.49355242623569e-05 -0.9667645989505097 0.052750062994154974
4.035571428571428 -0.8070379404821414 0.34610322709800645 -0.0002122505299976937 -0.00010025750134477511 9.773694881328723e-05 0.00016338433533752745 -0.9661642530408814 0.05796692352311675
4.036 -0.8047611218498785 0.3558250922775619 -0.0007241819062235042 2.6791017099331602e-05 2.562338391371385e-06 0.00036559202435733096 -0.9706476927391633 0.05759802923015387
4.036428571428571 -0.8124512556195584 0.3537551462731372 -4.315289391396638e-05 -0.0004268633585521831 0.00016226549434299957 -9.41631767417363e-05 -0.9676581725428504 0.051889065321566695
4.0368571428571425 -0.80434197924164 0.3669039397520865 -0.000375876931790017 8.949569216862092e-05 -2.7749178444339096e-05 -6.324665982643116e-05 -0.9686695214821183 0.053011948193580974
4.037285714285714 -0.7971731086074703 0.3724734088744867 -0.00028627106113298403 -4.909913452583304e-05 -4.349311200137981e-05 2.9203478128480088e-05 -0.9629044929767768 0.061316784280982396
4.037714285714285 -0.7943857528925815 0.3725252150419823 -0.00016733346822464415 0.00025182383904648906 -7.902418900454922e-05 -0.00011195461104881088 -0.9683328827707333 0.05588612385357964
4.038142857142857 -0.7917874065581331 0.3932844090793112 -0.00032479117148112834 0.0001615054934355821 -0.00016224605768702923 8.162827222229549e-05 -0.9624703567066721 0.06367856156761781
4.038571428571428 -0.7909834887183735 0.393037752757035 -0.00017383858292751027 -0.00017191432070694408 0.0002576744655670412 0.00022645568965382648 -0.9600144549790777 0.06706163336718396
4.039 -0.7885769950265447 0.3959703509047624 -0.0007568015008825743 0.0002429204503820544 -8.724864602859988e-05 8.611541115479884e-05 -0.9588593384716669 0.06541293521441774
4.039428571428571 -0.7806402903396462 0.4136997109323 -0.00027933364478878773 0.00028527526957759504 -0.0004614322562452773 0.00032046392254361734 -0.9621485600838818 0.06953170576532375
4.039857142857143 -0.784078318656645 0.412338169557165 -0.0007793139101410101 7.963448255343431e-05 -0.00016491713260642713 -0.00016759288017692802 -0.9690703734052637 0.07190205746211914
4.040285714285714 -0.7783628711696978 0.41279580559567186 -0.0008522548079579122 -0.0004116670315946376 -0.0003815885832076244 7.529274654234557e-05 -0.9624353641871713 0.07663865852487202
4.0407142857142855 -0.7781519275084766 0.4242690700677378 -3.312434889144011e-05 0.00023359693430886915 1.8487551060657789e-06 -7.856764952455192e-05 -0.9591891463675107 0.07660460591845959
4.041142857142857 -0.765799501722446 0.42944241437536795 -0.00011255268890565118 -0.00015399432839874658 -0.0001707228776104531 8.767454892026917e-05 -0.9685609631670792 0.0874443728930614
4.041571428571428 -0.7643773228237465 0.4372940685064063 -0.0004273948779431217 -7.73437487407121e-05 -0.00016855240953695172 0.00014281836219633042 -0.9631677620823266 0.08314377901204406
4.042 -0.7602191713781025 0.445686634844594 -0.00039210021549753317 0.00021667029000208633 0.00015282517909576956 0.00010220092473518093 -0.9617938675757318 0.09002343208259621
4.042428571428571 -0.7553596829691271 0.45057081478238453 -0.0006367980667205019 -2.7352561349600346e-05 1.78862336754519e-05 8.943127486059849e-08 -0.9598484394486783 0.09314407103738175
4.042857142857143 -0.7563171539967997 0.4471076906329401 -0.00017358588321716097 -0.00018327090339287255 4.709687630552999e-06 3.436628068087181e-05 -0.963782910492301 0.08786722186294721
4.043285714285714 -0.7502306593744792 0.46387874252100336 -0.0004957815558215306 -0.0003601550880023429 -0.0002561176843892192 -0.00019434508958980894 -0.9647794491383872 0.08759397409939106
4.043714285714286 -0.7422254064443712 0.46663794285419397 -0.0005887763965157716 0.0003664565665947522 4.561100874882802e-05 0.00011712664222610544 -0.967219881847329 0.08290876675329419
4.044142857142857 -0.7433086757338007 0.4741301488054715 -0.000549076225570856 0.0002266227975823821 8.566493130030239e-05 0.00010430042133943769 -0.9617189684724547 0.09876080444468843
