!Created with skrf (http://scikit-rf.org).
# Hz S RI R 50.0 
!freq ReS11 ImS11 ReS21 ImS21 ReS12 ImS12 ReS22 ImS22
4.0 -0.8484618643083967 -0.2502620354998157 0.0002065747275298003 -0.000554530556246241 -0.00030653206825359986 -5.191242127910826e-06 -0.9631660118139664 -0.12911463772923223
4.0004285714285714 -0.8563993888038341 -0.24538753838229457 0.00039275300129725774 -0.00030089802810535346 0.0004170044656793524 -0.00015229562043373826 -0.9700862577379152 -0.12251653698887095
4.000857142857143 -0.8594586757438675 -0.23476728544464842 0.00032610525783957026 -0.00039514570414076036 -4.352755843778415e-05 -0.00014167654716204273 -0.9676518756682623 -0.1158709711752762
4.001285714285714 -0.8536471710969209 -0.22926899296535258 0.00011797775855373557 -0.00044199295592711236 -9.549446195180477e-06 -0.0003446051607783667 -0.9649762245412667 -0.11606311341629898
4.001714285714286 -0.8604703863440247 -0.22347957016502604 -6.294013037084775e-05 -0.000808498154989655 -4.578891150931803e-05 0.00021730703321205713 -0.9641706356240932 -0.12101732144657387
4.002142857142857 -0.8588822241196709 -0.2216386685825866 0.00019008937812682166 -0.0004605257052854187 -7.436335197922126e-06 -4.252918325635418e-05 -0.9639282119251104 -0.11124627246027587
4.002571428571429 -0.8624250468680242 -0.21104089666687526 0.0005438969369980761 -0.0005780924666238673 0.0002710650729729809 -7.755069000275117e-05 -0.9710099182497367 -0.10623049199324225
4.003 -0.8660389955043309 -0.20020194335134003 -2.0865053013533776e-05 -0.000262811780446208 7.937232743102218e-05 0.00024266220281127712 -0.968891044306606 -0.10549785234152377
4.003428571428572 -0.8691050805815321 -0.1975962913338478 0.0003587301085749789 -0.00041324752800517365 2.8962489769722735e-05 0.0001331460790065172 -0.9625238189781226 -0.09903756460009891
4.003857142857143 -0.8640035616059941 -0.18779647181645462 0.00013263495560494198 -0.00021062038553391955 -0.0001123178810610442 3.643514463639101e-05 -0.9703087724718926 -0.10873102605200896
4.0042857142857144 -0.8766471618337831 -0.1816389318898835 -0.00011086782983164526 -0.00032353842842943836 5.410170357172288e-05 -6.721088362557554e-05 -0.964610305157582 -0.09860045054846323
4.004714285714286 -0.8704592288531325 -0.17200437521509368 0.00016069459120508924 -0.00027350467532722734 -0.00018479259709081971 0.00015717270399949912 -0.9590949076594772 -0.10854863793050444
4.005142857142857 -0.8729755583578872 -0.1638970104165842 -0.0001220353135578396 -0.0003400199940968956 -0.00016724187662430355 2.42134626878229e-05 -0.9685954586919209 -0.09462061384275174
4.005571428571429 -0.872261132742097 -0.159382234818075 -3.350018559732322e-05 -0.0002123900121347052 -0.00011882015046966405 6.0272845439687945e-05 -0.9569224929541693 -0.09518204388578345
4.006 -0.8767381771372394 -0.1537787217301899 -5.5818375307778365e-05 -0.00022472735033220832 0.00024355296015163213 0.00034848296728364354 -0.9716273471799922 -0.09152688749696247
4.006428571428572 -0.8760197555314096 -0.1477506419246376 -0.00025964337165484 -0.00022271802867105157 0.00026640558537306116 -6.653069579192401e-05 -0.9690102731833038 -0.09228760853104771
4.006857142857143 -0.8814743860303983 -0.13759399869559358 0.00023607705068103335 -0.0001484870342000388 2.60554540164461e-05 4.514432340250747e-05 -0.9653957907279402 -0.08681171533678189
4.007285714285715 -0.8833067213260402 -0.13019879369324514 0.0002486526018938381 -0.001018932409329366 7.049185438105301e-05 -4.64934700999626e-05 -0.9694517085262474 -0.0805537046001128
4.007714285714286 -0.8823820476783427 -0.12542318313404502 7.26829822870821e-05 -0.00059874733850372 -0.00018501138600386085 -9.195410862367085e-06 -0.9652881391105335 -0.08206139334674929
4.0081428571428575 -0.8830990150782337 -0.12066180745183021 -0.0004358573171442931 -0.000297321481087002 -0.00024939340110795115 0.00034214765210518875 -0.9690376354844096 -0.08840525303083425
4.008571428571429 -0.8836495606666951 -0.10771010739193031 0.0001818189573438425 -0.0003133970055227063 0.00019587256295852033 -8.429085931285924e-05 -0.9638506618369598 -0.07831087328282521
4.009 -0.8860423408514736 -0.10182898089033623 0.00039278470665091836 -0.00013019600025034078 -3.864435416480054e-05 -0.00024265333453813833 -0.9752990320645086 -0.08430079346221125
4.009428571428572 -0.883090178707558 -0.09845582155140063 0.0001387894066656939 -0.000272936897467267 0.00012975185048663836 -9.915875957586082e-05 -0.978665574085862 -0.07614772699442446
4.009857142857143 -0.8872035073427793 -0.08733032088161329 -0.00036961927540856695 -0.00039903685122390144 -0.00014363822651700803 -0.00022401875225091936 -0.9669814164336472 -0.06893535985818673
4.010285714285715 -0.8890089555398047 -0.08070329608512104 -0.00027145580910568017 -0.00020133190654928807 -0.0001440280686085049 1.5450935499236873e-05 -0.9654152256272264 -0.07201756227634139
4.010714285714286 -0.8887909381053825 -0.0757743160291575 -9.388439699458269e-05 -0.0003163278733251604 0.00027744809188155213 0.0002783195495230782 -0.9702719204714156 -0.07198640867665373
4.011142857142858 -0.8858712391074046 -0.07033181989581531 -0.00015993581749507103 0.00015473651686526255 4.0733488601398874e-05 -0.0001152598383711758 -0.9693952209632732 -0.06527618400633874
4.011571428571429 -0.8846950905916063 -0.057254286010039304 -0.0005379994139460577 -0.000852663174777926 0.00011402577778635525 -5.974466852996318e-05 -0.9708347174447088 -0.06816055452211342
4.012 -0.8900790443557636 -0.05325499467813157 -0.0002584249220429539 -0.0004460078487890658 -0.0002462586002077026 0.00020238136655901287 -0.9766801758631563 -0.06206987236270939
4.012428571428571 -0.8860701784645454 -0.04497826276592335 -0.0003552983887423283 -0.0002917492671418412 2.145874487356943e-05 -0.0003548116863861269 -0.964029871244302 -0.056012480892223396
4.0128571428571425 -0.8944129581764982 -0.033735770701097685 -6.420787342976882e-05 -0.00010632083763535962 0.00023815890204208676 -7.751204377593973e-05 -0.9669119168566996 -0.06478878799853181
4.013285714285714 -0.8839188678688814 -0.031705698146493155 -0.0004937644796190673 -0.0003343478273606435 -8.407721271900901e-05 -1.2773366604998814e-05 -0.9637516050590085 -0.059143142807921885
4.013714285714285 -0.8871830079052028 -0.02162610672287925 -0.00043079623577121505 -0.0005522244716308796 -0.00029734010381566385 4.996339099357658e-05 -0.9758610504636341 -0.05252229372880175
4.014142857142857 -0.8874061254196519 -0.014123319287887669 0.00029955635629599426 -0.00048825367824765304 -0.000214639582864377 -0.00021602467465499316 -0.9723604648229591 -0.046785304517285124
4.014571428571428 -0.8855545082111378 -0.01121656806548279 -0.00010109240548814295 -9.076880585521692e-05 -0.0002093938661017922 -4.2798167794592415e-05 -0.9717544889015223 -0.051830807399559316
4.015 -0.8950779054769087 5.62716813304402e-06 -0.00028575110324104776 -0.0001135028272994602 0.00013203353787297857 0.0001514194618596102 -0.9644995495536463 -0.052240455247576076
4.015428571428571 -0.8903579379547453 0.011396045386254697 -0.0004797062016433135 -0.0002015339503899688 0.00020408286827722382 -9.496165748080672e-05 -0.9716122251574938 -0.047816560185810236
4.015857142857143 -0.8900915728320054 0.017155672104585087 0.00023999785762025968 0.0003548563258507724 0.0002547842052987709 0.00027664311840769047 -0.9716164441786812 -0.04613767145340913
4.016285714285714 -0.8903783837410164 0.02286547817467948 -0.00019155261624498896 -0.0004817950561689858 2.8026731548684206e-06 1.7629151119213226e-05 -0.966217283202294 -0.04128660680212941
4.0167142857142855 -0.8881174830277916 0.029098503161036238 -0.00010653559157196058 -0.0005078842643658946 0.00031695982239861276 1.3357742375499447e-05 -0.9631383263500228 -0.048183667043697434
4.017142857142857 -0.8856733525417415 0.03880682173065466 -0.0004091547785361328 -0.00021043175445898668 -2.9926565333311476e-05 0.00014246612866156833 -0.9624154940879583 -0.03923066793758004
4.017571428571428 -0.8897192161947423 0.043854742237563984 -0.00027400077719368185 -0.0004392347292125716 -0.0001443127985562185 -0.00010474831962650248 -0.9729344529108609 -0.041111462058019174
4.018 -0.8852649990972538 0.04810765818284219 4.366947887149813e-05 -0.00023715064833633708 -8.271209207495563e-05 -0.0002682617836332386 -0.9708498158626402 -0.03957975830207689
4.018428571428571 -0.8906359247305546 0.058078348821839085 0.00021075514452164245 -0.0003806702148586559 0.00022717569789667587 -2.1129266024174234e-05 -0.9711502871724567 -0.033435037779158364
4.018857142857143 -0.8829930665975062 0.06744531577577063 2.727422324520192e-05 -0.0007521459846299482 -4.4464000206791005e-05 -0.00017694889978626716 -0.9617082230053869 -0.025238451142603646
4.019285714285714 -0.881747480726383 0.07826796264489227 -0.0002308699470798027 -0.0002686675643937249 -0.00013698209437343277 0.00013161390672599823 -0.970537590584308 -0.027943853603823048
4.019714285714286 -0.8873889775429403 0.08479002375910354 -0.0002105151366974322 9.712680647667253e-05 3.855938603422662e-05 -0.00023332537319277556 -0.9648317577702523 -0.028932869000813877
4.020142857142857 -0.8856150507359459 0.08979044955880872 -0.00021774806598120203 3.518449759231323e-05 0.00026966218161941855 7.328969998673105e-05 -0.9683975665425892 -0.022392671932453912
4.0205714285714285 -0.8844024756369656 0.10419145063221993 -0.00030926011074404946 -0.000543929417300988 -7.916994529661155e-05 -8.511069494873722e-05 -0.9670469145999024 -0.026082088142275767
4.021 -0.8818285119042168 0.1016613526328199 -0.0004305373965962106 -0.0007831046014014963 4.268730670234683e-05 2.188019164578286e-05 -0.9676920015424102 -0.019817579818928687
4.021428571428571 -0.879295789742121 0.11372419094448409 -0.0002000079959727477 -0.00035534914427750816 -0.00018772098736113355 -0.00010424330936990918 -0.9687087422647375 -0.018657977064095086
4.021857142857143 -0.8823541629151066 0.1184452902165814 -0.00012739144487420234 -5.4748313805589246e-05 -0.00010034612015626739 0.0004090405626729216 -0.9666370295123689 -0.014684521104403393
4.022285714285714 -0.8728568934985522 0.12231901643415567 -0.0009381631673557075 -0.0003080794760675763 -0.00011133735248200056 -0.00018924873111092778 -0.9742211615066699 -0.009081656047135752
4.022714285714286 -0.8799707164508885 0.13793461457265388 -2.6564143901269236e-05 2.1846116433184766e-05 -0.00022891582776842745 0.00010293757337524703 -0.9643404924449738 -0.013680527822520718
4.023142857142857 -0.8752145545433296 0.1425626713320548 8.486170894810148e-05 -0.0005254689326122939 8.868014207093081e-05 0.00023645063612776903 -0.9688542637869231 -0.007192408452515653
4.023571428571429 -0.8763757782172562 0.1440218032737272 -0.00042326252183886773 -0.00024191388316436647 -4.406981416638853e-05 -0.00012976581428345767 -0.9619163332148559 -0.004922896988001627
4.024 -0.8713154393049198 0.15736618958686555 -0.0002937249862065942 -0.00010753455899699484 -0.00014223915830063576 -0.00037471869600028005 -0.9720063730517119 -0.006473503964011385
4.0244285714285715 -0.8750636567963739 0.16062341870700733 -0.00045602637969899837 0.00018023757248397567 -0.0001362880943090471 -8.630251312441901e-05 -0.969856076975664 -0.0018534235302899015
4.024857142857143 -0.8743134991405974 0.1736807545538257 -0.00015001619795406695 -0.0001196728650514076 0.00011406503909997457 -3.0591620776377784e-05 -0.9673044684355103 0.00030368757029577916
4.025285714285714 -0.8740275929951921 0.17872802587993059 -0.0006706660702745066 -0.0004594269828563557 0.00022208009925752753 -2.4241202168983676e-05 -0.9653992157581545 0.0024385038522988277
4.025714285714286 -0.8718477862681525 0.18684441839202945 -0.0004926295081138637 -0.0003806639087214051 7.656863446837095e-05 -3.0928970295804335e-05 -0.9769423458834204 0.008862459801364034
4.026142857142857 -0.8746967862173208 0.19263091358886866 -0.0006137513079857134 -0.0004603294967081448 -0.00016572826416128204 0.00016069166885755918 -0.9710625678218097 0.003136711805921281
4.026571428571429 -0.8600311900054118 0.1989723022991599 -0.00020324764292951745 3.1116412312513645e-05 -0.00040660172935199073 -8.726449730179901e-05 -0.9737040580416958 0.00948792132023173
4.027 -0.8643047891982248 0.20668653866174294 -0.00021373798531332226 -0.00045348405079869537 3.0167735774183026e-05 -4.159604214046613e-05 -0.969217207326842 0.0066352962427310425
4.027428571428572 -0.8683864637860681 0.20943972218775925 -0.0004195082889458514 -4.795295852748922e-06 -9.486848750387717e-05 -0.000297182878328949 -0.9668958565982716 0.01490817603558616
4.027857142857143 -0.8611136961469807 0.2171524043918847 -8.636610059882826e-05 -0.0003176228460564436 0.0003390446921814506 -1.1200636093129686e-05 -0.9732553199155606 0.012373358683490394
4.0282857142857145 -0.8602282796480358 0.2322892884017092 4.4062311583026965e-06 0.00019783821307281212 0.00016349357587523052 8.955139764802334e-05 -0.9713957264009505 0.022910679599114987
4.028714285714286 -0.8643740064533487 0.23038115158048866 0.00016920993767374163 -0.00021700870918091796 -0.00018968294645725116 -0.0003421433870550936 -0.968768955450342 0.014776274703190189
4.029142857142857 -0.8585905401717101 0.24434307936178817 -3.561919919300217e-05 -0.0006214928646582036 -0.00019808256351136136 -0.00016610333887221395 -0.9671036233694152 0.02377879499772144
4.029571428571429 -0.8576723547496219 0.2467818053075619 8.211672591886506e-06 -0.0003407798023380847 -6.624270933452134e-05 0.00034828019167050506 -0.9633465850251841 0.019957892784105938
4.03 -0.8500570501403293 0.2540566029315989 -4.631078729899107e-05 -0.00014162835439017777 9.65537258592862e-06 -0.00023135867665668988 -0.9722960611740767 0.034890145198622824
4.030428571428572 -0.849604213163676 0.26475205944805535 5.4540023022776885e-05 7.767593172161576e-05 2.1564403872527746e-05 0.0002179514956241102 -0.9702944529145597 0.028680142051669903
4.030857142857143 -0.8517715369475845 0.26739676095644993 -0.0003230711121806866 1.3638398616556147e-05 -0.0002655528870503539 -0.0003241107371953061 -0.9717764181361115 0.022533367153622988
4.031285714285715 -0.8464437241614154 0.27707110511007016 -0.0002734880385387856 0.0002062690796951623 -2.0228810591488033e-05 -0.00010922838693032695 -0.9677462356135117 0.03489799853229905
4.031714285714286 -0.8417896245320712 0.27836150357231626 -0.0006313678121391941 -0.0002239390315052824 -0.00031734574139585895 0.00019876182123400936 -0.9652220997191043 0.025134374879522334
4.0321428571428575 -0.8383034277601085 0.28904432739166425 -0.0006182870802864658 0.00013976363586122625 0.00016541153624460622 -1.032647805397497e-05 -0.9731033763808178 0.03586261188377198
4.032571428571429 -0.8390228770864672 0.2962052771529915 -0.0002609596620512664 -0.00026814386658660584 0.00038396428352765577 1.1603026622875088e-05 -0.9648635597711536 0.04527234319766529
4.033 -0.8379511738046689 0.3017769495430186 -0.0004151975103278546 5.713800213030807e-05 -3.873690143430211e-05 0.00024762470787350314 -0.9653996170460294 0.04609420135368132
4.033428571428572 -0.841835718841918 0.3115144321399886 -0.0007032754115928203 -0.00018862194360665872 0.0003252618570093562 -6.606832598581459e-05 -0.9646593495724856 0.03752531965564209
4.033857142857143 -0.835006740625678 0.3175366173354365 -1.1915194981173431e-05 -2.2440881125464985e-05 0.00037598465335456397 7.316958824899315e-05 -0.9622481458288965 0.04355012150846479
4.034285714285715 -0.8266777896728716 0.3213068218861763 -0.0004572058411229937 -0.0006165558706418021 -0.0003538575921954604 -0.0002079123267431582 -0.9669230039727165 0.041589011752636164
4.034714285714286 -0.8211663623889645 0.3358504449531954 2.7617206731571396e-05 -0.00026199996638425973 -0.00018656523160797184 -0.0001276765108832873 -0.9645710574684144 0.0512147408052814
4.035142857142857 -0.822462717086433 0.33939606521515164 -0.00034387552953299763 -0.0002167484507741743 7.198313710486288e-05 -7.97262436334109e-05 -0.969943922010392 0.052936938112499415
4.035571428571428 -0.8150485154346702 0.3438463806905069 -0.000620922089812264 -0.00023251872436404073 -0.00017428859231950744 -0.00029552038474696065 -0.9678028161252726 0.05720942199462181
4.036 -0.8110420052350341 0.3558565841840042 -0.0002993107145322258 -7.145006376928947e-05 -0.00021880442458159497 -5.670979257284256e-05 -0.9717317625276051 0.05614078323799202
4.036428571428571 -0.8204390235614057 0.3538392367350801 -0.0009057015313091193 0.00030526344719926504 -0.00010559226075941187 -1.7564639727329937e-05 -0.9678651215511341 0.05222199365227591
4.0368571428571425 -0.8138878454545445 0.367237295045375 -0.0003755585100689138 -7.07716157208186e-05 -0.00023515873101864898 -0.00026403556924424834 -0.9697099151328118 0.05333354402322929
4.037285714285714 -0.8052996545944892 0.3716629990016627 -0.00024688938670748556 0.00011458495122634473 -2.9074781790714732e-05 -1.4781755735870518e-05 -0.9624182149204622 0.060103712312661185
4.037714285714285 -0.8028339122966791 0.37309722527296024 -0.0002473029940187006 9.62759489669914e-05 -0.00029716756766722197 -3.201306748310366e-05 -0.9716394308336888 0.05642838953606969
4.038142857142857 -0.8001097438387883 0.39350309479479495 -0.0004032218777537174 8.739294802786786e-05 0.00013014337832655275 -6.29909419194517e-05 -0.9629098481626889 0.060811387582859706
4.038571428571428 -0.8002006138310476 0.39136124659110766 -7.067752204453638e-05 -1.2874016608077988e-05 8.16918008444135e-06 2.4055866009137922e-05 -0.9596899909873408 0.06777140406982211
4.039 -0.7947118672550062 0.39402590004255783 -0.000513218515950015 -0.00013029126464143755 0.00012826846116955395 0.00014521595905862456 -0.9605842767489151 0.0660220258481978
4.039428571428571 -0.7870367806111225 0.41313031863531047 -2.0457187193223495e-05 2.371061015322226e-05 3.727376586368397e-05 -7.521978888766074e-05 -0.9639829838617192 0.06998793097940467
4.039857142857143 -0.7901391245824242 0.4128030643782795 -0.0005537899209474478 -0.0004236824462808402 -0.00020119571532040088 0.00010561746181045084 -0.9717426716175489 0.07092849662540904
4.040285714285714 -0.7859983880244399 0.41264850263095026 -0.0005406221938939923 -2.9960088125958765e-05 -0.0003383437542648504 0.00019551974792379525 -0.9635872497882036 0.07586968043783586
4.0407142857142855 -0.7880640997694695 0.42484555701510435 -0.0007129245725084473 9.756060212530154e-05 8.04757899678609e-05 1.4176723354844255e-05 -0.9587209857887495 0.07665293510918729
4.041142857142857 -0.7725386739645822 0.4311299941697527 -0.0005330048142469494 -0.00038584759175561004 -3.2383160578126125e-05 -0.00016245855168695527 -0.967946155087284 0.08707115282221183
4.041571428571428 -0.7738064906607752 0.4366947374720811 1.020890415783118e-05 -6.868787158293221e-05 0.00011258090623359862 -7.228488171512221e-07 -0.9674486900797892 0.0847441778457389
4.042 -0.7698278857672567 0.4457612380234641 -0.0004172387418942239 2.879137681598896e-05 0.00013203470763231264 -0.00018738999057210884 -0.9625546060994506 0.0903353455444266
4.042428571428571 -0.7643717714159793 0.45115057743969367 -2.265336312552011e-05 -0.0001522423354167723 7.029493758039832e-05 0.00034385721870647235 -0.9586928037385452 0.09261240144565532
4.042857142857143 -0.7638180254435335 0.44511831923934053 -0.0002697916376197761 -0.0002729773025813186 7.190615054859862e-05 -0.0001359615954532825 -0.9658744662478256 0.08784619326621462
4.043285714285714 -0.7575628248122587 0.4645375154489007 -0.00041319522683971356 -0.00011548868031673605 0.00019009814273339716 3.1546990777468484e-06 -0.9646611009916378 0.08591654974574944
4.043714285714286 -0.7509407491847713 0.4682050345962441 -0.0005868303526517577 0.0002208415549908855 1.166808143433492e-05 0.00022019391621188992 -0.9638856755007621 0.08476374432653051
4.044142857142857 -0.7511606224463805 0.4742932083134323 -0.00033119270087239355 -0.00011249514025154825 0.000404092168574167 -4.60595867190121e-05 -0.9616751294702036 0.09658912569854054
