!Created with skrf (http://scikit-rf.org).
# Hz S RI R 50.0 
!freq ReS11 ImS11 ReS21 ImS21 ReS12 ImS12 ReS22 ImS22
4.0 -0.8409213623882806 -0.2542377941800469 -0.00013911533323089385 -0.0003822417026919304 -0.0002982038794253343 -5.01217813697361e-06 -0.9623303533319263 -0.12987075929155223
4.0004285714285714 -0.8469334482791083 -0.25026841711511644 -7.732833982332234e-06 -0.0004985414420925324 -0.0002653957563765807 0.0001511432485613249 -0.9699520669335764 -0.12201207416765047
4.000857142857143 -0.8513173594035238 -0.2383587768242425 -3.608661954727694e-05 -0.00019985889343230085 5.683517695665106e-05 -4.577421858269955e-06 -0.9675125453468372 -0.1166240149225986
4.001285714285714 -0.8448973612069426 -0.2334518644439151 -0.0002193466463299035 -0.0002551495180548218 -2.1671162436425916e-05 2.6084583285109617e-05 -0.9638334595708635 -0.11702345725523466
4.001714285714286 -0.8519073378466284 -0.22634929418894673 5.829184151120057e-05 -0.0006731976255411695 -7.230153392081378e-05 -0.00017134930523281838 -0.966972940518766 -0.12142542694951729
4.002142857142857 -0.8500179402800783 -0.2244927908111077 -7.203317836664468e-05 -0.00015850700460750273 0.00019834811609488413 -8.053361838132736e-05 -0.9662942574919092 -0.11127046664060337
4.002571428571429 -0.8541783980526761 -0.2149702805331535 0.00024449969658604494 -0.00043119394354079873 9.076066710691324e-05 -0.0002280635516718975 -0.9714473333152823 -0.10464070661776606
4.003 -0.8584246831059726 -0.20272570089814618 -0.00014360627669125748 -0.0002616469244965874 6.592058842844312e-05 0.00012769223153606929 -0.9698243377148832 -0.10449095397179864
4.003428571428572 -0.859667440069222 -0.20233787296938482 -3.5435326967436465e-05 -0.00024499089048064186 8.137071081048748e-05 5.061766957854247e-05 -0.9611543590248259 -0.0975761091800936
4.003857142857143 -0.856339104018311 -0.19301147213775036 0.00023727656244540147 -0.000589708242557735 -8.20470649743351e-05 0.00019115232699697652 -0.9708238922523929 -0.11001493833568746
4.0042857142857144 -0.8683301475493084 -0.185111523392058 4.929151191966013e-06 -0.0002256819631232943 -7.357078793766744e-05 0.00013465942527970175 -0.9656147467686006 -0.09801624641016143
4.004714285714286 -0.8631702280816241 -0.17607960464347494 2.6650132644071153e-05 -0.0004494440640019717 0.00017360013656266094 0.00014032657873206544 -0.9576064160180491 -0.10638448662107033
4.005142857142857 -0.8646078501052762 -0.16757059098908106 0.00012816463980791596 -9.084985880728243e-05 2.933909895272475e-05 -4.399933266593225e-05 -0.9681682183961723 -0.09481383206778751
4.005571428571429 -0.8659581065307077 -0.16236610609237387 -0.00022093712908949993 -8.271622695043193e-05 0.0002166765129837698 -9.156764039118359e-05 -0.9592923640017473 -0.09506884610043242
4.006 -0.8697108149125599 -0.15903425176107103 -0.00019220417718461856 -0.00034420797184816403 -0.000133348032908407 0.0004188894263302727 -0.9698538731825368 -0.0941527744713771
4.006428571428572 -0.8680972363658077 -0.15350591100659114 -0.00035887183778133235 2.98427794401619e-05 0.00017661974541646964 0.00017045849606732918 -0.9676846493842903 -0.09267639891910838
4.006857142857143 -0.8736236323971216 -0.1417005537578384 7.059582249093801e-06 -0.0005866926343693391 -0.000208670495294463 4.7313025406142263e-05 -0.9634027359672278 -0.0870671283025261
4.007285714285715 -0.8758681052020234 -0.13407008949005744 -0.0001370029289782687 -0.00036953667217081603 0.0003538760689590916 0.0001951103061508918 -0.9689200487292017 -0.07959322203995285
4.007714285714286 -0.8735722798523475 -0.12908402067528735 -0.0002419285723108885 -0.00030918253808134095 7.83688563186464e-05 -9.07256964185538e-05 -0.9620052051835668 -0.08482193764377095
4.0081428571428575 -0.8742329769971446 -0.12492667943115189 -0.0002500923249631023 -0.00044561899122224784 -0.00014974470334671395 0.0001470545935475429 -0.9671754396452523 -0.08762528935574028
4.008571428571429 -0.8768908264287087 -0.11285330234507548 -0.0002561750463852902 -0.0005551990759986124 0.00010844248752538453 4.261878002086923e-05 -0.963597215258144 -0.07623745338068215
4.009 -0.8792301725577637 -0.1074692071788281 -0.0002607361895522755 -0.00019008522731568312 -2.468176064084091e-05 -0.00022516144050368155 -0.9738471215160217 -0.08680119755861654
4.009428571428572 -0.8757568594014469 -0.10365993098345272 -2.026345219744282e-05 -0.00040109593603547354 8.188881853182942e-06 2.4740519052086807e-05 -0.9767812845190476 -0.07689237560176462
4.009857142857143 -0.8779546549729483 -0.09306688610496294 -0.0005366852294794839 -0.0006061341614545416 0.00022542167900160254 -4.278021903834997e-05 -0.9669991619925392 -0.0688906065572249
4.010285714285715 -0.8803344675638506 -0.0852871391477044 -0.0002620982415750503 -0.00045183916880475186 8.182919375286159e-05 -0.0002867299734472104 -0.9653367670696262 -0.07294634988606984
4.010714285714286 -0.8799418407531817 -0.07938553666338856 -1.116612281926297e-05 -0.0003397472803853774 5.948472483891599e-06 -7.971906456721414e-05 -0.9683384704522778 -0.06996690855331358
4.011142857142858 -0.8759913259896478 -0.07593144456574767 -0.0002563960272381166 -0.00012696981749906255 0.00013397600845648842 -0.00013154573992615447 -0.9711885355665983 -0.06528725031243472
4.011571428571429 -0.8781940476899672 -0.06173404627759147 -0.00032053417861817 -0.0002442917080300153 -0.00015575570873439757 -6.752764150260153e-05 -0.971669936777953 -0.06696135653729256
4.012 -0.8817311491359862 -0.05945501489948891 -0.0004510008389211121 -0.0004247106533133849 -0.0003748141988066494 -0.0002808591018304266 -0.9739568272528272 -0.06416140224793399
4.012428571428571 -0.8795050392806969 -0.04947023034234966 -0.00024471808201295214 -0.00020804501854663202 2.9004621750104844e-05 0.0001271030829319267 -0.9628117020224248 -0.05620730694289389
4.0128571428571425 -0.8878764001600922 -0.04049821940013786 -0.0005394053612832699 -0.000407778282614584 8.509931570020172e-05 6.0657092983320925e-05 -0.9635858223597085 -0.06269342022074004
4.013285714285714 -0.8780410579406079 -0.03527250988950816 -0.00026843604327645776 7.387630351779062e-05 0.0002203451709032328 -5.196803806408306e-05 -0.9642191766567398 -0.058899186336253025
4.013714285714285 -0.8812928912400783 -0.026366739047346186 -0.0002461741600565015 -0.00047940426466100725 -0.0002711587135941033 -0.0004893152851412537 -0.9751814817489961 -0.05166695039597267
4.014142857142857 -0.8792354140680321 -0.017874469934173045 -6.284716672262934e-05 -0.0003147033688195863 -3.7723339616537906e-05 0.00012003439249703511 -0.972460476756528 -0.0465281395455704
4.014571428571428 -0.8790294307162949 -0.015617567391130809 -8.675371618401261e-05 -0.00011131994485083315 -0.00011393118982123526 -8.055803924693617e-05 -0.9714819356653196 -0.05392279697781637
4.015 -0.8881333115851806 -0.004746964189452512 -0.0003623340906285777 -0.0004065693170054246 0.0004672013609240768 0.00043705164300614083 -0.9657748338319532 -0.05212532651553866
4.015428571428571 -0.883988052644543 0.006344903614212248 -0.00030651703033350797 6.810829229562868e-05 6.213473092978343e-05 0.00023042506991784826 -0.969653834424096 -0.04810633131079304
4.015857142857143 -0.8841946016948959 0.010570824189043404 -0.00048085862570940125 4.231736188401254e-05 -0.00027426073251408473 -3.262711950607168e-06 -0.9705797540511751 -0.046468201242843205
4.016285714285714 -0.8821932088764585 0.016109942086589935 -0.00048749927426998434 -0.0002946967345048719 0.0001505373185367968 -7.409813812612147e-05 -0.965656051995135 -0.04226161136140526
4.0167142857142855 -0.8831683309925654 0.023577724833150352 -0.0003412345965693638 0.0002941948077948473 -0.00035867445499650815 -0.0001448503001188067 -0.9645064414623594 -0.04922771890787096
4.017142857142857 -0.879387703305215 0.033553926177924256 -0.000536465158439778 -0.00038833631550209654 -0.00011434766522788385 -0.00027691701581909176 -0.9644083234182416 -0.03733310626795097
4.017571428571428 -0.8838509708981312 0.03749370928511391 -0.00019581058150854884 -0.00032669149736996454 -0.00012135495079867424 0.000312494506188261 -0.9732398985038373 -0.04192514954471133
4.018 -0.8805200017339874 0.045895031782016225 -0.0005735118119043419 -0.00019309815312192703 -0.00023309018212414542 -3.9062165516062735e-05 -0.9698270584514269 -0.03967589055994483
4.018428571428571 -0.8838656285150623 0.053188995166477605 -0.0006557034015247048 -3.677993453672741e-05 -6.561772550899909e-05 -1.6259529123437825e-05 -0.9733478195716397 -0.03340658499545705
4.018857142857143 -0.8770984354632363 0.06263452685777966 1.648181622700954e-05 -5.627675467202912e-05 -4.941777386225514e-05 0.0002076556720762623 -0.9615724916215547 -0.026283416490981464
4.019285714285714 -0.8743407552626691 0.07343671741083117 -0.0002947279856890594 -0.00045657154237074734 0.0002990414602378662 -7.507042204305493e-05 -0.9706588858763211 -0.028641270347343838
4.019714285714286 -0.8813185101155371 0.07943351337857414 2.0466512868771957e-05 -0.0008916043141612222 0.00020205991488574253 -4.489917910795438e-05 -0.9644363662092191 -0.026424258469076457
4.020142857142857 -0.88007345549916 0.084907696324325 -0.0004993996929992724 -0.0005746313395438158 -0.00021173535026885621 -0.0003230763137447313 -0.9696474508405344 -0.022717940002545893
4.0205714285714285 -0.8784899461500228 0.09689261590315755 -0.00029723769339764117 6.938493099387601e-05 2.0062454239453552e-05 0.000246017460304112 -0.9686514471936571 -0.026599423669222678
4.021 -0.8767781986737949 0.0966923145118781 -0.0004103936400754167 -0.00048332205470144146 0.0003356853828455426 0.00012660420437007278 -0.9658800974466479 -0.024455177242635868
4.021428571428571 -0.875500513176237 0.1082511337755383 -0.0003322898519034941 -0.0006913797758966475 -1.518946145246816e-06 -7.711866990809825e-05 -0.9675261810358816 -0.019522025010766768
4.021857142857143 -0.8771210314454753 0.11280778011328689 -0.00016989759272536078 -0.00041864467588923024 3.1362164900263982e-06 0.00029523578806357867 -0.967180484079432 -0.016028241667222345
4.022285714285714 -0.868130667627593 0.11606742777107353 -0.0004876322022276889 -0.00027418136591590144 0.00020033043910764003 9.312265657595075e-05 -0.9764349845399662 -0.008180973454242723
4.022714285714286 -0.8747964594691824 0.13317710187183396 -0.00033733496683559754 -0.0006231620550763293 -8.996205708485067e-05 -0.00023790738762825917 -0.964610614441746 -0.013595822927695754
4.023142857142857 -0.8683084526701623 0.13806206001217342 -0.00019074161946697681 -0.00026700488310179026 0.00014278276643941125 -0.0001637162725778564 -0.9679548477490296 -0.005754792838302633
4.023571428571429 -0.8703831193204549 0.13717797449106475 -0.0003921918724987307 -0.00023580782582473663 -0.00024541196597696694 0.00028653224668486745 -0.9630068566588147 -0.003341557099686707
4.024 -0.8662553546428483 0.15060704698750163 -0.0006194676176460664 0.00035001968828321045 -0.00011837219112284746 2.9413478881174455e-05 -0.9707034366650408 -0.0074707545500658085
4.0244285714285715 -0.8691812919452963 0.1534700538358291 4.837716365942403e-05 -0.00010400181331979245 -0.00014991517369331703 -4.0362425364915204e-05 -0.9705166322798825 -0.004882600290070041
4.024857142857143 -0.8678012163947545 0.16585307685011041 -0.0002819176324988229 -0.00035341946007785385 -0.00016959439677539202 9.386721418331494e-05 -0.9668972458120902 -0.0014377826290906883
4.025285714285714 -0.8672722394426402 0.17331235802160397 -0.00025667585779042706 -4.6647085329801746e-05 -0.00014641225707552925 -4.2534765867048765e-05 -0.9669640403220385 0.0029945383506950443
4.025714285714286 -0.8644463630683358 0.17973232133400327 -0.00012787031255778118 -0.00013053413479212044 4.887489847745966e-05 -0.00011902939412828153 -0.9764423708227443 0.010712793966926436
4.026142857142857 -0.8678455518718081 0.18555023455332348 -0.0007142727625616365 -0.00015959791318860065 -0.00030536767093068386 0.00020301787969305549 -0.9674530030001455 0.003868338705600371
4.026571428571429 -0.8533360192958837 0.19539996237453683 -0.00031845023944232384 -2.3883281096814884e-05 -0.000522470277915221 0.00012582365541720692 -0.9738168975376106 0.00844455551085352
4.027 -0.857488269267822 0.20161086795489377 -0.0009802732368737015 -0.0003861997332650179 0.00012073563221327719 4.2370542655623524e-05 -0.9697507071646558 0.004623051243880514
4.027428571428572 -0.8624593455246928 0.2033139562197449 -0.0008124559988314752 0.0004582372459057599 0.00022894494756525605 -3.385136767273987e-05 -0.9649680627766982 0.015769872390492698
4.027857142857143 -0.8567157651475947 0.2108542207052781 0.00014021460257052502 -0.000358627583909388 -0.00011760487805701942 0.0001254455413414079 -0.9737296324453342 0.012889075599544301
4.0282857142857145 -0.856048827999904 0.22578681229902015 -0.00023351913387614304 -0.00013803666759447795 -0.00013377604871493316 4.780608101327576e-05 -0.971007320629035 0.02271729975933846
4.028714285714286 -0.8588631574965054 0.22367953737690477 -0.0004769233042110401 5.575473365924629e-05 -7.23197713484408e-05 -0.00011291408881391753 -0.969113205219796 0.012442150570774002
4.029142857142857 -0.8526247573120657 0.2388525243748738 -0.0002948589920430943 -0.00027562595282860274 -0.00020119747909786277 -9.498521698169234e-05 -0.9684457369148661 0.023073086100219423
4.029571428571429 -0.8511230099974444 0.23952682831317804 -0.0003558168252369212 -0.00017875096952227473 -8.614133688918892e-05 7.50269157011839e-05 -0.9630928032503623 0.020405809161105598
4.03 -0.8473752545261324 0.24805687909666146 -7.195486569318334e-05 -0.00021605466641821385 -9.470124822314916e-05 -0.00010400140511885191 -0.973289719133859 0.03245000014089115
4.030428571428572 -0.8445487430234843 0.25717545721607676 -0.00029038239629666877 0.00011614761155590649 -7.270837787964771e-07 4.316093092168626e-05 -0.9688428742671662 0.027261431498288264
4.030857142857143 -0.8452889796087906 0.2608006020846246 -0.0009446028018181628 -0.00038439608007615064 1.1370356352779343e-05 7.461071774133246e-05 -0.9710630485308216 0.022149133874755443
4.031285714285715 -0.8399910055542228 0.26940358971146683 -0.0002847361204849662 -0.00022682837021534985 0.00038787994269261303 0.0001366361043802153 -0.9683371680212441 0.03418518340184287
4.031714285714286 -0.8355762541924802 0.2709100911805414 -0.0009432541521992247 -0.0003097084168224768 0.00017084133853624255 2.726295004178092e-05 -0.964327149093899 0.02690533000320708
4.0321428571428575 -0.8318947594091256 0.28278032131675684 -0.0007376941066453581 -0.00014822303381029672 0.00013046199750594453 0.0001945406029213891 -0.9736742082793092 0.035925571397835795
4.032571428571429 -0.8342945752769082 0.2892793676863293 -0.00021851206258759965 0.00014900915178750801 6.407500640086249e-05 -1.912081818429326e-05 -0.9643303568582026 0.044643930505477276
4.033 -0.8345158753597 0.29620416442081926 -0.000252182003334295 -0.00041716858081909924 -1.7543596417291771e-06 6.719620143698298e-05 -0.9663557019401912 0.04679882966924313
4.033428571428572 -0.835738815133049 0.3066780050000773 -0.0006836359482455522 -0.00021087605291341899 -7.88224844481847e-05 1.256446385342963e-05 -0.9634203773165255 0.03751556383470917
4.033857142857143 -0.8295443981958652 0.311249778456151 -0.00046050034836713996 7.801386003832376e-05 -4.909643185719541e-05 0.00018972770899222774 -0.9626744748268696 0.045470474113614635
4.034285714285715 -0.8214013461733394 0.31409432725512465 -0.0002542423707174271 0.00010504676419474516 0.00031632167199958954 0.0002353227975509753 -0.964850039439026 0.04104245262826313
4.034714285714286 -0.8180026153407942 0.3270898630699764 -0.0006543795543900372 0.0002891861817290954 0.00022005075026831008 0.00011691907445970794 -0.9670753219976339 0.05220661629901207
4.035142857142857 -0.8179560132938261 0.3315194927634007 -0.00032458469602814326 0.00011764894469431917 -9.00458465464565e-06 -0.00013542749293551004 -0.9677113353021417 0.05058629896089907
4.035571428571428 -0.8107841750805942 0.3392631790635147 -0.0003863217534313306 -0.000572903597630232 -0.00020653021868699987 4.2615457008567285e-05 -0.9652860778185244 0.055605021913742905
4.036 -0.8067803235604631 0.34892748894639386 -0.0007498805403676037 -0.0004661191623922671 0.0003432571967716584 -9.311180509817703e-05 -0.9680058253504338 0.05529724707019876
4.036428571428571 -0.8161182034349326 0.34726092679786746 -0.00032993932204081726 -0.0002615155680332615 -0.00024247087323984326 -6.632025520627304e-05 -0.9686105833395988 0.050923174207360346
4.0368571428571425 -0.8092625641993663 0.3584718483591255 -0.00027675766710924136 -0.00031200376565966863 -6.146009457888402e-05 0.00019183290672301334 -0.9707095144014739 0.05645213266807351
4.037285714285714 -0.8012955785193125 0.3664342617438241 -0.0007574643674275692 -5.429368636431829e-05 0.00026703784217383623 0.000346498620547573 -0.9645695081542756 0.05943680952678188
4.037714285714285 -0.7998049275178171 0.36767932099581174 -0.000983554691944576 0.00038228055176699156 2.5457117312304812e-05 -1.542184292252397e-05 -0.9704355578103737 0.05613824159911977
4.038142857142857 -0.7955086995356387 0.387281503766391 -0.0003479299974911233 0.0008821666798761595 0.0004159143545091587 -3.311152247290553e-05 -0.963833035653705 0.06112576508097849
4.038571428571428 -0.7964021747471112 0.38454686357308515 -0.0002876903109406533 0.000435694576254201 5.595592989083535e-06 0.0001235410993790018 -0.9612812083358918 0.06737735009145727
4.039 -0.7918448277925544 0.3887162798651345 -0.0002672421289737982 -0.0003053447924032308 4.060846537124689e-05 -0.0002123764245080735 -0.9595655951282291 0.06463799120062118
4.039428571428571 -0.784481723855789 0.4075486174613115 -0.0003879119116138582 0.00012299837525788662 -0.0001434130457574039 4.156934631754302e-05 -0.9639054002109204 0.06891147330190124
4.039857142857143 -0.7870425923138717 0.405980554185977 -0.0004781831103983526 -4.447735701673341e-05 -4.6422442472376257e-07 -9.480763255155168e-05 -0.9713293493302002 0.07140904640366867
4.040285714285714 -0.7831999361299385 0.4044804740302101 -5.3082866503843705e-05 0.0005913158219049171 -1.0586685708901134e-05 -6.0468538725089405e-05 -0.9624073563250699 0.07483557266634748
4.0407142857142855 -0.7842485605069134 0.41772113731427984 3.97655397429067e-05 0.0004713856811983782 -0.00023010759145710604 0.0001367157351246714 -0.9590110229041172 0.076013660226158
4.041142857142857 -0.770464702455277 0.42067477255335683 -0.00032626995054874005 0.00021382868395072388 -2.5256415469471693e-05 0.00013207908053316145 -0.9683338369030576 0.08434464419229372
4.041571428571428 -0.7678624927045802 0.4302950187003749 -0.000532422985285708 0.00015882832868374536 -6.159761584958208e-05 -0.00013633664594461605 -0.9666284546397773 0.0839373318809473
4.042 -0.7646275471550084 0.43934734521580504 -0.00014930415991898683 0.0002158059287107564 -0.0002266146787607396 -0.00019466580603176833 -0.962968727197937 0.09049938913187444
4.042428571428571 -0.7592651566260797 0.4422706980235769 -0.0004951936490184702 0.000105966943356395 7.837810533362496e-05 6.716294028296234e-05 -0.9596386034892522 0.09276101387796304
4.042857142857143 -0.7599770217735795 0.4393598659609525 -0.0007051996931513687 0.00021899640130250504 0.0002554385976278145 6.078776074357364e-05 -0.9650636641509452 0.08953399669457532
4.043285714285714 -0.7549868660659189 0.45768097947462877 -0.00018277788102663323 0.0002488561436846843 0.00016988224243090402 -0.0001617503812946058 -0.9668575496257594 0.08556392855859578
4.043714285714286 -0.746893725223021 0.4572579211084322 -0.00047260597424727375 0.0007199920759288439 7.498523448474957e-05 -7.205591779522642e-05 -0.9657040151581274 0.08414712847186304
4.044142857142857 -0.7477436418486265 0.46914220599324874 -0.0006155685091489374 0.0005073943757543885 0.00022691040185386592 0.00013935271226632137 -0.9629764900626123 0.09789497465150716
