!Created with skrf (http://scikit-rf.org).
# Hz S RI R 50.0 
!freq ReS11 ImS11 ReS21 ImS21 ReS12 ImS12 ReS22 ImS22
4.0 -0.8503799613821702 -0.25299160926619046 -2.477271487969301e-05 -0.0004123316647077989 -2.6818357933643773e-05 0.0003935299625472748 -0.9645648966988185 -0.1315631980284695
4.0004285714285714 -0.8567304859208282 -0.24590945444813028 0.00020985737549414747 -0.00040494177799935133 -0.00030233198623496997 0.000165886554290548 -0.971310897304909 -0.12385641040026774
4.000857142857143 -0.8612120392780733 -0.23710683906854632 -2.2057121280824876e-05 0.0002368123202399309 9.369000561788332e-05 0.00012126188551158547 -0.9675804494010327 -0.11808130440024285
4.001285714285714 -0.8541132474599767 -0.23152892584843782 -3.844041979478029e-06 -0.00011122241943262565 -0.00011717337064575721 0.0003559229186664436 -0.9647342781416329 -0.1171331043144104
4.001714285714286 -0.8616629558989829 -0.222794521452523 -0.00011250011284311495 -0.00017976191772619236 -0.00012966129143895992 0.00013723638914201478 -0.9668599519941399 -0.12210627399029027
4.002142857142857 -0.8596275880256455 -0.2214220884021728 0.00024716682677887924 -0.00032607802726109235 -0.0001562050156030596 -0.00019481758913881988 -0.9642047339019603 -0.11239366653715355
4.002571428571429 -0.8617786589752686 -0.21251746816646483 0.0005465653025018218 -0.00022124268448020035 0.0003074425030228529 0.000209429903373168 -0.970389812046095 -0.10703634703249051
4.003 -0.8694604636776454 -0.2012459730274057 0.00030325401134209884 -0.0006506406551953909 -0.00011625297227301615 -0.0002262446404214553 -0.9678540428374702 -0.1049025615663045
4.003428571428572 -0.8690381041229283 -0.19832554389850673 0.00011872764426549495 -0.00031376601517557194 1.8809447800089502e-05 0.00016161501203173722 -0.961954716637857 -0.09889171884283698
4.003857142857143 -0.8648190903898988 -0.1887940973602599 -0.00011455036553202965 0.0001250161552994959 -0.00010346279701685802 -9.869021827451826e-05 -0.9720824831194137 -0.11081235842527093
4.0042857142857144 -0.876895226459043 -0.1820748061633566 0.0003071869222245075 -0.0006546510242491767 1.833798620755978e-05 -3.767532107717979e-05 -0.9658630296352843 -0.09906069235691801
4.004714285714286 -0.8721631216694654 -0.1728167969201704 -9.837842107906196e-05 -9.313888823458699e-05 -2.3260233086196033e-05 -0.00014255335673539832 -0.9589156209101541 -0.10795861515833113
4.005142857142857 -0.8728025810150409 -0.16328888107649317 -0.00039026968646124706 -0.0001858002949882744 -0.00011404827274693982 -2.4441286096491443e-05 -0.9699651866088448 -0.09658908393161919
4.005571428571429 -0.8738088942186426 -0.15820652340560548 -0.00020690139685484218 -0.0004257541853325485 -5.64695339939109e-05 5.1547519123219996e-05 -0.9609483571040074 -0.09556158017486538
4.006 -0.8785646749156344 -0.15606889575088545 0.0002412523480060551 -0.0003360014847547504 -0.0002557481909603171 0.00047523282785668893 -0.9719395712343168 -0.0943006264296015
4.006428571428572 -0.8760839096660624 -0.1503550210250749 0.00020918708233548874 -0.0003693382002699655 -0.00020107808473411403 -8.484098788355612e-05 -0.9690995167387907 -0.09246810921475897
4.006857142857143 -0.8814651477836952 -0.13760044489137585 0.0002949221102097904 -0.0006217966022481028 0.00016726302513805954 -3.4346523366005285e-05 -0.9648800185095219 -0.08702461304685248
4.007285714285715 -0.8846431465093768 -0.13044913647663603 7.72452769400246e-05 -0.00019053459126578955 -0.00010342549129990867 -3.0564244833733e-05 -0.9686965066666132 -0.0814141755735068
4.007714285714286 -0.8818491181580715 -0.1262891500134501 0.00025925651012984144 4.3313318218399904e-05 0.0002326440977231597 -1.4108631372760744e-05 -0.9636973678522678 -0.08535906521331135
4.0081428571428575 -0.8829029625109259 -0.12423756093628563 9.960401090483834e-07 -0.00027217480118957034 0.00017753403194098734 -0.00010987233015712334 -0.9661173597238136 -0.08857389589868984
4.008571428571429 -0.8862366549636495 -0.10926949183790295 -0.00010441369615281345 -0.00014109611333316518 0.00010100603376918111 6.8305842253686e-05 -0.9639773159899497 -0.07853973717340083
4.009 -0.8883916480376204 -0.10533382823838022 1.1800470732368116e-05 1.0113597993217884e-05 -8.362585874576945e-05 0.00014947593866421625 -0.9742276011016306 -0.08598714945035127
4.009428571428572 -0.88501963975945 -0.10103096847972245 5.108789973823914e-06 -2.2798509153493998e-05 -8.322384876533337e-05 -0.00028542455346329966 -0.976632824190832 -0.07804380507597075
4.009857142857143 -0.8872818052096024 -0.08781405381065921 0.00022512162200164081 -0.00031563548660998823 -2.7245856494118278e-05 0.00016970285730251732 -0.9669591752659756 -0.06974022674903955
4.010285714285715 -0.8892744922661769 -0.08149593505839683 -0.000489198552426371 -0.00028380566784197566 -0.00012181763055951608 -0.00016847696131394948 -0.9656595197750333 -0.07656944205024072
4.010714285714286 -0.8884826373840502 -0.07521635888208379 9.942632762768797e-05 -0.0002977986882638533 0.00019112907721826396 -0.00013563201296558713 -0.9688974265020618 -0.07342824986753074
4.011142857142858 -0.8851412982163878 -0.07204520368733403 -0.00020916454143107293 -0.0006013496362007791 0.00029127052222584465 0.00017503327768543539 -0.969088815130893 -0.06677587537582694
4.011571428571429 -0.8870697012038457 -0.05624182810036245 -0.0005294487232641351 -4.6005781602785595e-06 6.286593634385785e-06 0.00028565653303889933 -0.9700920522253147 -0.06706303624624509
4.012 -0.8906778092697055 -0.05543611253491554 0.00012535598321914118 -0.00038541085896764477 -0.0001874127230082455 -5.532816936920254e-05 -0.9751582329433995 -0.06354776522119468
4.012428571428571 -0.8877482016617315 -0.04624573434490453 3.4924285796643616e-06 -0.00019140896702139453 5.824785475855357e-05 -3.135891156873024e-05 -0.9618236087041326 -0.055381890994604305
4.0128571428571425 -0.8946634506718595 -0.035132065364545446 0.00018082054549592742 -0.0003096510974913963 0.0001379528862421261 0.00037919244286482254 -0.9648174044842799 -0.06377856221039037
4.013285714285714 -0.8842124815698091 -0.03177225783630116 -0.00017022715655673915 -0.0003096116614434544 0.0004674730920149788 0.0001608968547477789 -0.9631217873140654 -0.05958767196442849
4.013714285714285 -0.8894691931526507 -0.02246152621976544 -6.341771600903739e-06 -0.0008653595890935705 0.0001908363341504824 -0.0002082934689698162 -0.976309994750716 -0.05286494121608701
4.014142857142857 -0.8879136709509822 -0.01508555213026909 -0.00015970877608539262 -0.00017059952005562255 -0.00019074131343761898 -8.314597698461774e-05 -0.9706690048025962 -0.04664841776125761
4.014571428571428 -0.8874642490419268 -0.010840828031207705 0.00013695930592439983 -0.0006462366786160998 -0.00024553044990375557 -8.615999791419809e-05 -0.9699226822658487 -0.05304431548101937
4.015 -0.8961298763886806 -0.00011936586077989819 3.182539740141218e-05 -0.0005713113058754777 0.00017969792497961657 -0.00024317480080692799 -0.9674270352646687 -0.0531371363389477
4.015428571428571 -0.8919836139744836 0.01097484219443622 -0.00031072492598139965 -0.00032034362702105027 0.00044665980553394496 0.00010781812964428614 -0.9732198335934518 -0.050860489390047066
4.015857142857143 -0.8903303802669236 0.01535263355013214 5.6656391065164444e-05 -0.00038472432795087856 -0.00037418152814099596 -4.291987630253173e-06 -0.970957142445746 -0.047251094426012066
4.016285714285714 -0.8896958772560126 0.0230554116688267 4.454421771062071e-05 -0.00011184779031097494 0.00041536429215189257 -0.0002779371817382808 -0.9683150745766159 -0.043324379964051994
4.0167142857142855 -0.8912363933262905 0.029952165949754354 1.1562736648363138e-05 7.174185489366132e-05 6.710868668003271e-05 -4.0776098627086096e-05 -0.9645106294343867 -0.04892473963909166
4.017142857142857 -0.8874625701524017 0.03812747886745824 -0.00010596280651296632 -0.0004999215880911304 -0.00011374340022093746 -2.5665684184491094e-05 -0.9629798072202949 -0.04043825333171508
4.017571428571428 -0.8913549322012255 0.04073744595228656 4.3852906497561605e-05 -0.00048352193899175305 -6.0445161987989335e-05 -0.00022405013384153489 -0.9725136043217655 -0.04269287543892673
4.018 -0.8870850777329976 0.04968599925749532 -0.00035952350320394574 0.0002455184389595543 3.0818842475333015e-05 8.204743715123395e-05 -0.9688829100492607 -0.03996486846300772
4.018428571428571 -0.8918923027708289 0.057665883443005446 0.00038334051073881254 2.2805401302169625e-05 -3.8170944994726075e-05 -0.00026061842555390153 -0.9710641895127614 -0.03407409827333204
4.018857142857143 -0.8838615090094205 0.06800225147513521 -0.00030931548534914846 -0.0006423949997130325 -0.00025706587223143384 0.0002665974353801117 -0.9618411321679408 -0.029415566127554763
4.019285714285714 -0.8827070696870543 0.07590483164206875 -0.0001585479110829565 -7.452661901247473e-05 8.372995466360175e-05 -0.00025828399287251103 -0.9728783488513729 -0.028190328080020175
4.019714285714286 -0.8861478372789049 0.08519552679515394 0.00011477239506481282 -0.0001656951280807383 -0.00036341304202427483 -0.00027397201085641975 -0.9653818980228742 -0.027461638955693403
4.020142857142857 -0.886313777076067 0.0871488082837577 -9.684738743729255e-05 -1.663998758773148e-05 -0.0001175080669113579 -9.417916327873172e-05 -0.9676691385565809 -0.025979299132226425
4.0205714285714285 -0.8846902822591703 0.10419216889592993 -0.00014113437732491852 -0.0004030920071811695 -7.0521054116874e-05 -0.00022773910834404277 -0.9692709732506051 -0.02675710849911788
4.021 -0.8819272215128943 0.10172686110690801 0.00013337595275397543 -4.634673275282175e-06 -0.0002613020429027656 -0.0005156645221894438 -0.9659039841030652 -0.021243396538935012
4.021428571428571 -0.8832957136506603 0.11321756792814693 -0.00010427395891100482 -4.847439312393446e-05 -0.0001373167245369318 0.0002236575127464053 -0.9701231935061646 -0.01846659480906352
4.021857142857143 -0.883159192525353 0.11758648989118628 -0.00041058581485572964 -0.0006242143255149323 3.307793883626486e-05 -0.0001713867933068784 -0.9660947091414337 -0.014658779850938691
4.022285714285714 -0.875047162762592 0.1219908556964968 -0.00037187174919622493 5.921447547354562e-05 -3.520908389963724e-06 -0.00012669951233333274 -0.9761686858502906 -0.00918752605913458
4.022714285714286 -0.8810351998701501 0.13841421480650495 0.00011560022623187387 -0.0007209918546505255 -0.00020027423755627314 0.00012928042761713838 -0.9659945104391279 -0.015864481505297907
4.023142857142857 -0.8777443159603698 0.14293719008257902 9.051743216898907e-05 -0.0004380586387171545 9.208047701834712e-05 -0.0001424827794147452 -0.9692118043706291 -0.009710543400549748
4.023571428571429 -0.8764476449097373 0.14463650864112787 -0.0005175266453220445 -0.0006203728541971776 0.0002319682363647819 0.00043043370488607684 -0.9625843575306692 -0.006258145138880189
4.024 -0.8729257847732891 0.15575178178368132 -0.0003698853110333798 -0.0005313103697257729 -7.865996228186469e-05 9.450512939362588e-05 -0.9720742199482887 -0.00846046577943345
4.0244285714285715 -0.8757729570802849 0.15909119919604936 -0.0002406478552704091 -0.0004393529228974245 0.0004361793285853957 4.456662824463269e-05 -0.9696901853720135 -0.003877441780863901
4.024857142857143 -0.8765663360774393 0.17231381818316693 -0.00018225601409152805 -0.0005750152462714767 0.0001420032594158077 -9.68595265987169e-05 -0.9674343521038445 -0.002863390500624953
4.025285714285714 -0.8746805612940551 0.17931123761743867 -0.00011606833827794895 -0.00024041185807977339 -0.00038036584167671484 -0.0001852369299318521 -0.9670888130863408 0.002024246391725717
4.025714285714286 -0.8718384254347114 0.1875318322976569 -0.00018250117684462264 -1.7222121920247537e-05 4.044772314057122e-05 -0.0002426658888771089 -0.9767977937053878 0.008000812471118144
4.026142857142857 -0.87575579818641 0.19144135093423534 0.00014378228130391938 6.98832218612256e-05 0.00015023705471609426 0.00045954331826448126 -0.9699303128073015 0.0030988176152963983
4.026571428571429 -0.8618895059185335 0.20132574818657026 0.0001603449908614605 -0.00030950194408081396 -0.0001900889011574748 -7.21710378714092e-05 -0.9737062007344288 0.007201674311621674
4.027 -0.8644764552919596 0.20780818052748548 -0.0007305575584412057 -0.0004959906504105818 -0.00012143201625720196 9.798113002893637e-05 -0.9686239152390632 0.005367700994115073
4.027428571428572 -0.8686298651687927 0.20912233262424706 -0.00013891305690653052 0.00022702620930143522 -4.8490873318212924e-05 5.025938570197085e-05 -0.9665080217002833 0.016844637732115964
4.027857142857143 -0.8619719404088616 0.2160602799238614 -0.0001088768150240669 -0.0001331371182302512 6.935240565464602e-05 -2.441756721730271e-05 -0.9739029582928754 0.011032172278801036
4.0282857142857145 -0.8620064672479905 0.23231974943945677 -0.00035075611447352503 -0.00019176741468157613 0.0004232892252337345 0.00017839903568715918 -0.9716743734362097 0.02183688984623404
4.028714285714286 -0.8658203163594557 0.22971813960824994 -0.0004122898170321533 -4.883322023315616e-05 0.0002884774127499058 0.00021502741043579889 -0.9704618646675939 0.012452412583381285
4.029142857142857 -0.8599703119890125 0.24403972639833343 -0.0004555322147825967 -5.431013579946187e-05 0.0001867407260760728 -4.382025754796501e-06 -0.9669646939396019 0.023089338237382042
4.029571428571429 -0.8597967987149526 0.2468249908264587 -0.0003923258490179365 -0.00012266057892231503 0.0002486025962917257 0.0003357288178909598 -0.9655670119007019 0.021652428410371703
4.03 -0.8518784736347959 0.25224409942610093 -0.00038354154726120477 0.00015682837114424953 0.0001553511245492613 6.302849694991337e-05 -0.9733181464120162 0.03246053678432141
4.030428571428572 -0.8528008703480493 0.26347110568957643 8.823945947908445e-05 -0.0003260182553283702 2.2949588114091057e-05 -9.3249123603495e-06 -0.9708465221462985 0.026889753759555927
4.030857142857143 -0.8542943867137767 0.26671877834920804 -8.602244526190925e-05 -0.00025473675635415344 0.00024096566924210482 -2.367079525815041e-05 -0.9725874558679827 0.022736772367057817
4.031285714285715 -0.8457060569069748 0.2760245223016498 -0.0004409759029837396 -0.00026763887913704637 0.00012600665122700577 6.230754727713963e-06 -0.9686589319170416 0.033115049865428695
4.031714285714286 -0.8419014522355488 0.2783321286753918 -0.0006968808616264866 8.134298815365693e-05 8.58229309059769e-05 0.00017737702803030024 -0.9647748663088997 0.02554954097003955
4.0321428571428575 -0.8388207244595351 0.28740561808343984 -0.00026464577865793895 -0.00016664001134382046 -0.0002256708900229375 -0.0002433509674518204 -0.9724921257872953 0.03340221678778694
4.032571428571429 -0.8405307507731608 0.29636596487910477 -0.0005147154120283604 8.476827558941007e-05 -0.00011040193439897816 0.00015280964526313725 -0.9663376155146272 0.04347391091631986
4.033 -0.8401316786415923 0.30191944542418697 -0.00046663624686375544 -0.00028665952154539935 7.438578356299877e-05 -0.00027444680349228233 -0.9662808312610065 0.04341115339556788
4.033428571428572 -0.8421290712238511 0.3116746637663855 -0.00024807001858202684 0.00023849859860984612 -9.496241921733946e-05 -0.0003646082814331153 -0.9641819070695861 0.037599355397310845
4.033857142857143 -0.8348276033967025 0.3177293654521569 -0.00020590535095326302 -8.547508394228334e-05 0.0001790025082461285 -7.286578429755607e-05 -0.961639208851701 0.04396919911345159
4.034285714285715 -0.8278638126105603 0.32246993491742443 -0.0003624007792658939 0.00019758640164580025 -5.052372417525024e-05 -8.703141906344376e-05 -0.966732530822107 0.04239936430901426
4.034714285714286 -0.820841036322295 0.33593989381723055 -0.00024418098490948045 -0.0001390650657130837 -9.865284937173407e-06 6.784143034568753e-08 -0.9663289180572563 0.05002024876279082
4.035142857142857 -0.8237881533993691 0.33763342423314435 -0.0006024581296377898 0.0002346081232480535 -0.0001642292701506635 -2.367556028389456e-06 -0.9692652252514509 0.05039102412538488
4.035571428571428 -0.8173270049398275 0.34545241508525487 -0.0003558370745121647 -0.00022025578679786136 -0.00016981667243280927 -4.906402249145902e-05 -0.9671815132806388 0.05552011607399858
4.036 -0.8129873828071426 0.3542841982933007 -0.0007320156329695813 -0.00013066858473849392 1.8108629062455274e-05 0.00015670071769886989 -0.9698224173767871 0.05533626220610094
4.036428571428571 -0.8216012661671457 0.35357925686098096 -0.0005313740661991251 -0.0002703658353779933 1.006455918445375e-05 0.00018345179561396864 -0.9673064298900735 0.0502984843575239
4.0368571428571425 -0.8143573847252972 0.36506475537246597 0.00017924541900512562 5.0267091419347344e-05 1.197906896542844e-05 -0.00017278261949218093 -0.9712028614626523 0.05406097441006498
4.037285714285714 -0.8064207877897117 0.3719773689616009 0.00014913630886606246 -0.0003264035515606871 0.000170236975830818 0.00011726401503305463 -0.9644161646290089 0.05859224852400863
4.037714285714285 -0.8046862508747625 0.3731125869152499 -0.00027768987422314176 0.0002717626432028485 0.0002445518150188042 -0.000155273609304712 -0.9706168681775157 0.05555607875037575
4.038142857142857 -0.8008909195111812 0.3939819236847439 -0.00018210985534208347 -0.00029863442727217786 7.596347906946375e-05 -0.0002043116475451097 -0.9634619349906293 0.06292584011839235
4.038571428571428 -0.8013245055337092 0.39110632097286957 -0.0003711663968919982 1.8031197451940012e-05 -0.00013218279085962958 -5.813335359310305e-05 -0.9601377414485633 0.06559436333182715
4.039 -0.7963557385988864 0.3958991152105676 -0.0006799316036343488 0.0003344379407763235 0.00023055529425633245 -0.0001404966314047887 -0.9606427514959709 0.06312772070934163
4.039428571428571 -0.7905573863784565 0.413169679727133 -0.0007185238397569524 8.304817895529279e-05 3.371695004405962e-05 0.00012417593575093116 -0.9639875334390772 0.0680189925121123
4.039857142857143 -0.7941779014968203 0.4112603437894996 -0.0006376171779412581 -0.0004415595472694875 -0.00011117119525662539 -0.00017980740034121798 -0.9702964723994557 0.06954568780513633
4.040285714285714 -0.789367825931748 0.4134463970631137 -0.00032566690617064146 -1.6887688589444565e-05 5.546285674848849e-06 0.0003887335637940582 -0.9646946504018618 0.07366150741011758
4.0407142857142855 -0.7887452791240015 0.42583857227268423 -0.00048217377048783463 -3.84102736027484e-05 -1.560416964116932e-06 4.1198744873668545e-05 -0.9607570889307123 0.07521481203092645
4.041142857142857 -0.7736801634875538 0.4310665676351474 -0.0003086088806576131 9.582272466489335e-05 -0.00030725993566866277 0.0001239908278095649 -0.9696593889601094 0.08563250777063107
4.041571428571428 -0.771986084087101 0.4375809711193479 -0.00039821734058913255 0.00013164921517841866 -0.00016541023397690572 -0.00020471874530684743 -0.964852320071214 0.08106318241376534
4.042 -0.771747399063258 0.4455333127628553 -0.0004817496048099428 8.427537512311404e-05 -0.00016061402156470814 0.00010492141615619182 -0.965510773626147 0.08673509551684334
4.042428571428571 -0.7657371907740642 0.45205489394878645 -0.0003565939249142279 0.0003512704425218962 0.00023288705000643707 -8.309626017819425e-05 -0.9612435305782336 0.09179678425948899
4.042857142857143 -0.762852087352665 0.44749923912146355 -0.0004930541297621076 -6.559440931058808e-05 -0.000302108458555286 0.00028780611498903895 -0.9670626207374303 0.08677951137849271
4.043285714285714 -0.7581015574226629 0.4638547305584888 -0.00043536676027850765 -0.00037223635551232245 8.744055208172402e-05 -6.446591275372937e-05 -0.9642088053876123 0.08447995092893754
4.043714285714286 -0.7516406168992175 0.465052821462664 -0.00029089630773363644 0.0002350796279451524 -0.00020271176873779825 3.057890295726967e-05 -0.9655129040962172 0.08265858181897344
4.044142857142857 -0.752773645873205 0.4761035881403009 -0.0008320702233650905 -0.00014293747823270018 -0.00015714638828589542 0.00025786846309544385 -0.9641616382346265 0.09673193621777322
