!Created with skrf (http://scikit-rf.org).
# Hz S RI R 50.0 
!freq ReS11 ImS11 ReS21 ImS21 ReS12 ImS12 ReS22 ImS22
4.0 -0.8400341825988347 -0.25469742350685076 -0.00021367663609737794 -0.00021877689302526014 -8.753070097176913e-05 0.00017490169039689407 -0.961992061968977 -0.13004330235816264
4.0004285714285714 -0.8456138937752941 -0.24667369234535577 8.694231317487295e-05 -0.0006056859971996921 -1.4848189958610388e-06 -2.0628797009135863e-05 -0.9714388664387719 -0.1229036674830912
4.000857142857143 -0.8498097155382143 -0.23824646134057326 -0.0005114413047250201 -0.0004672509519077047 2.886587217263968e-05 -9.631865228099579e-05 -0.9668538415641718 -0.1157920717651248
4.001285714285714 -0.8432477979709275 -0.23266615129211127 -0.00020849585918906655 -0.00038622238221674716 -2.4501333754984124e-05 -0.00016084882094456073 -0.9630092531738682 -0.11555954307746867
4.001714285714286 -0.8499759481568362 -0.2250703692265617 -0.0003758273563432334 -0.0005750732596302319 -0.00026944118903625473 0.0001778604845479591 -0.9663876261601458 -0.11949823476221927
4.002142857142857 -0.8478339683358228 -0.22429582375908083 -4.545091557188212e-05 9.247257628854093e-07 0.00021151422925589427 3.501590968191132e-05 -0.9653187242590574 -0.11265110243814026
4.002571428571429 -0.8533023228717668 -0.2145748222367485 0.0002006431984806462 -0.0006347193961471139 -0.0001255427427722811 -0.00010316512259877605 -0.969218378425458 -0.10550829115550689
4.003 -0.8563317434612238 -0.20333718755836044 -0.00025755270033477463 -0.0007469908444064744 -5.526837122662967e-05 9.47207650315607e-05 -0.9694429854401373 -0.1054127671326001
4.003428571428572 -0.8583361676989939 -0.20062199151059953 -0.0006438269278071923 -0.0007043054830148183 1.0514940091023722e-05 2.315590703148782e-05 -0.9627070163959583 -0.09872580010256322
4.003857142857143 -0.8547756492261986 -0.19056100760539302 -0.00016446317033419263 -0.00044307555708509834 0.00011539850943940178 4.635170142247174e-05 -0.9705084065818315 -0.10977987314098439
4.0042857142857144 -0.8666502264553309 -0.1841609451289195 -0.0002658655464464508 -0.0006608646567980991 -0.00028189099372021367 -2.5080683491837794e-05 -0.9662223495835501 -0.09786854575206912
4.004714285714286 -0.8606698720615682 -0.1732409243426183 7.556508258819858e-05 -0.00013221799550936107 -0.00020572174414573415 -4.2073480656433114e-05 -0.9587707479825249 -0.10788250596023435
4.005142857142857 -0.8626056052504226 -0.16607818538879432 2.659146126044184e-05 -0.0006148106041005369 0.00023948329239380646 -0.00011992244381863664 -0.9698929230260368 -0.0943937487172406
4.005571428571429 -0.8644145839337345 -0.16160673243353846 -0.0005073422116066737 -0.00025909314175258526 0.0003108602517180956 0.000117921745391634 -0.9591107648532163 -0.09477569949371861
4.006 -0.8657640012705904 -0.15831937755677186 7.484895201967207e-05 -0.0004451918632334848 -0.00022917277382311003 0.00017339328078669724 -0.9698534192745419 -0.09287783554213111
4.006428571428572 -0.8671914977805348 -0.15259516320022207 -0.00015611837878235418 -0.00043782905380342584 -8.773081807642881e-05 -9.853366833082645e-06 -0.96907638777729 -0.09327225314499324
4.006857142857143 -0.872100216130674 -0.139447745816892 -0.00010178268868914644 -0.00020219739964432552 4.663414452838179e-05 0.0002680939562223357 -0.9654432483018089 -0.0856834853413688
4.007285714285715 -0.8732389295099916 -0.13245551767528616 -0.0005202386770212271 -0.0006873901919961819 -0.00018154120436031493 -2.5301229410779812e-05 -0.9683919819836057 -0.07941074936548287
4.007714285714286 -0.870919513440872 -0.1288347079941645 5.60687275759303e-05 -0.0002666724104028302 -0.00035982635314160027 -7.582109848024598e-05 -0.9619015384924309 -0.08241287980554066
4.0081428571428575 -0.8730259407347679 -0.12485097569839101 -0.0005031880123995771 -0.00037866431500591845 -0.00017319319140739396 9.308897512711484e-05 -0.9680875576694505 -0.0871639308698182
4.008571428571429 -0.8750228153189356 -0.11212189770023852 -0.0007979110848155572 -0.000677446483208133 0.00010779782381861102 -0.0003232339911922325 -0.9631645521751099 -0.07834981751863301
4.009 -0.8765984806513324 -0.10690884561982238 -0.0006759438620566361 -0.00018656858238025553 0.00020325376291711764 0.0001573816180094736 -0.9746032366095776 -0.08468797081514064
4.009428571428572 -0.8734493285758494 -0.10156579350507765 -0.00034811582800428934 -0.0005775131153906016 -1.947529283832114e-05 2.1250716950546967e-05 -0.9764983494370627 -0.07490749953681354
4.009857142857143 -0.8765218306616506 -0.09148593540758718 -0.0002480371532658304 -0.0006091509638239569 -1.7094524442227465e-05 3.066569968051837e-05 -0.9686686917979762 -0.07008366622071519
4.010285714285715 -0.8797273631355232 -0.08341679689285826 -0.0006655497580467557 -0.0006212674124946477 0.00030430173682464837 7.575406892604053e-05 -0.964248166627508 -0.07318407307455699
4.010714285714286 -0.877894717144701 -0.07909683300804558 -0.00015328393667565044 -0.00045548017584902064 -4.6440271305798576e-05 0.00016910055935213695 -0.970493365195706 -0.07078246200904315
4.011142857142858 -0.8740354072861016 -0.07569499655402104 -0.0004210872782085175 -0.00037684626097529846 -0.0001443921457330999 -0.00016732050809138477 -0.9703459545007412 -0.06657180205374306
4.011571428571429 -0.8739382058294899 -0.06161590914544468 2.5093288096545184e-05 -0.00011572392835130054 3.760017680216734e-05 -5.124299603239212e-05 -0.9708746557410395 -0.06709238721557109
4.012 -0.8797024185702648 -0.059077016842334344 -0.00036450016736583736 -0.00020667307695355178 2.4127891572670277e-05 -1.1987246938914794e-05 -0.9765519392119538 -0.061343129297759494
4.012428571428571 -0.8773959665703616 -0.049139906393032 2.3493077512609904e-05 -0.00045375038159822546 3.25641388650646e-05 2.534471080693455e-05 -0.9630357501565873 -0.05460802857965212
4.0128571428571425 -0.8849929013374832 -0.039374645770975464 -0.00029836902152263403 2.015189100019491e-05 -0.00022863237140023814 -0.00010098998768751715 -0.9650390672836777 -0.06111163185571481
4.013285714285714 -0.8744653303083149 -0.035240037778609595 -0.0005076482020946548 -0.00047624981841330125 4.093871815138378e-05 0.00013807567400721523 -0.9622131297823836 -0.05755642482040958
4.013714285714285 -0.8772892480194278 -0.02590209664057025 -0.00017132502212425507 -0.0006700599360181793 0.00012011198640733726 0.0002590580133670244 -0.9743941721196887 -0.05098068125037696
4.014142857142857 -0.8777613573056108 -0.01821200553597631 -0.0006798475386621598 -0.0005059152546932595 0.00023960865957653595 9.727893383228174e-05 -0.9691237579270849 -0.04696967889110058
4.014571428571428 -0.8771158933859748 -0.016429234687159174 -0.0004752948796434147 -0.0004767027393916397 3.537233681155261e-05 -3.0507334104071162e-05 -0.9694452047393942 -0.051268676530182085
4.015 -0.8868492681948483 -0.004540476551342203 -0.0002932225912486021 -0.0004529160302305169 -0.0002258043277725271 -6.594454946172248e-05 -0.963381894548313 -0.0492870352031556
4.015428571428571 -0.8832523805272899 0.0077512364548011385 -0.0006309406529683802 -0.00018871152658196539 0.00019943647718203452 -0.00012992092660937764 -0.9704636398216065 -0.05012245703186239
4.015857142857143 -0.8814080447577132 0.012935287432763707 -0.0004272724151410895 -0.00040061978015467893 -7.596699235653642e-05 0.00013725296363926203 -0.9697913442611928 -0.04653369759165008
4.016285714285714 -0.8792911952941532 0.018573243315311478 -0.0005643700250202296 -0.00022354539253482703 8.966633757189145e-05 -3.8620356756256196e-05 -0.9659039539818347 -0.040563484997646455
4.0167142857142855 -0.8797545493487983 0.026618263873232368 -0.00013588887712605844 0.0004823683738179415 0.00024698154933859443 9.738217815546186e-06 -0.9657292896280866 -0.04684413571533732
4.017142857142857 -0.8758849494501757 0.03360868096510647 3.954100407031966e-05 -7.800711178841403e-05 2.330275604298483e-06 4.290946904018661e-06 -0.9629632921550443 -0.04020605959746501
4.017571428571428 -0.8811734476346319 0.03783359087387471 0.0002639663463873926 -0.00034254330390820216 -0.00029445465360878606 0.00012614248039730956 -0.9738323017379725 -0.041208489123192846
4.018 -0.8776665819959413 0.04320211321507667 -0.0002536106690423705 -0.0003290169787746606 -0.00015415205610824672 2.516252265355226e-05 -0.9702812789595674 -0.03906078454090913
4.018428571428571 -0.8815563247873806 0.05234220530049727 -0.0006608368615023115 -0.00017809869406292577 -4.209299912661862e-05 9.49983465839145e-05 -0.9711482012190111 -0.03422880365268114
4.018857142857143 -0.874605580733067 0.06287189781172446 -0.0004411767793164491 -0.00021441649599991588 -0.0002497307160940157 0.0001665481077948658 -0.9617420597346918 -0.02576110281605847
4.019285714285714 -0.8735250711390913 0.07300822645540514 -0.0007521213601503424 -0.0005181182395593257 -6.146378029633818e-05 0.00018064490835301763 -0.9710450007524556 -0.026550033137151943
4.019714285714286 -0.8794237656668932 0.0795826492609277 -0.00031649034849107384 -4.1374979798856456e-05 -1.4770894175386213e-05 0.00022938645306394155 -0.9650609772510158 -0.026278548946712277
4.020142857142857 -0.8760536591951045 0.08448618042426528 -0.0006754866695791736 0.00022243114774139297 5.653148850353717e-06 -1.0646453743962938e-05 -0.9690075048160703 -0.023140777843818225
4.0205714285714285 -0.8749322775586309 0.09845032189279564 -0.0005811344182960132 -0.0004054306764506085 0.00011962618595311067 0.00023711076725799942 -0.9676691158520008 -0.025859607523452004
4.021 -0.8720276609904006 0.09450848930281368 -0.0006245504671672387 -0.0005195426783783115 -0.00021843273248083107 3.7903297610252936e-05 -0.9649726541812287 -0.01944754398111899
4.021428571428571 -0.8722519340147785 0.1085986719616871 -9.82312268123547e-05 -0.00019904186006222446 -0.00039889893480197375 -6.94252313294105e-05 -0.968801234403144 -0.016920761412847242
4.021857142857143 -0.87420538249051 0.11119734864457852 -0.00037004146487643334 1.4459422885226626e-06 -0.00023081732452703697 7.765835848404832e-05 -0.9662844829635254 -0.013820867625549663
4.022285714285714 -0.8667848827940452 0.11765838966386336 -0.00025458943304968915 -0.00011210483157946221 -4.3985103887256734e-05 -0.00011251550681651423 -0.9760767396598866 -0.007792571289079591
4.022714285714286 -0.8729193361804509 0.13248237722256506 -0.000299373706433584 -5.5560778597623864e-05 0.00018781676514917657 0.00019082585682240598 -0.9667748358877998 -0.011513470828991276
4.023142857142857 -0.8650135526147827 0.13676315515214527 6.059435135894414e-05 0.00012493058539219594 -0.00015840274096187652 0.00016642841144949707 -0.9662201322091226 -0.006977882365283954
4.023571428571429 -0.8683738392111564 0.13761671788803165 -0.00032595259548217655 -0.0007278639041608414 6.0459955660138045e-05 0.0003619230233289729 -0.9630321044557626 -0.003428660191825641
4.024 -0.8636142628101459 0.15134026586347638 -0.000671713350380998 -0.0001474147140201232 -9.030998039097736e-06 0.0003098489270458038 -0.9686168430522314 -0.007132091275381901
4.0244285714285715 -0.8665152137112688 0.155713143605733 -0.00013963881042307092 -0.00044705891975028344 0.00013177272368930027 0.00011855343024687113 -0.969786652752764 -0.0017052932684669794
4.024857142857143 -0.8654623412557474 0.16650497526026153 -0.0003867763838666351 0.00010670676665633032 0.00031034619167268513 -0.00014240292891872167 -0.9684397984963725 -0.0011311512739429269
4.025285714285714 -0.8651873628965739 0.17551890724537125 -0.0001988817308779108 -0.0003520393134872746 -0.00019615556904767662 0.0002598836247849586 -0.9666673188433411 0.005319885092263632
4.025714285714286 -0.8626021520926883 0.17994818757000688 -0.0005494602803489102 -4.514583883921821e-05 -0.00013700623156556204 8.285530583596165e-05 -0.9758082932096389 0.012695194366349144
4.026142857142857 -0.8656757181453371 0.18644832116538293 -0.000432597957460816 0.00014905157698566664 -0.00019697250611829483 -0.00014592470074565526 -0.9687634916592792 0.0029880962245984483
4.026571428571429 -0.8525787496756919 0.19656418101979117 -0.0006173081019327741 -5.318871631053647e-05 -0.00010697545057264809 -4.56017617431589e-06 -0.9742223551650123 0.009624316753696387
4.027 -0.8542290245481479 0.20113796672742282 -0.00045904580148314336 4.766453043457611e-06 -0.00019343575914189062 -0.00018630021355298422 -0.9697548672961153 0.005226047315355518
4.027428571428572 -0.8586605897185351 0.20265584941955211 -0.00045812063879546684 0.0002829765202318447 6.640272166941482e-07 0.00017054427175392366 -0.965785229464016 0.015940812714925905
4.027857142857143 -0.8525496681101816 0.210393566608457 -0.0004858683183744305 -0.0005673520776652586 0.0002875054764867455 -0.00043644265913908413 -0.9745906362062909 0.013563540465842712
4.0282857142857145 -0.8525802757227045 0.22604964742284095 -0.00038985791825423417 7.593617337788047e-05 0.00016027130284901648 -1.14973269394848e-05 -0.9706377974639117 0.023707651755133646
4.028714285714286 -0.8564953636924318 0.22474565976822197 -0.0006275714747011977 6.349375482038072e-05 3.7206183090048916e-05 -1.1134545341391655e-05 -0.9682550659548533 0.013726490122204083
4.029142857142857 -0.8509143550345126 0.23819316863690057 -0.0006392865242004587 1.5455459119739504e-05 -0.00016890414023043652 0.00015046372711589886 -0.9702578397821462 0.024049544177686448
4.029571428571429 -0.8491171881374359 0.24070474650133192 -0.0007506753104120857 9.051341051931878e-05 0.00013879157211419714 -4.0441136347473345e-05 -0.9642623846533779 0.02185040257090036
4.03 -0.8432298676131729 0.24692666823032744 -0.0001183364530541686 -0.0001245569096466859 9.006568873401692e-05 -9.031703120375053e-05 -0.9726483920491507 0.031864849133468966
4.030428571428572 -0.8443371292398586 0.2593963674277462 -0.0006936880284744079 -0.00016335102956949266 -0.0003984518874486445 6.765436748404675e-05 -0.9689307820913842 0.028305879361449585
4.030857142857143 -0.8444366779434627 0.26220998680466395 -0.0008759667652866006 0.00013870529508898047 -0.0001511959213791357 -0.00021024302542131947 -0.9712007024680038 0.02293146155832728
4.031285714285715 -0.8366243911466283 0.27192082417216495 -0.0006444772045374323 -0.00036069402008403383 -2.2365551469773506e-05 0.00013288665214850764 -0.9678971448352439 0.03609727178964111
4.031714285714286 -0.8347935894749512 0.2729840799763598 -0.0003006096053319442 5.3391476721927475e-05 0.0003373456901515537 -0.00013833327836938628 -0.9650049856998626 0.02467832851393911
4.0321428571428575 -0.8303446225544252 0.28370390658517836 -6.683305631368775e-05 0.00027114740267979967 -0.0003575813658233931 -0.000123371146564396 -0.9736652174975743 0.037547705772043874
4.032571428571429 -0.8317893274927509 0.28926750134370144 -0.0005582515669888603 4.412842468974845e-05 -0.0001789041087070533 -0.00039542010028512537 -0.9648687234190434 0.04478122317859073
4.033 -0.8309033891724971 0.29657047218160004 -0.0004405958808642596 0.0003948238086048996 -0.00039230949159015685 -6.583333324583304e-06 -0.9655681317443104 0.04625784098044114
4.033428571428572 -0.8328590561825203 0.30387120002648843 -0.00012708061235080188 0.000334328027064797 0.00012873029011136974 -0.00018614648787388112 -0.9627627534509827 0.038232220303623055
4.033857142857143 -0.8277673637031413 0.3107923489135085 -0.00019867761859236822 -4.8692118591235675e-05 3.855121740568615e-05 -6.40648034478485e-05 -0.9629624001021222 0.04476474070386097
4.034285714285715 -0.8199492187345068 0.31644066603905585 -0.00031712716153141173 9.908523596971667e-05 -0.0002709567788120752 -2.4308559905941576e-05 -0.9669395611981128 0.043363014915147186
4.034714285714286 -0.8126151263321088 0.32765513780167815 -0.0005511722189829579 0.0003536146334873513 -0.00015706606879238176 0.00015961561398793392 -0.9665940311115502 0.05210292778404167
4.035142857142857 -0.8145886121640749 0.33095233815364555 -0.0003404655963117092 0.00020836312843330767 -7.98796090640276e-05 -8.188179664410286e-05 -0.9686961638025884 0.05209160132068105
4.035571428571428 -0.8084645531637742 0.3376159733983135 -0.0005053540261652598 9.457895437156645e-05 -7.292306619259303e-05 0.00010517872049086032 -0.9668071526842094 0.05810451773918523
4.036 -0.8053075071278943 0.3491676321410059 -0.0006016900140437886 0.00038484156283056647 0.00020412333068954181 0.0002698558779680703 -0.9690666180110383 0.05724290428627771
4.036428571428571 -0.8122764288475954 0.3467438135821402 -0.0002705867740004523 -3.238507732868002e-05 -5.492596595819908e-05 -0.0003252416448837375 -0.9665271218085816 0.05392505922850231
4.0368571428571425 -0.8070948788635541 0.3600888169602474 -0.0008026122959017796 0.00023758422045034526 -0.00019446398136619433 -0.00011789175391014674 -0.9707709174391207 0.05463381279372358
4.037285714285714 -0.7992929265048884 0.36636484407482867 -0.0005383909996983171 0.00013101753540883268 2.2127399452710946e-05 -0.00024402156521812163 -0.9610644285741202 0.06016324417703692
4.037714285714285 -0.7969532659031136 0.3652380279433059 -0.00028981026034360073 8.726775333582951e-05 9.002244409640657e-05 -7.238138668165517e-05 -0.9711522413498657 0.05706428070504277
4.038142857142857 -0.7924574188961248 0.3852925886534989 -0.00044864469534486166 0.00024292169462407536 6.781281675202901e-05 -0.00025688481497578816 -0.9635193327930588 0.06256694592896465
4.038571428571428 -0.7941157698173793 0.3853740622078636 -0.0006526804610484849 -0.00015334865861520072 -7.705533373280603e-06 6.754844328569873e-05 -0.9609337052992728 0.0647673970845729
4.039 -0.7887102066248904 0.3877704377129862 -0.00042716889916884687 -6.301907201523843e-05 0.00025621867544770884 -2.231323378766972e-05 -0.958526165299065 0.06478823635651226
4.039428571428571 -0.7816467946932042 0.4056697133371786 -0.0003812552820665365 0.00046319672790278186 -0.0002526900276350245 -0.00014013709231965296 -0.964090088055263 0.06948815623693827
4.039857142857143 -0.7840326996702704 0.4053077328011049 -0.0006499319043919191 0.0004393830690371217 0.0002878241224550093 3.410947655648155e-05 -0.9700378112050638 0.06984116015322804
4.040285714285714 -0.7791804419946138 0.4046375530045127 -0.00021414095816999436 2.3639600167873117e-05 2.5263051613144545e-06 -5.4064342821529136e-05 -0.9630748127037787 0.07535596106740082
4.0407142857142855 -0.7803697658776877 0.41867023553705 -0.0007330378735278329 4.249169804465815e-05 -0.00019473977967157815 3.434267269812695e-05 -0.9606937134752255 0.07670768644463138
4.041142857142857 -0.7677393989670085 0.4222580609302929 -0.00029024894985063944 0.0003058926348045696 0.00018974214798631595 -0.00038753302613921207 -0.9700599643126995 0.08634674664237649
4.041571428571428 -0.7653690269080268 0.42901950864186555 -0.0002908473414834924 0.00040844335578161406 0.00016111967013869946 0.00022626668895315186 -0.9664577340221758 0.08462990272163115
4.042 -0.7637090597805712 0.4398035650529006 -0.0006211801131134535 0.0001389045282982275 -0.00014550011064665342 4.158335769322892e-05 -0.9621524891841441 0.09012937429806392
4.042428571428571 -0.756237332033543 0.44315683161698693 -0.0003767351415079102 0.00030182905375167443 0.0002638738096933766 -4.531267638038091e-05 -0.956449435836136 0.0920917867207812
4.042857142857143 -0.7584945666896395 0.4381647701201639 -0.0004170492003683378 0.000557422954369613 6.442195620964297e-05 -3.006944515958382e-05 -0.9641039028065859 0.08803271727725645
4.043285714285714 -0.75047923101511 0.45676538767307184 -0.0003553266591244232 0.000597944217262518 -0.00014564758162165443 -0.00013530369025874516 -0.9654370540493085 0.08542499205641735
4.043714285714286 -0.7450658203670587 0.45934488295348763 -0.00018862824080217327 0.0005107756743984323 -0.00010804440417426267 0.00026709143693672867 -0.9674283268690992 0.08289929117752391
4.044142857142857 -0.7458935801354709 0.46788195936899785 -0.0003910696188414369 0.00037165736851005554 -0.0002715127044637465 -0.0002135780234241822 -0.9611792460557715 0.09867673804227119
