!Created with skrf (http://scikit-rf.org).
# Hz S RI R 50.0 
!freq ReS11 ImS11 ReS21 ImS21 ReS12 ImS12 ReS22 ImS22
4.0 -0.8460853107616053 -0.2517287748172719 2.279345202892575e-05 1.2811596356359633e-05 -0.00012221070356439274 9.780631168446855e-05 -0.9628156799078534 -0.12905276286858464
4.0004285714285714 -0.851808140722987 -0.24603953090369843 0.00034365515640598945 -0.0004568690443367653 -8.036907404068647e-05 0.00019111506754431774 -0.9702027399425658 -0.12354423878328628
4.000857142857143 -0.8578687909377732 -0.23614114858021068 0.00014054465327985132 -0.00038669735718796326 -0.00011151699004116928 0.00014458741013094933 -0.965482709987589 -0.1153153195391499
4.001285714285714 -0.8510940978515946 -0.231244793860981 0.0003314581278137926 -0.00016718421720349238 0.0002187076130677755 0.0002215124267490351 -0.963723532397664 -0.11512727739230866
4.001714285714286 -0.8582916990713052 -0.22511891500543343 3.576691691199606e-05 -0.0005394801926311814 -0.00017220447410657753 -6.162945926630565e-05 -0.9663685540814413 -0.12079301448795113
4.002142857142857 -0.8555682950896834 -0.22257831364843278 0.0004264900248699335 -0.0004781699897532216 9.94746884691703e-05 4.975653103766334e-05 -0.9646249799675449 -0.11017336227986908
4.002571428571429 -0.8611493452324177 -0.21280081715028698 0.00015010344978676752 -0.00041748388507910627 7.257284211281009e-05 5.627408568964982e-05 -0.9681394864439672 -0.10477629004207661
4.003 -0.8642038411610556 -0.20120774947205383 0.0005090562441840558 -0.0005766145839217865 -5.936493028011678e-05 8.249283105757566e-05 -0.9690878096219773 -0.10387247884956705
4.003428571428572 -0.8665740404573845 -0.19829657141739856 1.6111892469599615e-05 -0.0005063205186698374 -1.8222952474619093e-05 3.700831542734879e-06 -0.9634721984778882 -0.09801239674083406
4.003857142857143 -0.8623340983233075 -0.18875138912648376 0.0004147824933510684 -0.0004652037469345069 0.0001953623529408591 7.74780348911754e-05 -0.9716528148257788 -0.10932265140138053
4.0042857142857144 -0.8739959529210355 -0.181796066280696 0.00013507636992165833 -0.0005051492381480259 -0.0001947931693119022 0.00017039226720802562 -0.9664093967503204 -0.0997241976510782
4.004714285714286 -0.8698885203396458 -0.1737055795915773 0.0005825952573645309 0.00034217685146815567 -6.895589646170937e-05 -2.6522419436159305e-05 -0.9585683312339998 -0.10701267135310251
4.005142857142857 -0.8714297471011583 -0.16449361082983735 9.418004732938381e-06 -0.0005542857825984184 -5.1983857838390424e-05 6.502950006768192e-06 -0.9678235224098004 -0.0939257270009672
4.005571428571429 -0.8712891924294451 -0.15890232909755533 -0.0003009444847630146 -0.00024473976992698 5.842956768644473e-05 -0.00025509369096559433 -0.9606695499252127 -0.09461356280513074
4.006 -0.8751198353732841 -0.15612480053205882 -0.00010664123862900857 -0.0004285072883748462 -1.7533101783322825e-05 -0.00017826317511493293 -0.9707867093680843 -0.09141780565808688
4.006428571428572 -0.8748695988760228 -0.15054056016018222 0.0004062144553044124 -0.0004487975012426198 -0.00010049482967941301 0.00013139915635412936 -0.9678021198543322 -0.09118864906437157
4.006857142857143 -0.8801504260258817 -0.13837840983624466 0.00023723870392123046 -0.00026092729935527174 -2.034772252130614e-05 1.8205675307802157e-05 -0.9630827169605011 -0.08563315988170775
4.007285714285715 -0.8829979069810252 -0.13110096641752503 -0.00013082774299489594 -9.038511950214333e-05 6.849774047094577e-05 -8.949753461069993e-05 -0.9691543758195502 -0.07810731026627812
4.007714285714286 -0.8790670618363343 -0.1256207762590901 -0.00015563334197834662 -0.00030931728900967565 -0.0001672646902892163 -8.013647614978867e-05 -0.9615544363619171 -0.08140945642966084
4.0081428571428575 -0.8799081615967801 -0.12308391931709968 0.00015966279273201377 -0.000425804748147136 9.279520290296256e-05 9.876697497540599e-05 -0.9671742710809546 -0.08591178393025509
4.008571428571429 -0.8836903423374077 -0.10982283045039846 -0.00011041033321338411 -0.00016333106585429726 -0.00024966832807169967 9.551748806663347e-05 -0.9635177788442006 -0.07931544271103194
4.009 -0.8848467989409112 -0.10489994829566163 -0.00021969430877040425 -0.0005611685478221928 7.674920703904962e-05 -0.0001685878737631149 -0.9740906305726947 -0.08609932579237775
4.009428571428572 -0.8822481194552737 -0.10071643022368516 -0.00033696153660180226 -0.0005499731835995382 4.939830513418022e-05 -0.0001640232110123488 -0.9773536461283234 -0.07708463333655367
4.009857142857143 -0.885357269744851 -0.08919851758595299 0.00039558545554938023 -9.047001786473307e-05 6.562660592678681e-05 5.876000948892873e-05 -0.9677505780622159 -0.06848092163696702
4.010285714285715 -0.887496704896578 -0.08170727711220394 -0.00011251060907197972 -0.0004204506933607786 -0.0002117487418604125 2.7474532960661147e-05 -0.9648405268980657 -0.07257137111158886
4.010714285714286 -0.8875150708948499 -0.07737913987654735 -0.00013793426788917708 1.0336552118939996e-05 8.593289494943513e-05 -0.000291895715285442 -0.9679593309935242 -0.07146007196964664
4.011142857142858 -0.8830888925903605 -0.07243919968448788 0.00014074125599930983 -0.00021376683374655072 3.7913687217676314e-05 0.00014430001797291963 -0.9695249516064816 -0.06397845298241282
4.011571428571429 -0.882260339248186 -0.05837159306092432 0.00021537751253102635 -0.00032583442100820925 -0.00026953957755906054 0.0003294649736451128 -0.9703629763956616 -0.0670285481205091
4.012 -0.8877384291721144 -0.055201889740212125 -1.288077523716597e-06 -5.198877154322011e-05 1.877368166519177e-05 -3.544207585003419e-05 -0.9757177071696053 -0.06276254182272913
4.012428571428571 -0.8852239343597247 -0.047225720928705486 -4.2864412602632854e-05 -0.00048301045580992786 -4.340300111976845e-05 -9.985242865750025e-05 -0.9633479176937779 -0.05419306936790365
4.0128571428571425 -0.8929058276058719 -0.03568870524588537 -2.339993981440896e-05 -0.00011115840328062494 0.00030534089007266724 8.858750717334158e-05 -0.9659106051710057 -0.06466957435572565
4.013285714285714 -0.8819246566674286 -0.0323607517183372 -0.00019412808743823998 -0.0002513382043648601 0.0002717723728540733 -6.94064864709946e-05 -0.9636468945945448 -0.05823597668141772
4.013714285714285 -0.8854237549866255 -0.021884222740334854 -0.0002587254530000644 0.00010490595806655266 0.00022583511925584844 -0.00016431315780931208 -0.9748342697596178 -0.0513804166445376
4.014142857142857 -0.8854063334610633 -0.01384436367145333 0.00015821641937192177 -0.00029362543819947773 -0.00013519615114764317 2.829391481967352e-05 -0.9708962030587949 -0.04606936248009615
4.014571428571428 -0.8832543782278114 -0.01235575761066586 -0.0003445670068657379 -8.245284045001585e-05 0.00011501571688731535 9.025551526226247e-05 -0.9706266013487681 -0.05107303822072431
4.015 -0.894229622305808 -0.0010217191904169328 2.1229555463557633e-05 -0.0003852942270362998 -0.00011418118293124645 8.902227271907695e-05 -0.9655074718563701 -0.050733084637436685
4.015428571428571 -0.8884985832064966 0.009003679366268521 -0.0003586725587929764 -0.00024642069090175 -7.43760653693718e-05 0.00010094625351151176 -0.9725400811814271 -0.04914317821087277
4.015857142857143 -0.8873729210535578 0.017095371959346642 -0.00042865369172387835 -0.0005387633714950946 -7.940714538268078e-05 -0.00015957321021927364 -0.9710159506106429 -0.04483054218594357
4.016285714285714 -0.8870758965446378 0.02226339793944629 -0.000283101419492931 7.331056330839647e-07 -0.0002674070437347335 -1.8409091247089443e-05 -0.9672023281523948 -0.04164339062368093
4.0167142857142855 -0.8866713954439631 0.029120046286683618 -0.0008164083416021167 -0.0004075862064509064 -0.0004667683596772267 -3.483412860237822e-05 -0.9632121941768109 -0.048017055791097586
4.017142857142857 -0.8848612306162 0.0371189905876533 -0.00037404645928068163 -0.000620868577614201 -8.352509655069289e-06 -0.00013607080003539854 -0.9631568653729096 -0.039179030412770856
4.017571428571428 -0.8906369264096153 0.04058639617328335 6.545455378507842e-05 -0.0003485398081984887 -9.829988664705805e-05 -0.00013917348460549801 -0.9730458341089722 -0.03962184997320639
4.018 -0.8846009158391519 0.04693512874756486 -0.00023993269274355368 -1.3292494140807519e-05 -5.1045693718674204e-05 0.000290727706443374 -0.9694229219185303 -0.03956481107665918
4.018428571428571 -0.8894917138786441 0.05753497585430193 -7.860808478732782e-05 -0.0004849372987800129 -6.098139987561596e-05 9.915328836798398e-05 -0.9722627455996483 -0.03354376216868121
4.018857142857143 -0.8826466426184091 0.06553423499947675 -0.0002076565666312064 -0.00035190206061386995 5.2120230478268234e-05 -9.756734237810742e-05 -0.9614577158813907 -0.024259916208072628
4.019285714285714 -0.88066809189043 0.07607017815244327 -1.8334424398000342e-05 -0.00019167206546389168 -0.0002731926543040527 0.00015535288117018753 -0.9694490702128331 -0.028017409132427742
4.019714285714286 -0.8853437176165998 0.08365901271071756 6.169167464405938e-05 -0.0003291839050141345 0.00016648424660877122 -4.293709021446115e-05 -0.9647522351799056 -0.026529507736876633
4.020142857142857 -0.8838464800125306 0.0869798341676338 -0.00046382997424541456 0.00019368697351787684 -5.727397833753048e-05 -0.0001314957429983366 -0.9696597960246021 -0.023717394676134183
4.0205714285714285 -0.8850051356022649 0.1023529949137662 0.00012164770561815914 -0.00030742634139023153 -0.0002620138704254104 -0.00033654122537905243 -0.9686641136104305 -0.02689631554703385
4.021 -0.8813290789017043 0.09990018251494572 -0.0002835374657958798 -0.0003140091238508732 7.929494566194882e-05 -7.971506894077743e-09 -0.9664462524768798 -0.017515266845117936
4.021428571428571 -0.8792842354345073 0.11268054477728712 -0.00033805585787628523 -0.00039314474323692454 -6.20201061956009e-05 -9.062458492145729e-05 -0.9694981542202521 -0.01826820750727908
4.021857142857143 -0.8813171196380533 0.11505937914746713 0.00022499542700361757 -0.0003654139150839417 -0.00024075013761719818 -9.982835796195115e-06 -0.9678709076011045 -0.012925460389765931
4.022285714285714 -0.8718298070022371 0.12096132974398573 0.0003173800663658422 -0.00022950652760202309 8.85716153113407e-05 2.980217960629626e-05 -0.9754746837075483 -0.010464526953276014
4.022714285714286 -0.8788446512737477 0.13519375652858054 -4.007589730975924e-05 -0.00015794841931234178 0.00044879781821823613 0.00010904383100734228 -0.9652432433092685 -0.01353038051325786
4.023142857142857 -0.8743576357118051 0.14191150034499964 -0.00021085766561322337 -0.0006846630059589931 0.00012721678484657007 -9.603577726636352e-05 -0.968153074159057 -0.008190866752600915
4.023571428571429 -0.8762160667098281 0.14380883979164633 0.00035627510036092267 -0.00016145804384828062 -0.00023041778492662328 0.0002443161875071277 -0.963832989659894 -0.005692732830158764
4.024 -0.8697348833658917 0.1553383117857507 -0.000173892266087618 -0.00023445905873105112 -2.4446909276463198e-05 -9.580264667733062e-05 -0.9696214267198229 -0.00897932294439089
4.0244285714285715 -0.871851030125238 0.15804505583106326 0.00018321541702267084 -0.00031301910053017917 -6.338179407808598e-05 9.853013744244984e-05 -0.9707840260599614 -0.00320198695579764
4.024857142857143 -0.8743935227795185 0.17029774829419997 -0.00023472664821508584 -3.540478977265647e-05 -1.765616859196767e-05 -7.732262600509817e-05 -0.9656477779697152 -0.001035558352868856
4.025285714285714 -0.8727794755441687 0.17828314510742732 -6.431722616994291e-05 -6.985876367933026e-05 0.00015123351663316945 2.596687627595638e-05 -0.9674896431138649 0.005057611699385964
4.025714285714286 -0.8698361274321096 0.18507974081644554 4.652037985493851e-05 -0.00011343024697004685 -0.00011369496684790505 0.0001288628968934197 -0.9754106605792469 0.007564371918733948
4.026142857142857 -0.8729073916233427 0.18991313200208296 -0.0001343937639174979 0.0001650880430808394 6.968294751741235e-05 0.0002700865861024603 -0.968356021274191 0.003350675908719621
4.026571428571429 -0.8594360226751045 0.19903573190174292 -5.882083523907945e-05 -0.00025345151418013 0.00010092472111566884 -0.00012126012315213212 -0.9726933448930313 0.00914999234786441
4.027 -0.860387253466926 0.20576286015438505 -0.00023952687436930528 -0.0004699097211025662 0.00010413188274594497 -6.002457986649974e-05 -0.9710454164974808 0.0037535574123173415
4.027428571428572 -0.8652680485296551 0.20796336757680495 -0.0006168403197854507 0.00025476046508385596 -1.0652706050719168e-05 4.688327033657585e-05 -0.9649087963992059 0.015106896402796341
4.027857142857143 -0.8605132688856006 0.21493997416301597 5.2293618268471774e-05 -0.0005436927722238595 -8.783212839494138e-05 0.0001643239715688461 -0.973991104288494 0.010586615687624916
4.0282857142857145 -0.8589372181256986 0.23100898494404273 -0.0005681900291761792 -0.0003230166528531715 -0.00011173232450420205 -1.392320984421832e-05 -0.9706906581230907 0.02314532672723987
4.028714285714286 -0.8629118083501429 0.22815021387806517 -0.00012907650176307623 -0.00010363587434218099 1.0328234834237041e-05 -4.291793045195251e-05 -0.9696777275357362 0.013281681146002445
4.029142857142857 -0.8578859021178757 0.24304146190410864 -5.970108562307712e-05 -9.904943743230389e-05 0.00027582628007561625 -0.0002293160434022344 -0.9694498159247903 0.023186705485007487
4.029571428571429 -0.8546576509596517 0.2440190208137231 -0.00017078285124983176 -0.00024885513810429685 0.00010238155317357278 -6.0627185647824175e-06 -0.9640053293645635 0.019945668167199417
4.03 -0.8491241315232171 0.2525673002079479 -3.487955767862449e-05 8.289684806888472e-06 -9.419736943829854e-05 -3.272448737330029e-05 -0.9720425744599296 0.03218016285674162
4.030428571428572 -0.8490200131944247 0.2644677599531921 -0.00033945716273482625 -2.220282005712869e-06 -0.00022573343340267788 -0.00023477144257881436 -0.9677348245732644 0.02851515548318619
4.030857142857143 -0.8505995909128429 0.26626135326557354 -0.00043683950403034677 -5.2317232741312795e-05 5.0088163277614504e-05 -0.00015809495257323986 -0.9721084519954905 0.023446305612385993
4.031285714285715 -0.8440050588233969 0.27432999483053044 -0.000660877083202061 -0.0003589573543389617 -0.00046141273681675254 -4.6480270281846494e-05 -0.9682574233629745 0.03534470791001924
4.031714285714286 -0.8406090072994127 0.2763528388861099 -0.0005064244797241245 -0.00015525031457503738 0.00020738337324035906 -0.00021042422765799257 -0.9651267577382748 0.024576443375480185
4.0321428571428575 -0.8368002849466616 0.28618950050250763 1.19000986192972e-05 9.378526417702658e-05 0.00013384334687148607 -2.0070062018746746e-05 -0.9736019515151897 0.03492004267752779
4.032571428571429 -0.8364931358113139 0.2953432719963257 -0.00033210349132741104 1.4497537121060813e-05 -0.0001989182098754883 -3.2899913663552986e-07 -0.9661489702379057 0.04355039532441959
4.033 -0.8369989623767952 0.3008528650166056 -0.0005230531201689982 -2.6571328999019357e-07 -0.0002499069716114751 -9.982300206837315e-05 -0.965325565128245 0.04475757152984399
4.033428571428572 -0.839549798504981 0.3098035087511589 -0.0007126680948814602 -0.000725529535621013 -0.000198916244802965 -0.00016069753151812838 -0.9636960075214687 0.03788094054377662
4.033857142857143 -0.8336967599750615 0.3159145280328013 -0.00038792344771873815 -6.629515252782684e-05 3.922471926238e-05 9.41903756970666e-05 -0.9626589187309373 0.04520164550048654
4.034285714285715 -0.8258401363266622 0.3210703789009013 -0.0003093726244072151 -3.210189458480441e-05 8.340869093578565e-05 2.8834825627659036e-05 -0.9665763919449841 0.043810931884803436
4.034714285714286 -0.8187791940465002 0.33338299919637165 2.843046411179128e-06 -7.138412249486087e-05 -0.00018373721819157915 -0.00022636311844263205 -0.9659109182480557 0.05025692252332058
4.035142857142857 -0.8214683149182499 0.33669062597118143 -0.0007226544856181603 9.2126076133415e-05 7.694757834740024e-05 0.00021172212946873347 -0.9675618868287187 0.05178112455770594
4.035571428571428 -0.8148268741935029 0.3443678870941465 -0.00012230181479121633 -0.00011929401014167798 -0.00019630441786412667 -6.841504389363116e-05 -0.9676047429076012 0.055912186306103846
4.036 -0.8119571901986605 0.3522304293625585 -0.000540679735739294 0.000180267379884417 0.00034043317132851416 -0.0002587735153268996 -0.968216922660578 0.057799767958964965
4.036428571428571 -0.8199487086652523 0.3526565841913321 -0.0005144225357430627 0.00016851275001551294 8.356955367656349e-05 -0.00011580326351053246 -0.9674690488306309 0.053058290720749
4.0368571428571425 -0.8109085543675678 0.3638063586705556 -0.0003235331185206461 0.00012555130643776224 -0.00032337230436206874 2.5060670548367528e-05 -0.9715352927500992 0.055245139356827525
4.037285714285714 -0.8043561672870804 0.3711758734139703 -0.0004534060609279641 -0.00010501884687931407 -0.00018611249843973994 -0.0001637467521423386 -0.9633991926862908 0.060186423993270816
4.037714285714285 -0.8036922880077364 0.37110925060599603 -0.00012015147168354712 -0.00011474846237131205 -0.00010727791691549543 -9.02262323230119e-05 -0.9722122126142821 0.056858566890181435
4.038142857142857 -0.7997958093572527 0.392379585378225 -6.538820223108795e-05 -0.00020959784199482703 6.473881921544752e-05 0.00017661135017578918 -0.9625932781569971 0.06181905109483709
4.038571428571428 -0.7996924282774415 0.3892834169703268 -0.0002999507511117912 -9.452620945190524e-05 0.00012028669106871136 -0.00016890718393094165 -0.959818798404516 0.06725457791755422
4.039 -0.7957189574664055 0.39261724665833647 -0.000462120178995206 -0.00014845616747515973 -0.00010356185783048203 -0.0003041999333041817 -0.9598262267291932 0.06307798897326802
4.039428571428571 -0.788712603306333 0.41231982875804335 -0.000621041393081854 2.5541081287985903e-05 -0.00028749414760962245 0.00011278209008354962 -0.9636635906273295 0.06915625337582243
4.039857142857143 -0.7916372200040381 0.41153331809157134 -0.0002943493329986315 -0.00019716062344139802 1.933799984218747e-06 0.00013770701836295955 -0.9698947551406852 0.06993390576286845
4.040285714285714 -0.7868591546876861 0.4093536568054285 -2.0677722693375757e-05 0.00016592850749243753 0.00012962439797170594 -0.0002689331456675945 -0.9628843300455302 0.0731802776030389
4.0407142857142855 -0.7867861695915872 0.4230686769573599 -0.0002955098967914938 0.00015435335590935717 0.0002469685839386582 -0.00018507548683134595 -0.95914504910735 0.07760974270903902
4.041142857142857 -0.7731943334027228 0.4279175072811731 0.0002156375904593505 5.0758591476596804e-05 7.889850028490205e-05 0.0001869708843798439 -0.9693611070457396 0.08430033744860016
4.041571428571428 -0.7709542739113057 0.4359718665041876 -0.00033162619831480713 -0.00014746179137607027 -0.0002764968742071176 0.00021309004961005994 -0.9654167071926962 0.08340617841512395
4.042 -0.7683626014728505 0.44520241305976055 3.553130843108732e-05 0.0003183565404679322 -0.00013480533268794706 1.0300703546009179e-05 -0.9634463020492517 0.08980923253994258
4.042428571428571 -0.7632040502206004 0.44841832317463143 -0.0004513792268129626 6.150354139931456e-05 0.00026690170310303933 0.00027737504247303096 -0.959691248359985 0.09208568498863964
4.042857142857143 -0.7624038022882442 0.44612974597531324 -0.00011294420170114882 0.0006843497902163543 -0.00011536363462303481 -5.2199075765392386e-05 -0.9654586449869792 0.08661514270768891
4.043285714285714 -0.7564544424274224 0.46296829297186565 -0.0002230579078681578 0.0002538420320799895 -0.00021458670299745786 0.00020142465228362635 -0.9652121949054105 0.08745096263970796
4.043714285714286 -0.7506252754317109 0.4643617994677639 -0.0004311291352219538 0.00021199650817838297 2.3346612584360137e-05 -8.109500457395506e-05 -0.9659107470550625 0.08253442596281589
4.044142857142857 -0.750345459041185 0.4738499354089611 -2.4809382051419353e-05 7.545836230644473e-05 5.8954152816357765e-05 0.00020723807589457906 -0.96277435817545 0.09728805781167098
