!Created with skrf (http://scikit-rf.org).
# Hz S RI R 50.0 
!freq ReS11 ImS11 ReS21 ImS21 ReS12 ImS12 ReS22 ImS22
4.0 -0.8338536757833271 -0.25458287257040435 -0.000614071170770309 -0.000583181639063414 -7.071374478596987e-06 0.0002045923208279302 -0.9638531958513811 -0.13046110853778084
4.0004285714285714 -0.8408842872374238 -0.24866201754284004 -0.0001532435536312064 -0.0005491783228263313 -8.952169894456108e-05 -1.95874418461991e-06 -0.9681260741125418 -0.12288116920471943
4.000857142857143 -0.8451041027800482 -0.23759731852562146 -0.0003188051612980443 -0.0006704777314387603 -0.00025648126921684085 -0.00023791066736418332 -0.9673055938043011 -0.1159584278348374
4.001285714285714 -0.8403356476838064 -0.2330928849720203 -0.00035994801309565674 -0.0004294270617379386 0.00026406618581428743 0.0001614574226669577 -0.9639338953144719 -0.11804996869034293
4.001714285714286 -0.8462636821074737 -0.22525609571637523 0.00014931173029702187 -0.0003315140195152737 0.00027272085376184595 -5.8895312942964305e-05 -0.9679068149308145 -0.12173069412706561
4.002142857142857 -0.8441326058458775 -0.22542649912614368 -0.0002579702934112796 -0.0005264217329169177 6.849731746124505e-05 -7.800507596251977e-05 -0.9645826883727466 -0.11184758605486864
4.002571428571429 -0.8477492311402368 -0.21534861058117982 -2.7726734686162996e-05 -0.0005178085487511596 0.0003308320545247701 -6.2674111731405e-06 -0.9701418446501464 -0.106480873115195
4.003 -0.8531606924205802 -0.2035949928370402 -0.0003166214710985598 -0.0005228927520019333 0.0001997490529337912 0.0001031626485699864 -0.9691963772542852 -0.10381640988901919
4.003428571428572 -0.853537137757702 -0.20106077219682356 -0.00048542442867363693 -0.000596950405393908 -4.7561451296666176e-05 -0.00016048453977098867 -0.9620663473056658 -0.09734887451753815
4.003857142857143 -0.8501665531765539 -0.19257097477047444 -3.720326077028621e-05 -0.00044281316944990134 0.0001331927468493729 3.131246946111673e-05 -0.97127494439908 -0.1104460653635686
4.0042857142857144 -0.8605748603886381 -0.18687690744112204 -0.0002827777470256521 -0.0002809319136498096 0.00029661248498352976 9.589627139116115e-05 -0.9673108044655288 -0.09960476444649057
4.004714285714286 -0.8557166659452986 -0.1761558568502047 -0.00042388868174658375 -9.709596946944636e-05 -7.973718578742921e-05 -0.00023856996045986737 -0.9601428122326523 -0.10848727111046952
4.005142857142857 -0.8589184436853455 -0.16877796000203582 -0.0003663001130673585 -0.0007894170188430344 -8.903447235120421e-05 0.0001319018614787545 -0.9683187946771827 -0.09491706296674356
4.005571428571429 -0.8575306784046205 -0.1627770549304606 -0.00023576712151039607 -0.00023868215106464256 0.0004047187847465296 0.00021026279852711348 -0.9593915635602904 -0.09518237254197821
4.006 -0.8633417529751749 -0.15701774092747156 -0.00014690507991355634 -0.0004302457458985104 0.0001201652818879662 -9.448740674394841e-05 -0.9706305510530716 -0.09357524247937041
4.006428571428572 -0.8618023537361045 -0.15384815236984747 -0.00034357969982826494 -0.0004546535697478555 -2.2740746395814986e-05 -0.0003150764759296169 -0.9685045002733517 -0.09294766022731689
4.006857142857143 -0.8672724350635349 -0.1412604309092925 -0.0007452100410257277 -0.00025430405925814907 -0.00018372501339460794 0.00014623623886611723 -0.9641691398220397 -0.08769956279034025
4.007285714285715 -0.8690337729517748 -0.13425298910964384 -0.0008330368895551244 -0.00013793966665011479 -9.771128145998806e-05 9.884843554692108e-05 -0.9686989385754822 -0.07940441402765985
4.007714285714286 -0.8662537930737986 -0.12992619528535368 -0.0004643448584124045 -0.0005078093861555396 0.0001843128017335688 -8.228800977432665e-05 -0.9624274250831251 -0.08299323036820873
4.0081428571428575 -0.8691218773906619 -0.12695631946202257 -0.0003834340618531029 -0.00021509193410685555 -8.662394011379271e-05 0.00036398383799926656 -0.9696184417459299 -0.08718291098205042
4.008571428571429 -0.872671438692235 -0.11248045778410852 -0.0004747345871738845 -5.4825692842619686e-05 -0.00018187462145803686 5.066750284684511e-05 -0.9635615614234037 -0.07751163232804657
4.009 -0.8720911334788627 -0.10829205201740748 -0.0005498759264949592 -0.0006276417935001266 -2.3569766171621285e-05 -0.00023486205272815004 -0.9735760048604089 -0.08528759974348646
4.009428571428572 -0.8703382854445105 -0.10422528583898674 -0.00048677468446803795 -0.0005682639887757865 0.00020433765686691247 -7.411757169715212e-05 -0.9773094651704383 -0.07528178968641817
4.009857142857143 -0.8718929016157504 -0.09370141230660124 -0.00019716955148866403 -0.00010241815185264201 -0.00010081256559148217 -8.810332009569263e-06 -0.9670527419043461 -0.0696237807540523
4.010285714285715 -0.873848852678755 -0.08669251290522292 -0.00045344181173409505 -0.0002028440932328382 -0.00024244904780189186 0.00025905935387370726 -0.9640920895065337 -0.07434350409131665
4.010714285714286 -0.8739033698055958 -0.0810046124373007 -0.0005863974666700524 -0.0003105979090700706 7.892562410863785e-05 0.00015965639681756602 -0.9685007949172548 -0.07202119722228231
4.011142857142858 -0.8702628519495771 -0.07630340792489045 -0.0007444748448554772 -0.0004485361798335285 -5.7071117385827285e-05 -0.0002638054071223114 -0.969773865749778 -0.0663001392518757
4.011571428571429 -0.8708756127332161 -0.06143682487656838 -0.0006565643351052687 -0.0005073987028671096 -0.00017517623106948568 0.00020686326194312946 -0.970918008458258 -0.06679946068294747
4.012 -0.8758760019207308 -0.0600598507500841 -3.8563391277805956e-05 -0.0006133105696888916 -0.00016213989289437018 0.00022400316838976713 -0.9738423812206086 -0.06303180444252819
4.012428571428571 -0.873107224521759 -0.05030891713251823 -0.00045070844031448894 -0.0006636067494418736 9.196351704166237e-05 6.233043290020121e-05 -0.9644805226382095 -0.05522440266588236
4.0128571428571425 -0.880565774868612 -0.041548594639991825 -0.00033418988654830496 -0.00039024785382414255 0.0001495997172265417 -4.1094754242373524e-05 -0.964586317561392 -0.06242237364750387
4.013285714285714 -0.8709467177992328 -0.037727553893135896 -0.00033424403464809487 -0.001051510742726286 -0.00017063801029410812 6.367989336404459e-05 -0.9648311577721725 -0.05862396720297692
4.013714285714285 -0.8739593860919326 -0.026969948665494677 -0.0005789309389179353 -0.000439871873159672 0.0001443203458603844 0.0002085274233562214 -0.9757711539272677 -0.055035319789025094
4.014142857142857 -0.8729113692562974 -0.020094757610915632 -0.00043604670285192135 1.1745539006215182e-05 0.00017106222861032954 -0.00013733012521648048 -0.971007977105845 -0.046818413050187184
4.014571428571428 -0.8717384097496759 -0.017925571201940167 -0.0004341119110725169 -0.00012582441131126832 -0.00011982037541108061 -0.00017970371417193928 -0.9706656127258633 -0.05063113078163884
4.015 -0.8817931775738974 -0.005136286860152113 -0.00051441316762919 -5.287141004178981e-05 8.200501928498127e-05 0.00015847794399222534 -0.9652336719654607 -0.05059199655003775
4.015428571428571 -0.8776349568392978 0.005141254524027674 -0.00045134584702483327 -0.0007330070318137802 -8.036890559383141e-05 0.00027472218018574006 -0.9713455006151783 -0.048977948156240354
4.015857142857143 -0.8770045349102537 0.01042886121247948 -0.000741947129661202 -0.00034812614144286304 4.313793929751834e-05 -3.58722475289247e-05 -0.970847183224693 -0.04570152142034816
4.016285714285714 -0.8760732714969096 0.015810749430556083 -0.00039939628752194397 -0.0004436562759526106 0.00020219789953070658 -0.0003922198521041665 -0.9646472823948907 -0.04307062333144036
4.0167142857142855 -0.8774550290782854 0.02200500806401316 -0.00026035277907462045 -0.0002970322711937017 0.00013973585116807 0.0003108092322024708 -0.9666606994666703 -0.049268194521939826
4.017142857142857 -0.8733060256959795 0.03375909862413224 -0.0007603055268575071 -0.0006836967881529168 0.00023288907109283275 -0.0001297861139957976 -0.9622311216328033 -0.03851432669298575
4.017571428571428 -0.8777140959789671 0.03741762187453623 -0.0005456018544080472 -0.0003812701483503353 -0.0004813352355910782 -1.1953862376170525e-05 -0.9748647970889625 -0.042651236295764935
4.018 -0.8722019346349723 0.04208454241116989 -0.00034850351157193787 -0.0003453543390513627 -0.00011038039211220716 -1.108001578503468e-05 -0.9703915310799659 -0.04088851088513621
4.018428571428571 -0.8769457835997523 0.050597526726146355 -0.00047552533370543305 -1.2429684671520765e-05 0.000277808402654825 -0.00011060089402571658 -0.9714046668893566 -0.03357805737943473
4.018857142857143 -0.8701462118109965 0.06098794274377272 -0.00048034577973165606 -0.00012570846221252553 -0.0001835316426828501 4.141153662231212e-05 -0.9602754239023361 -0.024534082710030332
4.019285714285714 -0.8691215031623514 0.0697955913517517 -0.0005693415900634589 -0.00026640849674512197 -0.0003162284207391117 8.441395484022472e-05 -0.9714677765622756 -0.027653381456143985
4.019714285714286 -0.874065888764947 0.07667709290190555 -0.0004950959740078177 0.0003360067143884939 -0.0004366757670178619 -6.778039240529027e-05 -0.9644215370089343 -0.025249270947396246
4.020142857142857 -0.8716986905699098 0.0808448535607038 -0.000903526076275778 -0.00032202102496387355 -0.00031849258205199956 -0.00028887454413586744 -0.9682861785836954 -0.024470498547095945
4.0205714285714285 -0.8718445184814908 0.09521500603816684 -0.0003209477870249636 -0.0003799027644348052 -0.0003109107470956248 -0.00012124946484729826 -0.9691856486054352 -0.025608652740950224
4.021 -0.8679833454687108 0.0965327254248918 -0.00048286234296547517 -9.406314395785204e-05 -0.00021148364123154317 -3.18945304521463e-05 -0.9672454544253908 -0.018827178158320742
4.021428571428571 -0.8692680795078918 0.10800123387625189 -0.0004518835439571444 -1.662176744178343e-07 0.00014169441010726294 -1.974330556671021e-05 -0.9692652604673894 -0.01964027902359122
4.021857142857143 -0.8692224686725633 0.10991284606288801 -0.0004922397710289057 -0.00031949277436957524 -4.831507366754874e-05 -0.00012376449736819546 -0.9674428373724163 -0.015089415183101614
4.022285714285714 -0.8609228427993124 0.11603499963623298 -0.0003977474751108621 -0.00017993473495099175 0.00030107216362183455 0.00021556354354137925 -0.9761970132662513 -0.008547130223910876
4.022714285714286 -0.8656617433215176 0.1295445508979531 -0.000708862575061205 0.00011704252017306029 -0.00011885002598807704 -7.534129895369831e-05 -0.9645991131697651 -0.013999677133779783
4.023142857142857 -0.8626493751040957 0.13347894010997638 -0.00043831170536291644 -9.08540540412742e-05 -8.453264825563415e-05 0.00011059163595499705 -0.9683839411779513 -0.008589980987867033
4.023571428571429 -0.8624414783127878 0.13681735592880725 -0.0003905420189791769 0.00017085291836456667 -0.00016495903830276854 6.952192916536765e-05 -0.9629530149102127 -0.004623493534534955
4.024 -0.8589629009476628 0.14956153224898328 -0.0006812355199296934 -7.986130953772396e-05 -0.00010181004976614326 -0.00011435344927954335 -0.9713395608309667 -0.00790617092553002
4.0244285714285715 -0.8618908871290883 0.1518942719446648 -0.0004356872600766614 0.00027904259340757646 -0.00015332651346163306 9.598895497630947e-05 -0.9708361966226439 -0.003514174806807872
4.024857142857143 -0.861277188693843 0.1637465482094923 -0.0006886803214207626 0.0002557491760784018 -1.885254104657779e-05 -0.00010832502088047246 -0.9672613121565182 -0.0014522750242898705
4.025285714285714 -0.8613883596860482 0.17138160433588506 -7.021023753653494e-05 0.00013171200094649562 0.00010095714977718894 0.0002602201808816327 -0.9668062596383569 0.0048215661156055705
4.025714285714286 -0.8587303618864309 0.17836251302571554 -0.0006545798194634412 -0.00014752760096663073 -0.000274243978693864 0.00022158007408297392 -0.9758755807686782 0.009103876125983321
4.026142857142857 -0.8616313623628564 0.18285360121449834 -0.0001932750285061871 0.00023427014670268054 -0.0001049148631747413 -0.00011858065713430425 -0.9700189879049524 0.003788194035604469
4.026571428571429 -0.8492117033122341 0.19157874140256484 -0.0005531398165806797 0.00017728362030744536 -0.0001469245439382162 -9.75135601375656e-06 -0.9741948263646802 0.0066359387399391526
4.027 -0.8521133388366199 0.19951830134610452 -0.0005394790658131963 0.0002484864364301629 -1.7087362562531755e-06 5.5672045285279065e-05 -0.9703106102266353 0.006440562921259937
4.027428571428572 -0.8542513202632313 0.20053603127586367 -0.0008870903734297942 -6.863760104272969e-05 -7.620772237957757e-05 3.276438459643072e-05 -0.9673910343569101 0.016866250602675957
4.027857142857143 -0.8495058043070607 0.2084720353098175 -0.0007768745817353383 -0.00021839581948682936 -8.068415982090513e-05 -4.065689772312409e-05 -0.9719461752075977 0.011901946147826253
4.0282857142857145 -0.8482901350830538 0.22091874878331855 -0.0009207461561025086 -3.4783820314473e-05 0.00017139196146435828 9.04043163404587e-05 -0.9707837033871844 0.020943379305297945
4.028714285714286 -0.8536668610837481 0.2220506435256026 -6.001183456421824e-05 -0.0005301840420649643 0.00014664072783718838 -0.0001740284208003439 -0.9709677505447225 0.015188941449790676
4.029142857142857 -0.8460852361574939 0.23416777138502406 6.51761665133602e-05 0.0002199586067320928 -0.0002220971963263087 0.00022768664014697254 -0.9689293488741133 0.02451514119784916
4.029571428571429 -0.8453294239945655 0.23662860015675236 -0.0006321375437979403 -1.7013049819160896e-05 -0.00010405189567194698 -0.00035604765236867266 -0.9622226017915948 0.019505750380980364
4.03 -0.8390341824749578 0.24397054219188716 -0.00023923880640442922 0.0001271530221569869 0.0003201855748826788 -0.00024203689585060374 -0.9726564962625299 0.03274024074411183
4.030428571428572 -0.8384528271245111 0.2549428434501965 -0.0007160015991825091 -9.604447876973713e-05 -3.900586746354764e-06 0.0001503173421173195 -0.9696973093006639 0.02956497663928349
4.030857142857143 -0.8415650511418273 0.2587107823920078 5.665380014893292e-06 0.0001901998095173656 3.0297666276493014e-05 5.974194423953994e-05 -0.9721447465384024 0.020928788365082725
4.031285714285715 -0.8317851362925094 0.2671473938629982 -0.0007483272058370989 0.0004080263657593137 -6.595189761031119e-05 0.00037404085822283103 -0.9684353248933241 0.03581626371543048
4.031714285714286 -0.8293502926512002 0.26994805881054984 -0.000986711125230512 6.447803915357986e-05 -8.230737185393393e-05 9.4075846322951e-05 -0.9635978284020444 0.02488205642103146
4.0321428571428575 -0.8281104514279515 0.2799142558148485 -0.0006694370860306196 0.00027425972837452487 -8.515465847260436e-05 9.410886018082873e-05 -0.972481073306846 0.03617527764340712
4.032571428571429 -0.827417239672134 0.28675048530068065 -0.000362684982048228 0.00012486696335808575 0.0002521713552177852 0.0002757978448712416 -0.9678112809917336 0.04513523051098621
4.033 -0.8276855440389942 0.29213131243921797 -0.0007004172037447474 0.00041331296500056854 -0.00023370107204891797 8.31970788695129e-05 -0.9663886362392203 0.04496292536471356
4.033428571428572 -0.830290576108152 0.30067012853548286 -0.00023264884210542918 0.00013290691727284635 0.00016063697324563913 -9.372175002792627e-06 -0.963137505978161 0.03922200555076067
4.033857142857143 -0.8222280728768817 0.3088832204278581 -0.0007858972039052408 0.00011608370258663406 -9.53736780108933e-06 6.456538297588597e-05 -0.9646118894822537 0.04405478172428606
4.034285714285715 -0.8146433499647484 0.31248264174485385 -0.0006228665795259019 0.0004234664862774337 0.00011822874019132919 -3.4667046268244876e-05 -0.9657948153272586 0.04201799152735545
4.034714285714286 -0.8092697492627289 0.32482928702833835 -0.0007067945016089003 0.0002458529252697817 -8.396248104214398e-06 -7.57946654981724e-05 -0.9643171182195718 0.051319330784784505
4.035142857142857 -0.8113276231453619 0.3298782450740416 -0.0007064987712091312 0.0002465555129680813 4.1767169263560784e-05 3.2578448115842636e-05 -0.9670697528375012 0.053624114675320654
4.035571428571428 -0.8046808540553838 0.3351004421093362 -0.00018220883232365528 0.0003633841213139745 0.0002532032272395339 -0.00019762193966697407 -0.9672085595662737 0.057454062734434264
4.036 -0.8027498275976176 0.34397802531571847 -0.0008189681706381656 0.0001510228258098354 -0.0006788244051314448 -5.86797659092628e-05 -0.9704435312737151 0.05600385139917438
4.036428571428571 -0.809664123547953 0.3451187675574387 -0.0006239906402720027 0.00022428158171668708 0.00019853641796416325 -5.116548555103687e-05 -0.9679005445325787 0.053305083055007044
4.0368571428571425 -0.8021680076993767 0.35512915849426824 -0.00023529725848466077 0.00017666411214281884 -0.000315836783344983 0.0001676975975481441 -0.9692673576789631 0.05258789861360726
4.037285714285714 -0.7947431015482714 0.3624836579015185 -0.0004372424477583471 0.00019849253562713218 2.386637293747585e-05 1.6404710832225795e-05 -0.9624485652709897 0.06011749731754888
4.037714285714285 -0.7933722376036375 0.3635854721339025 -0.00022802991177275515 0.00043309357289530114 5.2627993640204136e-05 7.241392295505377e-05 -0.9696069626309942 0.05709368639573594
4.038142857142857 -0.7894111049032185 0.3809728757759261 -0.0007939636504410757 0.00016385744363232578 -0.00037108851092419 0.00030106022737028977 -0.9637963294295661 0.06250400040704002
4.038571428571428 -0.7908362619540051 0.3809585857961662 -0.00033890288655411975 0.0002446743982229132 0.00011217027939522887 -1.843323940599902e-05 -0.9587594608542072 0.06737188366633635
4.039 -0.7843941440993032 0.38486342760563114 -0.00038658170975554946 0.0005835955033239312 7.792492866150434e-05 7.352856467597947e-05 -0.9593895855498239 0.06431949315347263
4.039428571428571 -0.7786281159881899 0.40378957278573835 -0.00028165267159059604 0.00047023255279524736 2.1245160560163032e-06 -5.7026283986303494e-05 -0.962350153483582 0.06814786120817473
4.039857142857143 -0.7827308582850766 0.40173664429750894 -0.00037971086526475834 0.00029559930117771744 0.00022518855673231883 0.00010718642513007402 -0.9714752575041322 0.07010673823333305
4.040285714285714 -0.778674344975107 0.3997433977627664 -0.0004274062376541234 0.0006928361285753197 0.00026227635626573987 0.00029900087163170367 -0.96470303692194 0.07426752003728046
4.0407142857142855 -0.7763947559635085 0.41399540220509473 -0.0005146749658530549 0.000461909113451627 0.00012800609791166747 -0.00041745693170929914 -0.9590562518111028 0.07911965323505943
4.041142857142857 -0.7633919869669143 0.41845865460457715 -0.00011989733861340847 0.00036702025183940607 0.00020470826279278456 2.4886312062924674e-05 -0.9694050272334439 0.08647793663445484
4.041571428571428 -0.7632202141076739 0.4261040919455877 -0.00046934660447611867 0.00022508792210631674 0.00015715572043791855 5.227326212590255e-05 -0.9650344555451451 0.08332945360968548
4.042 -0.7590424523572339 0.4353609739059526 -3.737449418888948e-05 0.0002787824055001939 0.0001919888060597348 -0.00018610241714057127 -0.9618160549977007 0.09047566900375748
4.042428571428571 -0.7533416672856881 0.43828763687036437 -0.0002824684798266375 0.0005724339331891802 0.00034566364490823734 -5.5171276363237715e-06 -0.9596262902052518 0.09238138610984703
4.042857142857143 -0.7548031814713095 0.433359564693376 -0.00048035107366026664 0.00018635960477586706 6.248800796041052e-05 -0.00026745730831918146 -0.9654801423788051 0.08775178307533453
4.043285714285714 -0.750226134169992 0.4539863683474371 -8.582188008655279e-05 8.443234243226544e-05 -7.343875739233702e-05 -1.653711750817816e-05 -0.9653781182470716 0.0864711644083141
4.043714285714286 -0.742961147530908 0.4537676858250085 0.0001229468622902304 0.0007182060595345893 0.00015754622096292908 0.00020229064739534265 -0.9693235069423909 0.08297140064913365
4.044142857142857 -0.7444267532899108 0.46326898634260355 -0.0003234215199089295 8.461629760969647e-05 -0.0003318776455524615 8.53359942328824e-05 -0.9628930267152153 0.09664217169648265
