!Created with skrf (http://scikit-rf.org).
# Hz S RI R 50.0 
!freq ReS11 ImS11 ReS21 ImS21 ReS12 ImS12 ReS22 ImS22
4.0 -0.8511183557331189 -0.25399530865797953 0.000368314741666359 -0.00034051414180577295 0.00010448443044135801 -9.858329014560555e-05 -0.961868448289701 -0.13226127610816285
4.0004285714285714 -0.8585860068655784 -0.24518508562930286 -1.816357495828244e-05 -0.0004169350997970167 -5.3430017286880527e-05 -8.545200386088348e-05 -0.9725372763993162 -0.12285636609510701
4.000857142857143 -0.8617412835108194 -0.2358235380746389 0.0003487679763401682 -0.00041940803479722214 0.0002209776216793566 -0.00027750266817779353 -0.9661943040701909 -0.1173708175015834
4.001285714285714 -0.8558127761352825 -0.23122694354919637 -0.0003616331938676795 -0.00036465933397853263 -8.891343988677525e-05 0.00011987291533440404 -0.9641979361981602 -0.11583317162465491
4.001714285714286 -0.861818203493142 -0.2233000558675708 -5.75938968022762e-05 -0.00033061372555507213 0.00017870999731418673 0.0001602626042520904 -0.9657354700756859 -0.12077338749481115
4.002142857142857 -0.8615169387987166 -0.22195462335183197 5.14885107790305e-05 -0.00032724202322304544 2.876393073519568e-05 -5.510587522838951e-05 -0.9650878065334895 -0.11083342230726181
4.002571428571429 -0.8639642632026906 -0.21310798764453745 6.700540610980444e-05 -0.0002894501104111451 -0.00028239636222258133 0.00037497191278318664 -0.969945081033318 -0.10681240180161224
4.003 -0.868844613859489 -0.20249958107162513 1.0500944645358506e-05 -0.00023036159494118177 0.0001988638567509761 -0.00010739276112299306 -0.9681596667868884 -0.10384876991456542
4.003428571428572 -0.8720834268252206 -0.19811584618647024 0.0002454148841407765 -0.0003531332404312403 0.00021538471599053018 3.403812240064069e-05 -0.9608357929677394 -0.09894274735878011
4.003857142857143 -0.8671108832333366 -0.18841276404284743 0.00034417057527827525 -0.0004641394138973661 0.0001406116389936033 -0.00018094790260183552 -0.9717359465455762 -0.11138470730193961
4.0042857142857144 -0.8792323605357827 -0.18168915591951407 0.00030446968259576005 1.6263948591699812e-05 -0.0002882967191041143 2.7369026045985354e-05 -0.9646989307093816 -0.0988568344887126
4.004714285714286 -0.8732006280006205 -0.17209257473721523 0.00022664302601537638 -0.0003924908703356812 0.0001550985296750039 -0.0001592529949380424 -0.9584581986158383 -0.10840254356295201
4.005142857142857 -0.875257386694512 -0.16434120774384706 0.0002516116796370219 -0.0003289129272594735 0.0002690262892781476 0.00013409645745611766 -0.9697767268806916 -0.09481343272966165
4.005571428571429 -0.8760556775659871 -0.15873457682659495 7.26849391234766e-05 -0.0005036852961315665 -5.022683889475456e-05 0.0002117075554904373 -0.9586917334356679 -0.09691310865830069
4.006 -0.8791270405228531 -0.15419670960802334 6.978728548658386e-05 -0.0006231586320941403 -0.00022531944280013358 -1.3392603046841826e-05 -0.970141612319336 -0.09405632040403661
4.006428571428572 -0.8804913735484252 -0.14799433785513638 0.00017066201288391556 -0.00047491326566547696 0.0001575679516484387 -0.00021231010150031608 -0.9668826854291751 -0.09298340429294545
4.006857142857143 -0.8830743323158053 -0.13651160074112195 -0.00026742667809020256 -0.00010912987784450398 0.0001922315516886826 8.500668169400443e-05 -0.9649243378131523 -0.08718981038583073
4.007285714285715 -0.8856879398044023 -0.13019873212639116 0.0003001836107374176 -3.634059737530164e-05 -5.071454580657049e-06 -3.7786269034533374e-05 -0.96806119644435 -0.07850489302810798
4.007714285714286 -0.8827435508464773 -0.12594597642015834 0.000122951246639891 -0.0004910307637604435 -6.531305357617555e-05 -2.4936709466775005e-05 -0.9654228627764658 -0.08328081795301803
4.0081428571428575 -0.8844614184444021 -0.12251977595524209 -0.00039706644991141055 -0.0002682152379376431 0.0001938216738399135 -0.00018991336657112458 -0.9663574007285959 -0.08834098320210641
4.008571428571429 -0.8867754004493176 -0.10941714849938608 9.537549537310042e-05 -0.000795492524473602 1.0334347330423875e-05 -0.00029325333924121313 -0.9642266347605805 -0.07892219974654117
4.009 -0.8899042085871522 -0.10352887496435863 -0.00014095694276314275 -0.0004918585358048668 9.001929861507615e-05 -0.00011297155532255354 -0.9753419193534739 -0.08657431188007832
4.009428571428572 -0.8847170806569735 -0.10013843546033356 -0.0001465050744274948 -0.00036412126511739697 -0.00014200714175451084 -1.9521898300127597e-05 -0.975372309055977 -0.07726089456690813
4.009857142857143 -0.8876152333090856 -0.087412220824132 8.579405876285939e-05 -0.0004983548492299941 -0.00020145529757846349 -2.9562697038990284e-05 -0.96744429451145 -0.0700865201752034
4.010285714285715 -0.8906745527806729 -0.07975724962258014 -0.00011377995462398062 -0.0002770475062914681 -4.7274208364333364e-05 -0.0001171401488136091 -0.96659852748958 -0.07340954333493784
4.010714285714286 -0.8901209108850446 -0.07522953332034589 2.405552045192409e-05 -0.0005235189038976983 -0.00011895314919922222 0.00012204889636597323 -0.9698168893806085 -0.07173707030837273
4.011142857142858 -0.8855236009900951 -0.07220712173380274 -0.00014523371005602362 -0.0005067985901136381 0.00017065371290856358 0.000186322147842349 -0.9696019756744193 -0.0673679153995061
4.011571428571429 -0.8877141004177884 -0.05601897630439436 -0.0004241034056108996 -0.0002606351629620195 -0.00019457912819751053 -0.00024694641856396957 -0.9712892769407968 -0.066113672850616
4.012 -0.8918035359121109 -0.054255864305873765 -0.0001839322374326243 -0.00020731262933355518 -4.705626692142745e-05 -4.289257149167586e-05 -0.9756216425665012 -0.0633850186030237
4.012428571428571 -0.8879517425994208 -0.04295467178153933 -4.694373263272993e-05 -0.0005097661949854765 -6.084412126059479e-05 6.551049689614306e-05 -0.9634167296449946 -0.057247928295969315
4.0128571428571425 -0.895378392437055 -0.03503207360652073 0.0002406505487533568 -0.00022708325850716367 -2.898164364715737e-05 8.170780278325336e-05 -0.964739830294662 -0.06241215195854328
4.013285714285714 -0.8863802143662622 -0.03254533838168561 0.0001603567510805981 -0.0003189890625588377 -0.00032581646252623816 -0.00022381540684199305 -0.9631557459094711 -0.060251179477117126
4.013714285714285 -0.8895479454307547 -0.021928613830390062 -0.00013924301148421754 -6.319200789252096e-06 1.6342516595581475e-05 -6.183372083705964e-05 -0.9749977447619287 -0.0526140866440516
4.014142857142857 -0.8892284765684163 -0.012642496764089836 -0.00013561150373520714 -0.0001267857524162689 1.8054873769535936e-05 -0.00020728729840174535 -0.9720949942624674 -0.047005887064895176
4.014571428571428 -0.888652129982145 -0.010999335392506297 -0.000406204308081985 -0.0001828070982178996 -0.0002289163724847297 3.3498547531483773e-06 -0.9691347732279163 -0.054045336293114296
4.015 -0.8988239392028737 0.0008160936162822189 0.00012441494090779438 -6.836170146421765e-05 -5.721928292907103e-05 0.00016122512872051832 -0.9665201761686617 -0.052570141805125765
4.015428571428571 -0.8931924687170515 0.010542741818381376 -0.00035098067133080565 -0.00020851035685014987 -0.00015667662524354237 0.00022300026696896072 -0.9715703508450605 -0.04902215581200752
4.015857142857143 -0.8913857394142388 0.01743446855222392 9.269694422305578e-05 -0.00016494182200281178 0.0003266135042837353 -0.00011990887046346287 -0.9710175170019797 -0.04890862890215813
4.016285714285714 -0.8927678503242489 0.02315782864800482 -0.00045464493778229624 -0.0002668726892521855 4.1843850409691714e-05 -9.868537912508687e-07 -0.9656793669916771 -0.04254479937337173
4.0167142857142855 -0.8911151239782172 0.029729068408047996 0.00040835544744883303 -0.00026401095115716113 -0.0002948103467878336 -0.0002928025190104398 -0.9658607565430648 -0.04916394233002383
4.017142857142857 -0.8873969795633199 0.03941969356462046 -0.00014633549827313604 -0.00032518818521909404 -0.0001755069114673874 -0.00023311204461510423 -0.9614908334915526 -0.04028429134893156
4.017571428571428 -0.8927971674811598 0.04284343366515171 -0.0006460820167775177 -0.0005002700000051252 5.738787610653739e-05 -2.047847569280266e-06 -0.9752242393393522 -0.03975236016752932
4.018 -0.8888580256088472 0.05025594406877178 -0.0003947238282949653 9.812859569997752e-06 -0.00016979152791138632 0.00012894896806476088 -0.9698953125932179 -0.041267556415693234
4.018428571428571 -0.8942990747314111 0.05904789586634903 -0.00045323068915871176 -0.00023911300446399187 -0.0003575239837957101 6.478246915989413e-05 -0.9709235103571361 -0.03486250609761169
4.018857142857143 -0.8854018938273079 0.06813177620699314 0.00013501970179423758 -0.00047988217945939157 0.00013021829627028086 0.00011466145810476547 -0.9607754878933722 -0.026736802271443955
4.019285714285714 -0.8858037156338001 0.07714601185267063 -2.209562627044164e-05 -0.0001288530203456862 0.00020080210043973238 -1.594448482100446e-05 -0.9709192825829877 -0.029172662387876216
4.019714285714286 -0.8887903605780476 0.0842158817866715 -0.00026776071290975773 0.00011108733178246577 -0.0002909127669673811 5.702744665079889e-05 -0.9649026054760925 -0.028942930885778383
4.020142857142857 -0.889342307778482 0.09025577462219524 7.173311451344212e-05 -9.134974994877208e-05 -0.00024498049991860706 0.0001416042858894685 -0.9668571495333623 -0.026423464276183698
4.0205714285714285 -0.8850848935596906 0.10394272738860676 -5.637371068263939e-05 -5.2744061851530545e-05 0.000181128257052848 0.0001193845811572854 -0.9675815891045692 -0.026395753089407656
4.021 -0.8847872222868535 0.1034521151381138 -0.0003009923784371606 -0.0004778710283603835 6.697758673373834e-05 9.635753304585588e-05 -0.965317436035686 -0.019528071476028426
4.021428571428571 -0.8812412846067393 0.1147317922306347 -9.783637602286892e-05 -8.673682952523686e-05 -0.00012031492697178007 -0.00017129777352693353 -0.9694775336994701 -0.02067330314345601
4.021857142857143 -0.8830561919180052 0.11693375739304111 -0.0003014631847451741 -0.0002796235811273379 -6.556089439100844e-05 2.37373875889851e-05 -0.966710472272558 -0.01525910139040606
4.022285714285714 -0.8753860924940755 0.12379805882781261 -0.000306222325955197 -0.0005989449280781303 0.00032879659839274693 0.00013178081790009912 -0.9756075363802116 -0.01183879521835843
4.022714285714286 -0.8816339883944129 0.13730128620587018 0.00012614063477345004 1.2265034354895387e-05 7.480727498737558e-05 9.33686782592108e-05 -0.9647900886974483 -0.014625085148726317
4.023142857142857 -0.8779899782357419 0.1441768668701744 -0.00044272054355415315 0.00019957393728710167 8.363552355097686e-05 4.384350460625208e-05 -0.9669776491637357 -0.007216747675354474
4.023571428571429 -0.879595568900434 0.14463718841179707 -0.0003355152221351576 -2.0051784679201662e-05 -8.929748163248301e-05 6.411814958778783e-05 -0.9606946182791154 -0.005792494749342985
4.024 -0.873682896814225 0.15666350701832948 -4.143447635743704e-05 -2.122545280975977e-06 0.0002080250963987092 -0.0001020624096304875 -0.9713710365622182 -0.007707019972320476
4.0244285714285715 -0.8773385190381937 0.16194332586901491 -0.0004111226839138763 -0.00023572352190872156 -6.72790152016417e-05 0.00031343540244472466 -0.9701638590565101 -0.0020817857538836283
4.024857142857143 -0.877043801711461 0.17301474170106323 -0.0006517959766743915 -0.00010380023407365604 0.00016718646044106139 -8.99260437868925e-05 -0.9668587032196003 -0.001085076119780174
4.025285714285714 -0.8756143943595449 0.18004059234390024 2.424027406449233e-05 6.559950943504395e-06 -0.0001125624479845816 0.0001569225169100528 -0.9672662215389826 0.0033213671710300477
4.025714285714286 -0.8743759126500156 0.1872883521564539 -9.090597051791073e-05 -0.00016536117113042907 -0.0002917704482240215 -3.522345814761912e-05 -0.9767679818015665 0.00588349350359974
4.026142857142857 -0.8772649147190211 0.19075118796815171 3.3231922334554836e-05 -0.00032167788166975216 8.955694362902964e-06 9.857053205663263e-06 -0.9710238567677504 0.0029769990560753767
4.026571428571429 -0.8623515805766871 0.20229785204733614 -4.0440591440042794e-05 -0.00026372899188905393 -1.5228988529501845e-05 -5.752998527552262e-05 -0.974218022079375 0.009271096154650372
4.027 -0.8658204379818418 0.20807816661302406 -9.948545127360266e-05 0.00024917821948404207 0.00015127786608601403 0.0001248809221336224 -0.9709570755209872 0.006881248643438302
4.027428571428572 -0.8676930821468057 0.21098751652673675 -0.00027193375746043414 -4.876953979959984e-05 -2.6032418043839712e-05 -3.143840962303442e-06 -0.9660026615265553 0.015434247287076954
4.027857142857143 -0.863969125305152 0.21597488750724836 -0.00018538696557862856 -0.00022121427633028226 -0.00015739228928164225 6.55417004156792e-05 -0.9757406238711327 0.010309426975136099
4.0282857142857145 -0.8616794951269523 0.23276469976383993 -0.0007966867981213453 -0.00019044876492682491 5.397803317123253e-05 9.753636009039067e-05 -0.9726376921187277 0.023427022735377803
4.028714285714286 -0.8677721786718396 0.23236543220190603 -0.0003603736243678179 7.958218846705461e-05 -0.00021773708820578606 0.0001188840511558678 -0.9705620950327414 0.014063343730458125
4.029142857142857 -0.8599506261462342 0.24479718413093823 -0.0002662333485565107 -0.00035186099893626667 -0.000165903352178827 1.8205173154596255e-05 -0.969705581616166 0.022513787635484523
4.029571428571429 -0.8578910167999444 0.24869641253207644 7.97939807489301e-05 -0.0004656971571065636 -9.846781324830626e-07 0.00014349986762970571 -0.9645755606686733 0.01978517410228704
4.03 -0.8532464295573996 0.25400654018763863 -0.00024997667976412287 -0.0001817213068622143 0.0005422232144106879 -0.00012540255539372704 -0.9725876584739152 0.033004890742541135
4.030428571428572 -0.8526904523763245 0.2649969789379781 -0.0003598824175138584 0.0002386695020363337 -0.00014071479110426595 -1.114503068810258e-05 -0.9694763739469024 0.02818954416117678
4.030857142857143 -0.8542879406430403 0.2695908293704198 -9.252698197743285e-05 -0.00017709580204455856 0.00021157885846588638 6.91098623269795e-05 -0.9719838025065157 0.023403031051535295
4.031285714285715 -0.8468586051114111 0.2778280607855069 -0.0006309905622971868 0.00011330677921321209 3.944065136705033e-05 -3.364437074683357e-05 -0.9682343358237941 0.03385945026944618
4.031714285714286 -0.8429281222367305 0.2787928390757897 -0.00031434641303774806 -1.9438532752223853e-05 9.700313651161846e-05 6.812865610723954e-05 -0.9642547211179944 0.0221661479923408
4.0321428571428575 -0.8396591953345182 0.28993866260551254 -0.000550037885294495 -3.133387840936374e-05 -0.0002920760434193669 -0.00011339401879136444 -0.9742896725640495 0.03473671169176011
4.032571428571429 -0.8414374034816865 0.2979771705337368 -4.820500027610419e-06 3.894560534446633e-07 5.9956736288139385e-05 -0.0002799751533527435 -0.9662178305334402 0.04344267266792532
4.033 -0.8405858831352486 0.3036584785652933 -0.00017479774372517937 -6.264138409841311e-05 -0.0001577859570270551 0.0001921147283199277 -0.9659182080631302 0.044434268985172054
4.033428571428572 -0.8422113493851029 0.3115380394834856 -0.0007107219126950028 -4.1257844579654845e-05 -0.00027004151793450344 -0.0002508668168472171 -0.9638278488483945 0.03678444025335713
4.033857142857143 -0.8357707289456914 0.3181901783471233 -0.00015002944045323002 -8.77689595010212e-05 0.00015175692663982346 -0.0001665121974708591 -0.9627218373598945 0.04462373625448854
4.034285714285715 -0.8282315664490809 0.3233306205788021 4.600105155812851e-05 -0.00013569509218328633 0.00027760750329075345 -6.380687486612288e-05 -0.9661442598144782 0.040990253057866625
4.034714285714286 -0.8213142455453291 0.3373881421851257 -0.00028628345895980784 0.0001144773525412694 -3.299788123535547e-05 -7.189027189747725e-05 -0.9663275591835979 0.05101546205509921
4.035142857142857 -0.8240469882928408 0.34003110284485 -2.368580251065857e-05 -0.0002910347128819326 -0.00020303794674094675 3.8131832749494095e-05 -0.9686971460808439 0.05006936845635692
4.035571428571428 -0.8173191420668894 0.34578725812219724 2.427046002446364e-05 -0.00041895126420817854 6.233323204664724e-05 0.00012070921165397836 -0.9674501954202523 0.05488811788702465
4.036 -0.8157180767607082 0.3578705082868903 -0.00013270500624562332 -0.0001589326184722393 4.271580457088276e-05 0.00012151664743180383 -0.9696820509632579 0.05527652686615344
4.036428571428571 -0.8226169757957128 0.35537966899883244 -0.0003755334340736735 -0.00014573626221558048 -9.097910180785865e-05 5.4047853156467104e-05 -0.9699682700439963 0.05289028333771756
4.0368571428571425 -0.8151599355885006 0.3668700836271882 -0.0001425162428984586 0.0001376389045730099 -0.00018030053219566183 0.0001742787532243594 -0.9714677331482012 0.052896921118393864
4.037285714285714 -0.8075495345942074 0.37368275031618287 -0.0002026483228569451 -0.0004086642105361428 -9.423272567468056e-05 -0.00026488020627923767 -0.9621989974850944 0.05861361092629114
4.037714285714285 -0.8059628099490717 0.3741817092949138 -0.0006709843063720647 -0.00018685184687186482 7.52641142592345e-05 5.6685450599258656e-06 -0.970920409275936 0.05481352691929624
4.038142857142857 -0.8011496621748738 0.3947847066387686 0.00028588897144381356 0.0003646734577106098 5.183436255545468e-05 -0.0001340717531927769 -0.9633424658696699 0.06161950218474586
4.038571428571428 -0.8024584313427375 0.3944251108918077 -0.000393512133639106 -0.0003580989750768887 0.00018231013567165588 -4.957969155301323e-05 -0.9615116221717884 0.06463024458707012
4.039 -0.7969203980425669 0.39749734973995904 -6.617672411998664e-05 0.00042488420281379223 6.172232092906279e-05 -0.0006180936241733325 -0.9606505371888991 0.0628027868288909
4.039428571428571 -0.789754438874152 0.41407985324127233 -0.0001631900991915783 -0.00030518547923695153 4.6972642464473755e-05 3.067760106860716e-05 -0.9621382861273436 0.06718263221689323
4.039857142857143 -0.7938031478439265 0.41299381417985737 -0.00016642671817625684 1.5702872046446166e-05 -2.9876248289889798e-05 -0.0002257548009598198 -0.9712627432395724 0.0686566343418031
4.040285714285714 -0.7870922775171724 0.414545240780221 -8.916733329294886e-05 0.00029229734715841195 0.00010997652599225697 -0.0002198701483964323 -0.9626872916278754 0.07382331479839477
4.0407142857142855 -0.7872599325896411 0.4268591110809158 -1.002018456311399e-05 0.0001801647877713886 -9.388252688167821e-05 -0.0004329067275758992 -0.9597095913490217 0.07284612817545168
4.041142857142857 -0.7755867870631287 0.4319576288406365 -0.00016001387564830785 -0.00013227565286311148 -4.31470678602779e-05 -0.00013082157048683316 -0.96959719633558 0.08580266254618696
4.041571428571428 -0.773712256641193 0.4387140715902817 -0.0003850346861300105 -0.0001022243190097168 -4.5874589455141255e-06 -0.00036736461693427424 -0.9655745567678183 0.0828584765673622
4.042 -0.7704684312123853 0.4477811448275446 -0.0001221584000822198 -1.064811820163581e-05 0.00014692958982811478 -0.00010179028096661492 -0.963230611074756 0.08907456032120713
4.042428571428571 -0.7649960575865974 0.4510746499881876 -0.00036725331005086324 4.7729766404952525e-05 6.997114355166571e-05 -5.9834464866258094e-05 -0.9598143178191241 0.09292158289074043
4.042857142857143 -0.7643244800330631 0.44775423384381186 -9.592676762083788e-05 0.0003141317536088811 -0.00014686234884636465 -0.00037277959012545865 -0.9664718058269585 0.08875444468887672
4.043285714285714 -0.758969620826369 0.4666413840570542 -0.00041851020130489813 3.24570839546148e-06 -3.5029299246518264e-05 -0.0002350662787910159 -0.965361602085269 0.08507470624536292
4.043714285714286 -0.751581989069565 0.46798892737666065 -0.0005180911642397007 -0.00037475545497683285 0.0001527675565622988 0.00035400054524075184 -0.9666391462523705 0.08120643982416365
4.044142857142857 -0.7520417886133136 0.47723495912211034 -0.00039346706338101283 -0.0002009804650487397 0.0003261160629801486 -5.2001506029443715e-05 -0.962956472363186 0.09704339856271896
