!Created with skrf (http://scikit-rf.org).
# Hz S RI R 50.0 
!freq ReS11 ImS11 ReS21 ImS21 ReS12 ImS12 ReS22 ImS22
4.0 -0.8399063887926164 -0.25038183838740374 -0.00047127243401084415 -0.000642843065333683 0.00018492856884904868 -5.79675922524912e-05 -0.9634649399938298 -0.1296334813124702
4.0004285714285714 -0.8476697196648587 -0.24375957503020854 0.00018194742045898112 -0.0005033718063333272 0.00043948073296509423 9.974872779060681e-05 -0.9688054528513356 -0.12382155789549301
4.000857142857143 -0.8506200352138991 -0.23256978708123255 0.00018212085696343546 -0.00021583547051860313 1.56822060894217e-05 -0.00018808822639514665 -0.9668491912416567 -0.1144844069906894
4.001285714285714 -0.845732984044939 -0.2282856036434045 0.0003904879394714068 -0.0005851064432702773 0.00027417840537362576 0.00023721645126090804 -0.9653747163783598 -0.11757606768744996
4.001714285714286 -0.8513336912056926 -0.2204847223821839 0.0003615859792226293 -0.00047964245218155686 8.309954591802603e-05 0.0002832499649248094 -0.9654886551938526 -0.11974380565593978
4.002142857142857 -0.8497923851580289 -0.21875499088275188 0.00013125341993107406 -0.0008112570102266023 1.0227913003439534e-05 -0.00010701609083983155 -0.9651842932353354 -0.11009188959935494
4.002571428571429 -0.8533908165549717 -0.20901790267330614 6.708523592321515e-05 -0.0004954697923139706 0.0002815654140343573 -8.338370914112513e-05 -0.9718786089985817 -0.10505646936323604
4.003 -0.8573707661718063 -0.19769281994979093 8.349257137952448e-05 -0.00036107247325407307 -0.0003441606264903663 0.00016654403453520558 -0.9692541507316311 -0.10456263123877209
4.003428571428572 -0.86011308591984 -0.19484674393977752 -3.385614029381397e-05 -0.0005543996283655222 0.00027365770252249885 0.00014348538498858946 -0.963873905160032 -0.09932495843855385
4.003857142857143 -0.8576426367326471 -0.18541050135848924 8.455035025773882e-05 -0.00019271127902014887 -1.7879340710641435e-05 -0.00015362443708644304 -0.9704098383707715 -0.10871863174908769
4.0042857142857144 -0.868022851305419 -0.18143327307662005 0.00017545930509573472 -0.0005611492508095845 -5.821265548673664e-05 8.836673699614182e-05 -0.965595581925868 -0.09839872147833133
4.004714285714286 -0.8630497047923814 -0.17109554218706396 -0.0002511595581182265 -0.0005414200607094292 -3.81565296817156e-05 0.0001126465846535379 -0.9596683312264189 -0.10842989156727192
4.005142857142857 -0.8654488152140107 -0.16346562485219393 -0.00025535979484706515 -0.00018618089162714265 -5.364212921722536e-05 9.827022792410036e-05 -0.968060333451361 -0.09435568554952946
4.005571428571429 -0.865573179004893 -0.1568022147561806 -7.274135419539782e-05 -0.00019244010433928216 -3.072585436444562e-05 3.538371660924331e-05 -0.960843198020739 -0.09618027708135589
4.006 -0.8676401953135296 -0.15333592092953044 5.3891393364153245e-05 -8.793665595381692e-05 -0.00016476202261447777 7.160598955264019e-05 -0.972397709634357 -0.09333768884179608
4.006428571428572 -0.8674744408782004 -0.14712353092166586 -1.3020894551685912e-05 -0.000562355728727997 0.00011215551782364808 -0.00023144756536736755 -0.9679582634611724 -0.09146215223996022
4.006857142857143 -0.8715660921941235 -0.13533572901834232 -0.0002811339108035437 -0.0005838216929100762 8.593659433279462e-05 0.00024906712409804586 -0.9650877803261013 -0.08675900459319094
4.007285714285715 -0.8743050042096148 -0.12929152061848267 -0.000163628873561463 -0.0007092986038046441 -0.00030984309606575693 0.00038715583991076586 -0.9689560153303701 -0.0785536043227486
4.007714285714286 -0.8729295213913607 -0.1236103105352936 -0.0003495307447784265 -0.00015960049671672697 2.6311264199240494e-05 -0.0002327722600379664 -0.9650306874025005 -0.08284902678035506
4.0081428571428575 -0.8732410715029418 -0.11946873937875739 -0.00015156841190961155 -0.000559875163751476 0.0001205223497248856 0.0004825698491404881 -0.9696070388226538 -0.08917965472708796
4.008571428571429 -0.8767887831071646 -0.10684374727205716 -0.0001350103500535728 -0.00013514467951811457 0.00022738960434858175 -0.00020376537022112674 -0.9635426535714996 -0.08023258046098852
4.009 -0.8766147333127216 -0.10134004324843358 -1.2831376090872361e-05 -2.9218082089532837e-05 -0.0002696494223019166 2.4862453361405387e-05 -0.9731191279828063 -0.08494674410644898
4.009428571428572 -0.8753779791171157 -0.09795134393723309 -0.00039937183590784157 -0.0001103650224435661 5.888318078001096e-05 -0.0003866852928515989 -0.9776965706645613 -0.07628548074141604
4.009857142857143 -0.8781843586600888 -0.08828328125285499 -0.00011891180919202517 -0.0003962075461643337 0.0001208248815360647 -0.0001253269657167393 -0.9667743372588602 -0.0689034778000559
4.010285714285715 -0.8792164528294865 -0.08089615351339961 -3.5671330447414296e-05 -0.0005553356945827168 -0.00015732094453326672 0.0002511945543525754 -0.9646762823773938 -0.0725045957793743
4.010714285714286 -0.8782598564227543 -0.07382186451370246 8.765361916770396e-05 -0.0004764559059209776 0.0001667502850367758 4.0980596249753e-05 -0.9681678443069935 -0.07187640146742896
4.011142857142858 -0.8769230206168612 -0.06977171612148468 -0.0003607784741902042 -0.0004848874532213285 1.331035754444973e-07 7.845095406292115e-05 -0.9692909721860502 -0.06462966786086353
4.011571428571429 -0.875491695029876 -0.05750311889556435 -0.0003819559948297663 -0.0003376227084356183 -0.00019569883195892063 -2.763374368849155e-05 -0.9715886264259901 -0.06633700204860937
4.012 -0.8820175543817402 -0.05335805350803091 -4.360851281005443e-05 -0.0008160906353661092 -5.3771770798594416e-05 0.00038898125350744544 -0.976509022305888 -0.06330182641724146
4.012428571428571 -0.8780742474540126 -0.044597372985853125 -0.00034071989451280504 -0.0007184447785604869 0.0003286244971528874 -0.00032685058208325237 -0.9623301421882643 -0.0558865835914088
4.0128571428571425 -0.8862139177223436 -0.034188806159472764 -1.28047169771796e-05 -7.555537057733073e-05 -4.769000963335159e-06 4.026634724152487e-05 -0.9636510889125047 -0.06330608686370177
4.013285714285714 -0.8765825666341136 -0.030454588758368272 -0.00026135643774405034 -0.00028867179436137827 7.360369702366892e-06 -3.0086337513340243e-05 -0.963796416305414 -0.059018699611377
4.013714285714285 -0.8801000233008803 -0.02078451039628502 -0.0004907138582196102 -0.0004016252403239252 -5.413548254653897e-05 0.0003451220543568188 -0.9775425420719298 -0.05283542374617323
4.014142857142857 -0.8791749828239405 -0.013559717247255975 -0.0004690512411080324 -0.0004438603035276464 5.586216219203041e-06 0.00017152064032219984 -0.9708353086950442 -0.04589728045861308
4.014571428571428 -0.8780990178261616 -0.011375481896367327 -0.0003597055496847019 0.00018798525168082033 -0.00012494162657772308 -3.292619167837512e-05 -0.9708504494641521 -0.052903937923324866
4.015 -0.8878864017729763 -4.224326750805787e-05 -0.0005280075668125661 -0.00013881659567551574 0.0001584742660582711 -8.04400526486265e-06 -0.9657254139993908 -0.051631586796447394
4.015428571428571 -0.8820620097557974 0.010503053972201772 -0.0004972454561117534 -5.3818274671067926e-05 -2.699175699544228e-05 -6.743460234984479e-05 -0.9715808271628057 -0.04946485511278333
4.015857142857143 -0.8806728597410755 0.015873905974384726 -0.0005740177776068759 -0.0001947870982952519 0.00011795681877165007 0.0001321841341381902 -0.9699690601798187 -0.04626570425124808
4.016285714285714 -0.8820575773556499 0.022284020628933733 -0.00011934619174368466 -0.0004945509426219516 0.00016684447097850034 6.807655699953223e-05 -0.9658853391153976 -0.04077617097708577
4.0167142857142855 -0.8804342472920458 0.028912087777183258 4.908646296826265e-05 -0.00040066881173791833 0.0002649156727853757 -0.00023088243440004002 -0.9658969832837511 -0.04844862341897186
4.017142857142857 -0.8780795521303679 0.040240936337155836 -0.00013742454771183108 -0.00013757866384556835 3.826166376223658e-05 -0.00013937533293134676 -0.9609812092146046 -0.038970645045429936
4.017571428571428 -0.8828951514883834 0.04213805843833033 -0.00021429046792214887 0.00011594702862884138 -0.0001976538220210026 -1.8190857504308504e-06 -0.9746531902258898 -0.04288226014668819
4.018 -0.8763266571762883 0.04820697984014362 -1.3593430618908126e-05 -0.00039516251776831077 0.00039303173034821773 9.713374375096668e-07 -0.9696069300260397 -0.039992168088277366
4.018428571428571 -0.8820864575295426 0.058622956210849404 -0.00025091154761578235 -0.0006765866791775715 -0.00017762612723236409 -0.00019046128320190296 -0.9713472788105941 -0.034360841727278456
4.018857142857143 -0.8747307169370245 0.06643911050937774 5.5996354690565103e-05 -1.875200082841409e-05 -0.00016514593722477165 5.375321489337121e-05 -0.9621226637575874 -0.02688864172704066
4.019285714285714 -0.8744954945330167 0.07823614911811895 -2.7197232887881506e-05 -0.00032903131303178775 1.8871203502902354e-05 0.0001280960246105935 -0.9726034762062853 -0.028534896823790325
4.019714285714286 -0.8781637230547459 0.08429789741283032 -0.0003113649632272633 -0.00022018148059134475 -0.00032289734716575155 -0.00016924564077557317 -0.9648682318137117 -0.028075644567077798
4.020142857142857 -0.8772476454627909 0.08728414121344802 -0.0008584633799170431 -0.00016061426899684816 0.00011889651873167393 0.0001981313496759595 -0.9679130857890603 -0.023091651078566023
4.0205714285714285 -0.8774830249530131 0.10270800522318359 -0.00040596164108754686 -0.00023052445783815223 0.000187558301527305 3.736302325011826e-05 -0.9678531698964815 -0.025296817023669045
4.021 -0.8731793709758572 0.10136554391917289 -0.00019369775825323423 -0.0006256190428323828 -4.6909012318749645e-05 -7.853607106878583e-05 -0.9664483121619443 -0.02055970479928499
4.021428571428571 -0.8723312855582457 0.11463087661069994 -0.00017025079145373154 -0.0003609548564673012 0.00010500168821252624 0.00031734669941438777 -0.9686679238217418 -0.019752912120767758
4.021857142857143 -0.8739162027701274 0.11696011982920612 -0.0003314565120950867 -0.0003681282498359871 0.0002772936632825242 0.00016936132763143398 -0.9675008778236937 -0.015457412487015043
4.022285714285714 -0.866218861315269 0.1198303620942567 -9.297873006980537e-05 -0.0004904730654428865 0.0002894890530002248 0.00030811243404229807 -0.9760506606111284 -0.008375149568851293
4.022714285714286 -0.8712775543152241 0.13681835552348848 -0.00012898136858336786 -0.0005745207973570326 -0.00025266075057308625 7.999981048517967e-05 -0.9657977013347431 -0.01285401778917483
4.023142857142857 -0.8670797643590775 0.14292719136774162 -0.00019062646288995814 -0.00026062837842465186 -1.818660180671661e-05 0.00024807867136618584 -0.96863587078564 -0.009663014245019405
4.023571428571429 -0.8690510403702922 0.14422082464452227 -0.000459773836706956 -4.7135917900318784e-05 0.00012125608230074099 0.00018753759967567226 -0.9641646620490403 -0.00548936207943347
4.024 -0.8634943814402639 0.15537125563152432 -0.0005937533893910462 -9.924756674538652e-05 -0.00036511037882672875 0.00010461823912622786 -0.9714616692845348 -0.007684028467389728
4.0244285714285715 -0.8658039455030583 0.1596763991900171 -0.00022000355389413295 -0.00036290244900984196 5.753689493576872e-05 0.00026048474821640735 -0.9698065626126694 -0.00201431977232101
4.024857142857143 -0.8664393370832824 0.16987628400693003 -0.00042090171664412805 5.1137925208321715e-05 0.00040985463377699434 6.76132690753543e-05 -0.967086747577593 -0.0004161305586676999
4.025285714285714 -0.865099683644828 0.17917295226554195 -0.0003113687642697068 -0.00023549273768222419 6.175916507774289e-05 1.1348529624553309e-05 -0.9666518663051422 0.0026333730965420765
4.025714285714286 -0.8614511058858976 0.18494600801840116 -2.1486204269780816e-05 -6.475828946423534e-05 -1.7890457808836515e-05 0.00030731765234832264 -0.977253338995502 0.008576366072449609
4.026142857142857 -0.865804387968371 0.1915921495370634 -0.0006088395419324835 -0.0002956828028791105 0.00028516911987058735 0.00025334996340109733 -0.9696279744208179 0.004874782130836348
4.026571428571429 -0.8514879439334392 0.19907707907400818 -6.8067125452534e-05 -0.00017075749838910882 0.00032881360997077225 -0.0002978685185981234 -0.974052060891442 0.009354194563677365
4.027 -0.8551121525422845 0.2064130762512352 -0.00031440707538177813 -0.00041521217524519805 -7.625913460267376e-06 -1.5885111814747644e-05 -0.9701723679466167 0.007056749217215312
4.027428571428572 -0.8590249551244111 0.20670468792468136 -0.0007890558742861131 0.00017605880318431483 3.3412708648361025e-05 0.00037062787759781056 -0.9661018124254097 0.015491761924055825
4.027857142857143 -0.8526323577962214 0.21553636670528628 -0.0005415962550663512 -0.00040879085869606946 6.100474459202555e-05 0.0002475181784791155 -0.9739879910981176 0.009709954550824332
4.0282857142857145 -0.8521785321224589 0.2314151109281168 -0.000464899975761668 -8.275192405533435e-05 -0.0003821307105777119 -0.0003333293796384227 -0.9714508927561698 0.021415185556866025
4.028714285714286 -0.8560614494204728 0.2285328965748661 -0.00044791008696722567 -0.0001016279061000521 2.2291812388248073e-05 -0.00026709081902611764 -0.9708405645996538 0.013921625698302317
4.029142857142857 -0.8499861029358653 0.2428829505130639 -0.0002705663819385226 0.00021604677848373278 -0.00010317409140107605 3.8684003096368665e-05 -0.9681741848105183 0.024346706613353645
4.029571428571429 -0.848813244461242 0.24512520030790172 -0.0005038311848848081 -3.476032402779813e-05 0.0002314901042288149 0.0004015286952848298 -0.9628315255531784 0.019692936871469474
4.03 -0.8431210635020351 0.25072964096550393 -0.00038996523020825836 -0.00021970365371137363 4.8972581881006965e-05 0.00035237912288993824 -0.9712247673121357 0.03294855255406237
4.030428571428572 -0.8420156038460157 0.26097737379858144 -0.000604698302321108 0.00015080073723156253 3.016937816683845e-05 -0.00021855328622450573 -0.9674655670115402 0.028501460794234514
4.030857142857143 -0.8455878498135515 0.26644326566382065 -0.0002722319967235565 6.0987502356479946e-05 -9.883677908954199e-06 -0.0002294481892443849 -0.9696640581292078 0.023719068763276858
4.031285714285715 -0.8365309236483627 0.2746010632609581 -0.0010920929031693965 -0.00019547573172247313 7.855010853508549e-05 0.00010082444030284942 -0.9685800179924117 0.03387300567819408
4.031714285714286 -0.8323280466259634 0.2769915371015688 -0.0007228908657499519 -0.0003487640728674203 0.00010390939073324866 0.00028232279273254877 -0.9655331503946838 0.02487086997762505
4.0321428571428575 -0.8300181478055153 0.2865326918240951 -0.0005290927208515252 -3.0617225024361234e-05 -0.00020012453091555526 0.0004133176355202244 -0.972485944125986 0.033812572763245285
4.032571428571429 -0.8305801228538853 0.293607370697656 -0.00033386833394641975 -8.816591050917216e-05 -7.251505291036055e-05 -7.592117015827696e-05 -0.9653160454757894 0.04468607461670993
4.033 -0.8300739009726986 0.2985785498059838 -0.0002570728069219973 -0.00012492220467646704 -7.374949515235332e-05 -4.776311882853085e-05 -0.9659085439067197 0.04586975796686387
4.033428571428572 -0.833829248439821 0.3095421603855619 -0.0006445156807656029 0.00016241566353575725 8.799529967281155e-05 -0.0004463122128739991 -0.9638266315810542 0.038666442636752764
4.033857142857143 -0.826309418246965 0.3152175449141318 -0.0007113275182226715 0.00025774948514689335 -0.0002489275778054857 -0.0001580660253614915 -0.9634993350851501 0.04499887281340976
4.034285714285715 -0.8184895476734098 0.32065987555414893 -0.0003557312530292495 -0.0002605111754574026 0.0002575452738007154 -0.00012263596560892394 -0.9657127366543866 0.04174074114126834
4.034714285714286 -0.8118238129929602 0.3335532541962667 -0.0007830433763675659 -0.00013308545529071492 -0.00013680082584290582 8.23236281319011e-05 -0.966967768812881 0.05216184087490668
4.035142857142857 -0.8144008375884896 0.33765648937368986 -0.0007172043014181814 0.00032921982820472887 4.69342839710384e-05 -0.00022673544638505041 -0.9661415255322436 0.05233587732941881
4.035571428571428 -0.8081925824468507 0.34402023594192915 -0.0005523809210928107 -6.551337422216626e-05 -0.00010619961555984925 -0.0002436030627941124 -0.9657500941387817 0.05894267256033799
4.036 -0.8063456506306554 0.35249994598855244 -0.0007800239575149521 5.7989535557609236e-05 -0.00020058482014144663 -0.0002734205133134471 -0.968720077273712 0.057790894468277336
4.036428571428571 -0.8124095023489448 0.35149790910120765 -0.0004467088899590578 3.2804565170303935e-05 0.00014081618074765986 3.8813163097563405e-05 -0.9687177454299616 0.05057888926009435
4.0368571428571425 -0.8056478644266126 0.36386267266881206 -0.0003936242227570303 -8.931966479196191e-05 9.873476783046724e-06 -0.00024227842949898313 -0.9704304926471463 0.0525175086272274
4.037285714285714 -0.7979438693325467 0.37096838953690175 -0.00038712309563746487 -0.0002894132815833243 0.0003424362180091058 0.00028373694315066806 -0.9636937638624825 0.05901245450345115
4.037714285714285 -0.7960457476315455 0.37114251443670904 -0.0003228846404895575 0.00015274374832958005 0.00021794233809983686 1.2868921143096396e-05 -0.970050886354033 0.0566462866069112
4.038142857142857 -0.7933366180922123 0.3900844753668909 -0.0007067104521124405 0.0006403027314575659 3.066322261998426e-05 0.00013087071109298256 -0.9647980772155647 0.06187977845378245
4.038571428571428 -0.7933814769822255 0.3888460064324583 -0.0006492137485871711 0.00031262983455897556 0.00018692392034697986 0.0005231658032889282 -0.9609264499724749 0.06616001284486481
4.039 -0.7893646271302477 0.3916428943625569 -0.0002758197749753155 -7.783742487395319e-05 -8.056800092669717e-05 -0.00020602953126848365 -0.9590769438270647 0.06616984588249093
4.039428571428571 -0.7814860393355032 0.41081170778447507 -0.000465451056649255 -1.7220628896916877e-06 -0.0001376650437216556 -0.00017553067054022073 -0.9630959846779394 0.06869537222983889
4.039857142857143 -0.7842476512310357 0.4090914093679843 -0.0006123294857527142 9.109147380322041e-05 -7.16622226942153e-05 0.00017482486227122785 -0.9712156872091655 0.06943227546516048
4.040285714285714 -0.7801627304883986 0.4104890243445595 -0.0006069595959352636 -9.451421466225536e-05 -8.351423780956608e-05 -6.0668850478262884e-05 -0.963750309383947 0.07513839880615619
4.0407142857142855 -0.7775343451565478 0.42226862916108243 -0.0006752219116530809 4.908346109169498e-05 0.00010107595129877966 -3.244064624378894e-05 -0.9594617722303398 0.07383920113520763
4.041142857142857 -0.7652762831181709 0.42713082018262694 -0.0003818523194456945 0.00017564198904866361 0.00015413425976272812 0.0001482733948749879 -0.9683071527907701 0.08482151105429084
4.041571428571428 -0.7637975191933497 0.4327626433595479 -0.00030915465571606225 -0.0003042969396090104 -8.04012682550559e-05 -8.51171445260399e-05 -0.9649758875907225 0.08328518493405963
4.042 -0.7619868153657555 0.4432529281768974 -0.0004418090258301434 0.00038633856931934824 5.065507371631277e-05 -0.0001955740142545728 -0.9632649144552892 0.09146636766766891
4.042428571428571 -0.7567346588555225 0.44619771360684213 -0.000367628322869049 6.477792619388455e-05 2.4593708030742227e-05 0.00030447755769379413 -0.9596572267871826 0.09012285095315022
4.042857142857143 -0.7557358467239473 0.44366743147836646 -0.0007923443065449238 0.000208525123209199 1.2107547114484083e-05 0.00017220767439514792 -0.9662700151286523 0.08792401244630293
4.043285714285714 -0.7520785817422069 0.46213176902059044 -0.000552940241395737 0.0005202979508167986 -0.00020451742064368517 -0.00011695358510470961 -0.9654210754496572 0.08497958126858071
4.043714285714286 -0.7444607359375324 0.46398703706169364 2.443123361079023e-05 0.00024096600387527614 4.590539580155564e-05 -0.0002256195492540467 -0.9663536543171952 0.08263985378151688
4.044142857142857 -0.7448830304668195 0.4730446529255738 -0.0006085297769102271 6.696039924145474e-06 -0.00026726394594561893 0.00026319741215850194 -0.9625052528125297 0.09894197679710048
