!Created with skrf (http://scikit-rf.org).
# Hz S RI R 50.0 
!freq ReS11 ImS11 ReS21 ImS21 ReS12 ImS12 ReS22 ImS22
4.0 -0.8327984984738901 -0.25555684005064183 -0.00041736208831255666 -0.00039879336821755653 -7.708882917517201e-05 -8.11062899917192e-05 -0.9630855660200668 -0.13121420301419948
4.0004285714285714 -0.8393714764975329 -0.24749280346531993 -0.00027329554872077103 -0.0008524955446348971 -0.00021901689183879584 0.00031995643882769693 -0.9712874396996931 -0.12272598997439706
4.000857142857143 -0.8428966593122343 -0.23735331696094453 5.865038887358463e-05 -0.000758804809935846 0.00022081337884806554 -2.469775641828581e-05 -0.9676684660399703 -0.11439285911799271
4.001285714285714 -0.837367724119508 -0.23216513247521298 -4.225201538441865e-05 -0.00045873631207692475 -0.000106874165796019 -0.00018497930353857561 -0.9635184999430985 -0.11642833764838605
4.001714285714286 -0.8428365445744106 -0.22539682696397922 -0.0001450416611553413 -0.0006230218516899955 9.81935214412438e-05 0.00017034732487227063 -0.9656365798898566 -0.12082378773271665
4.002142857142857 -0.8425284880968652 -0.22308274618457774 -0.00046846905964891293 -0.0008206452663455594 0.00013854963100584885 -0.00018199000035433132 -0.964300818551735 -0.11215052720148262
4.002571428571429 -0.8447445455672087 -0.21436171777793764 -0.0004267211340759186 -0.0006306463022571098 0.00010843589781639569 -2.1085644373007893e-05 -0.9702572361615147 -0.10588104619251948
4.003 -0.850447573580722 -0.20244052403769766 -0.0002669705824962341 -0.0003941488917275183 -0.00027748593977826183 1.2501527096445412e-05 -0.9693038911453623 -0.1039617015059025
4.003428571428572 -0.8520455371680589 -0.19986359311290744 -0.00036750822547205195 -0.0009841901487782875 0.0002805288980586877 -8.382116459596313e-05 -0.9612770075055875 -0.10019918711676451
4.003857142857143 -0.8480483754898526 -0.19223088242527833 -0.0005837485387350846 -0.000691381858288841 0.00010938140355040867 7.194951108127576e-05 -0.9706676107088908 -0.10953537242514838
4.0042857142857144 -0.8592985623988285 -0.18250211145224643 -0.0004936766499323037 -0.000261369544967393 0.00026285750062594366 -0.00035621751697017466 -0.9659085795569334 -0.09888976512591195
4.004714285714286 -0.8548057405328778 -0.17543182106457286 -0.0003724192060485875 0.00012006792110543661 0.00014878756921525384 0.00010298924071460721 -0.9593967759236824 -0.10723944389634966
4.005142857142857 -0.8564904283183359 -0.16685026647411608 -0.00020481066205674882 -0.0006437229942166331 9.351226462998125e-05 6.729387497949254e-05 -0.9702395204144874 -0.09618609444303163
4.005571428571429 -0.8558885413513393 -0.1604502783599405 -0.0005360383570026515 -0.0008879382731479538 -0.00024429100358399627 3.000728370007166e-05 -0.9589225323540299 -0.09375016721198523
4.006 -0.86070797341976 -0.15598628881809554 -0.000555074362711557 -0.000527430209125405 5.1053014758370165e-05 -3.831394437206059e-05 -0.9710572637300279 -0.09343253261683589
4.006428571428572 -0.8604633434497626 -0.1530872560726348 -0.0006541122509337312 -0.00022526099237882532 0.00017827504803271695 -3.5933456491376725e-05 -0.9697261784132778 -0.09216732148438309
4.006857142857143 -0.8629996316178596 -0.14100310707660776 -0.00033073445068072924 -0.00028392476709379095 -9.396866074975142e-06 0.00018469538163461464 -0.9647902592778932 -0.0874903692555769
4.007285714285715 -0.8660656622721347 -0.13452004314803184 -0.0004835700673583126 -0.0005048747555345772 -5.043485623103163e-05 -0.00013878795283581792 -0.9696343727165416 -0.07961663678536693
4.007714285714286 -0.8631398381477647 -0.12849505164024058 -0.0007069522769443655 -0.0005684148989641313 -7.396415010560974e-05 1.5387301230381717e-05 -0.9625202926317976 -0.08379215524656881
4.0081428571428575 -0.8665014862306635 -0.12678383069905344 -0.0005705860698640712 -0.0002403707421626337 -0.00019522412721133335 4.9725044718713435e-05 -0.9680153818078233 -0.08822508145639893
4.008571428571429 -0.8682691035305855 -0.11244579959799882 -0.0004739348389415013 -0.0003875248432942363 0.00015635637416194138 -0.00015263776328246746 -0.9648098011865227 -0.07778165070907318
4.009 -0.8701267614507677 -0.10649503340953623 -0.0005682641753818805 -0.0005708913227494343 -1.302275719194412e-06 -0.00020579192425758768 -0.9748926173586181 -0.08500552619753732
4.009428571428572 -0.8674080347506219 -0.1035615571372763 -0.0007317055219708594 -0.00021035766009661324 -0.00017154573457498214 5.6615009028394425e-05 -0.977607064341068 -0.07658841245420447
4.009857142857143 -0.8690410570447574 -0.09225114570369629 -0.00048259058692139823 -0.00031602350405539217 3.181803130084048e-05 -8.427858707299954e-05 -0.9664372684254957 -0.06903887109584347
4.010285714285715 -0.871287980045975 -0.08598379561304882 -0.0008661215689137326 -0.00023796097828848216 0.00021909250339434614 0.00013489465058747808 -0.9656833442323609 -0.0721623411980458
4.010714285714286 -0.872572009765265 -0.08011876228020594 -0.00022820664018379893 -0.00032247765596101185 3.6038340120567415e-05 0.0002600584336458471 -0.967127336819144 -0.07095400011615792
4.011142857142858 -0.867492849133359 -0.07637924996347074 -0.0003650449200055107 -0.0005713916765883567 0.0003358977243634375 -0.00013210939212280557 -0.968716502550374 -0.06526264027817064
4.011571428571429 -0.8699073987381822 -0.06138179057024546 -0.0001689914775748753 -0.0002534521277724248 0.00026666309364907866 0.0002201466144297604 -0.9685510471910391 -0.067752843428514
4.012 -0.8711192514130953 -0.056984819835905975 -0.0005169835905120977 -0.0004231979214437527 -0.00014621898722672692 -8.949569224440215e-05 -0.9754756146806576 -0.06243556519233616
4.012428571428571 -0.869249409377394 -0.04859751054729461 -0.0008735356760251203 -7.118649466551897e-05 -0.00034384509713230525 8.726418221561331e-05 -0.9635076411139862 -0.05612262111263964
4.0128571428571425 -0.8774280878660392 -0.0410273952944323 -0.0005955269465919324 -0.00013391740026146506 -0.00014224729121102098 0.00026928007485513977 -0.9667573328546433 -0.06177445658169476
4.013285714285714 -0.8677788445166763 -0.03502906148652867 -0.0005020878705406044 -0.00036402376009113505 9.929271120725356e-05 -0.00024006630792521033 -0.9637032790930725 -0.05820810626896469
4.013714285714285 -0.8701261644907445 -0.026634849156868454 -0.0005161287887894885 -0.000621417342296086 0.00011763700066683086 -0.00014518974229414704 -0.9750522802929826 -0.051812487672506506
4.014142857142857 -0.870906355664339 -0.01765436479514363 -0.00027358647323785746 9.065360844273191e-05 -3.1552081823133096e-06 -0.00024603439372522317 -0.9706040489579699 -0.04660495365685629
4.014571428571428 -0.868378031568153 -0.016533154080364872 -0.0002841176547386648 -0.00012184893889505598 1.2815552879418434e-05 5.242622077610878e-05 -0.968397377163807 -0.05228138268891997
4.015 -0.8784780996666283 -0.004061481255156133 -0.0006231573042028836 -0.00010280162468749171 0.0001335453293744516 0.0001346231262697567 -0.9662721002039485 -0.05185857188520912
4.015428571428571 -0.8742330833006169 0.005463355390384487 -0.0003650222240484281 -0.00019173584994736738 -0.0001414274104275572 -0.0001298549898559198 -0.9726939948021424 -0.05097971068942899
4.015857142857143 -0.8741184004855386 0.011637283301679239 -0.0003359188544644753 -0.00029949839047695495 0.0003533277935749247 0.0002057932287161864 -0.9697732293773316 -0.04506820445361203
4.016285714285714 -0.8740010771075893 0.017720550242115017 -0.0005159847496219017 -0.0004744604176530528 0.00020063856104918554 -0.00013475547245603907 -0.9647517037660658 -0.04237127443323603
4.0167142857142855 -0.8732883699035874 0.024327724237555692 -0.0005707405919822084 -0.00020247905640166083 4.9052095776634315e-05 1.3244792759854142e-05 -0.9657467541315786 -0.050014882680933265
4.017142857142857 -0.8684201834882898 0.033571636967190906 -0.0008930847445221055 -0.00019096695346372617 -7.770870101446313e-05 0.0002480761822105004 -0.9615777472338799 -0.0387642438347647
4.017571428571428 -0.8747498187254642 0.03703455510245682 -0.0002542981137151108 5.652604485995907e-05 0.00017653046911719666 0.00012666766250919967 -0.9710788446053423 -0.040383317345320836
4.018 -0.8698670040912478 0.04324343193271477 -3.507607136944974e-05 -0.00039915082332777637 -0.00021188853945842035 0.00014220727860216826 -0.9690202916076058 -0.03987472254566251
4.018428571428571 -0.8731370639419691 0.05156718427961556 -7.9671573123707e-05 -0.00039673373660294257 0.0003949440852680485 -7.879519572296229e-06 -0.9722434423579163 -0.0358748418640022
4.018857142857143 -0.8673672907875761 0.061584635398592755 -0.0005228504713413218 -0.00045385084953823755 -0.0002127783095623396 -2.672406099344918e-05 -0.962967419127459 -0.027374284177932817
4.019285714285714 -0.8662668989459054 0.07212113357398717 -0.0009705883072077395 -2.8954152166710457e-05 0.00022612808982013142 -0.00023504351651023095 -0.9710561916792404 -0.028954996948306045
4.019714285714286 -0.871260318391718 0.07838176479072156 -0.0008356184182925614 -0.00011077956561962489 -7.504917725111852e-05 -0.0001569735739208636 -0.9627329931200863 -0.027821929144186026
4.020142857142857 -0.8690710266774871 0.08193684966211652 -0.0007343992492613027 -0.0004729684814091651 -7.744197811011461e-05 -9.178568649863378e-05 -0.9680437598493118 -0.024069802985515285
4.0205714285714285 -0.8689350406940656 0.09566495470299927 -0.0005809543432250484 0.00017937860708311108 -0.00014326525174178362 0.00023266816181248713 -0.9690113183139952 -0.02514066719947195
4.021 -0.8652190566338959 0.094745539605164 -0.0005762108499021162 -0.0003049163560775784 -0.0001291271320859519 1.6172171210111976e-05 -0.9666640779528198 -0.020242398593562718
4.021428571428571 -0.8632605569932001 0.10630892682517337 -0.000271472929347328 1.4019170310160427e-05 -0.0002960055283271258 -9.655827527501707e-05 -0.9699850552225455 -0.01932617510262431
4.021857142857143 -0.8674227909896548 0.11060611019280735 -0.000739394453689969 0.00011064216728948683 -0.00024393905422193565 1.6280060110717263e-05 -0.968534027292642 -0.015703307952591162
4.022285714285714 -0.8588100741719874 0.11310051434275012 -0.0005528378625067634 -0.00012049395125642901 0.0001265234486683872 -0.0003378523990075881 -0.9761386992688009 -0.00904380446783663
4.022714285714286 -0.8630059700461289 0.13006496575765572 -0.0007671282663796305 -6.123759863949294e-05 -0.000349607084966399 -0.00022979268288894557 -0.9666887743289988 -0.01511826351114002
4.023142857142857 -0.8616080252450595 0.13417891628746925 -0.0003634048117273361 -0.00037252076570624883 -9.020557787679517e-05 3.578909070457161e-05 -0.9678133701857927 -0.006746831669581331
4.023571428571429 -0.8623776889620218 0.13695108207150597 -0.0007709609384435347 -0.0003695746632622797 0.00018233795395143282 8.847764597840549e-05 -0.9629740925509553 -0.003921193744065024
4.024 -0.8568442353941805 0.14834916852670077 -0.00037765353931383126 7.977417635611791e-06 4.391794543749315e-06 -0.0001920141234690492 -0.970647260067443 -0.008961998773154142
4.0244285714285715 -0.8592123057917721 0.15213075739010704 -0.0006793396541292411 -0.00034049286854031613 -2.6486150212463324e-05 -0.0002751230233602863 -0.9685502269962619 -0.004834587676887635
4.024857142857143 -0.8597055576928814 0.16323751362042055 -0.00032800800306210604 0.0001541659977031855 -3.4294320095980274e-05 8.703103061024891e-06 -0.9663638366174134 -0.0019467918389402107
4.025285714285714 -0.8589099943183319 0.17149241834792586 -0.0007719405718088078 0.00014120436744280865 0.00019725691338643805 0.00020519195335845226 -0.9673335969282779 0.0027444604257707604
4.025714285714286 -0.8558111737432588 0.17796671739145162 -0.0009837064845096704 -3.228814907019192e-05 -1.9929618617973574e-05 4.968579207124186e-06 -0.9774328982624321 0.007732497546820887
4.026142857142857 -0.8589985114793758 0.18436528133605581 -0.0008789493780523994 3.983691160059473e-05 0.00031877555441384343 -7.597476649380324e-06 -0.969369624818626 0.0025387854036945314
4.026571428571429 -0.8456553065952657 0.19304517867787716 -0.0006945893347437519 0.00021528125595637193 -0.00016428111406319106 -0.00015983982565256964 -0.9756552950931262 0.009054340302714042
4.027 -0.8476972907678184 0.1983566719992163 -0.0004940457350727504 -0.0003104050399036131 1.2861771557056824e-05 -9.171474558988372e-05 -0.9691307294106438 0.005093004328292099
4.027428571428572 -0.8512838065622698 0.20010568234907572 -0.0005457408367851108 -5.0375238336565115e-05 -0.00019999285995875288 -0.00011016819741270113 -0.9671371307847965 0.015665594733696126
4.027857142857143 -0.8461324284924099 0.20929533517681892 -0.00024473135124514705 0.00012880680426986493 0.00010107558983912405 -8.30337376633516e-05 -0.9744692782083416 0.011204889532887136
4.0282857142857145 -0.8456366218870223 0.22402563315678536 -0.0003080015483989548 -0.0001389392143077909 5.1745038295546855e-05 -1.7123137657073307e-05 -0.9699558228529468 0.022472731824656082
4.028714285714286 -0.849849486427095 0.2200423820829144 -0.00041535921001571605 -0.00026614763408416484 7.517106346434165e-05 0.00023835129548118833 -0.9694565618566177 0.013149446522471435
4.029142857142857 -0.8423599240497889 0.23495794790925814 -0.0005677187080423551 0.0003618931542406617 0.00018336391950931607 -0.0001863439818100123 -0.9682016075695079 0.024991368393680203
4.029571428571429 -0.8417914631239705 0.23674189586461467 -0.0009455661734031604 0.0005219011203410228 0.0003585989528113549 -0.00011741454560804408 -0.9653822421263933 0.021249918636704456
4.03 -0.8360882048293569 0.2430882672537615 -0.0007879652212631735 -0.0004601138305916644 0.00021762027913365398 -0.0001587859103570716 -0.9737429616843212 0.03232887149862124
4.030428571428572 -0.8353867885814592 0.255299763119443 -0.0004941510350934706 -9.310438316360227e-05 -9.690777889601138e-05 0.0001990153675483033 -0.9709922554782793 0.02931185813259985
4.030857142857143 -0.8385471754598133 0.2581449118271366 -0.0004446078901188357 0.0002868529176069739 0.00018350966107359432 1.3613487597272874e-05 -0.972940629484026 0.022814765607985368
4.031285714285715 -0.8299259499579883 0.26781498037699797 -0.00019496434181725484 -0.0002540300868869201 0.0001564801078811398 0.00015097567645771067 -0.9680143182008301 0.036091796719811296
4.031714285714286 -0.8249292116685549 0.2675927496591443 -0.000522113616509856 0.00019906224415791037 0.00027914236841638656 9.909015469845086e-05 -0.9639518900053827 0.024294521687194304
4.0321428571428575 -0.8228599301238223 0.27861412479631326 -0.0009107548469662802 5.275849399646169e-05 2.2903218044754528e-05 0.00011169975183289442 -0.9740976068242301 0.03499614220492273
4.032571428571429 -0.825415441444813 0.28602874944068574 -0.00033745746904033835 0.00042000037334387325 7.772949587247396e-05 -0.00019383110330388841 -0.9661099250327755 0.04256246308460548
4.033 -0.8229478281131496 0.29107339678581545 -0.00031064232759947394 -0.00014358984961316076 -5.2988551032451434e-05 -0.00024991796208824815 -0.9659357699233506 0.04534674905215091
4.033428571428572 -0.8275050697137315 0.3005924204089082 -0.0004479874731316268 1.2366336144185066e-05 -0.00029278506713006176 -0.00024255147244795983 -0.9639306299973368 0.03789880881646121
4.033857142857143 -0.8211995662202476 0.3053967642368681 -0.00044673365753204123 0.00044104427588388066 -0.00019930428740971615 1.3878525793156057e-05 -0.961734383479407 0.04413802862618942
4.034285714285715 -0.8129739820770436 0.31110555499781306 -0.0005249600967044789 7.532748134859342e-05 1.5100568988926448e-05 0.0001325982417609893 -0.9659478459467719 0.04124373525314614
4.034714285714286 -0.8068872595048109 0.3235333698108882 -0.0003724093445932282 0.0002915296063497856 -5.148605909649081e-05 -8.244852874185373e-05 -0.9669221155826508 0.05113622532375754
4.035142857142857 -0.8078881076247613 0.3281364478866602 -6.977824323043977e-05 0.0005242592959944647 6.025269486606809e-05 4.2867368265180904e-05 -0.968160227986846 0.05183939693916474
4.035571428571428 -0.8023003184738601 0.3355436394574777 -0.00044612424624719126 0.00028601098137051193 2.2580432506099004e-05 -0.00017035320162989658 -0.9686313106939416 0.055904610607001026
4.036 -0.7995619604787754 0.3450765362473108 -0.0003789220472187037 0.0001830543598390281 5.980511249458325e-06 0.00013847644144624892 -0.9687073469563355 0.055114347757398804
4.036428571428571 -0.8059253466288938 0.34202191948697575 -0.0008147829922538786 9.058135493566629e-05 0.00017017190007433873 -9.451634166139017e-05 -0.9688785602504175 0.0509285042958932
4.0368571428571425 -0.7994785874864272 0.35612450258880685 -0.0002934608504421046 0.000169371844585297 -6.302654402510237e-05 -0.00010049076112734372 -0.9699881560767213 0.05337217208866295
4.037285714285714 -0.7908215903281921 0.3610069797941234 -0.0005665149648614494 0.0005510172612879072 -3.074391055393109e-05 -0.00017407759872712 -0.9651478388778019 0.05898518588396569
4.037714285714285 -0.7905245143694953 0.36217405942389785 -0.0007882036425604518 9.46389581547135e-05 -0.00012685914281395334 0.0001840440837939841 -0.9698460280049657 0.05648006190207113
4.038142857142857 -0.7869813412837162 0.3808711588985466 -0.0003419241288469164 -5.5212602025635946e-05 0.00020003251003991086 -0.00024635665827151497 -0.9634388747934445 0.060807662681243525
4.038571428571428 -0.7869724071150876 0.38018660993493913 -0.0005073332920151458 0.0007510621481994106 0.00013886213464603004 6.650889097074526e-05 -0.9608308274396451 0.06566740327764317
4.039 -0.7828272977556306 0.38383648787453467 -0.000347901563230274 0.0003658001066940003 8.410129621523109e-06 0.00025223312998301137 -0.9584456251274615 0.0641825199697255
4.039428571428571 -0.7744974339770031 0.40273725043566705 -0.000709277520531738 0.0005061174764957936 -0.00034658424275774526 3.891447173829649e-05 -0.9651007898264904 0.06969714421807138
4.039857142857143 -0.7788171579068541 0.4004361661742513 -0.0005620938740257709 0.0003797321835755457 -7.334704752782116e-05 -0.00019090497598809835 -0.9709517335957826 0.07029437699154904
4.040285714285714 -0.7745669492311699 0.4007922031949972 -0.000685796481169044 -5.8113632783299166e-05 -0.00023071231018492486 -0.00032838320552806426 -0.9648201962274111 0.07559794420690319
4.0407142857142855 -0.7733375922965784 0.4136462450706549 -0.0005689469858985515 0.00056998992345308 0.00015254878300311207 0.00023141166055384746 -0.960262995666453 0.0765922601924473
4.041142857142857 -0.7616666967934714 0.4182683156420161 -0.00016173837142463926 0.0003255558180652273 -8.551288414926342e-05 0.00011580827676078897 -0.9706985023429205 0.08515283843337383
4.041571428571428 -0.7581938584982377 0.42462675607378714 -0.0006081467311457287 0.0009704660683713221 -0.0002518540681582578 3.4699997383558834e-05 -0.965065226377574 0.08344245115002989
4.042 -0.757413231526934 0.4345898112044867 0.00012496000445963028 0.0004514941161539656 -0.00028143143608336474 -0.00010698882253812011 -0.963086068971584 0.08903159551278862
4.042428571428571 -0.7510085334200891 0.4371741407185029 -0.0003809905289661798 0.0005283757584000047 2.0839400567195524e-05 -5.947522502484375e-05 -0.9601542390814054 0.09232940040634809
4.042857142857143 -0.7518878490510774 0.43425416445696496 -0.0001608167731798585 0.0007044993202292186 0.00021574835409269834 0.00017736198856260852 -0.9629461837140104 0.08903235053608809
4.043285714285714 -0.7455215493599837 0.45282102019428155 -0.0006644201737267346 0.00041089875307420915 -7.241957752621389e-05 -0.00010124026432539859 -0.9654869631617791 0.08680582678284487
4.043714285714286 -0.738410990637657 0.45525641308611636 -0.000542578602782743 0.00016983213050025795 -8.001995524913115e-05 -0.0002303712050838433 -0.9660157768494781 0.08231010562263591
4.044142857142857 -0.7386348645875587 0.46354044753103135 -1.865395137393081e-05 0.0007486978923106054 -0.00023667701604136935 5.2653776712223745e-05 -0.9626546781343267 0.0963075150467666
