!Created with skrf (http://scikit-rf.org).
# Hz S RI R 50.0 
!freq ReS11 ImS11 ReS21 ImS21 ReS12 ImS12 ReS22 ImS22
4.0 -0.8500128220817708 -0.2525390971673729 0.00027797005971880564 -0.0006096830132029743 2.1073215773945833e-05 -0.00010694590186819956 -0.962166037397632 -0.12880717315564624
4.0004285714285714 -0.8560154352628118 -0.24609229270204672 0.00013517110464750768 5.52327105046142e-05 0.00014695593046176516 -0.0002750501140057662 -0.9723478525125941 -0.12130902524877854
4.000857142857143 -0.8616851073253018 -0.23526815675893922 9.641111118428141e-05 -0.00016627472997943261 1.9061763485795536e-05 -8.295020057444742e-05 -0.9677255797091093 -0.11576382158722605
4.001285714285714 -0.8554652142499196 -0.2305756794502565 0.00016836833761206982 -0.0006166881113657168 0.0001643269085278583 0.00019794647303195468 -0.9659679419463343 -0.11565251375773528
4.001714285714286 -0.8613375281669639 -0.22315618673646265 -8.020538583193013e-05 -0.000662189428930626 8.339466380918035e-05 3.4282098398385544e-05 -0.9658229034531106 -0.11851093914187194
4.002142857142857 -0.8591195262531682 -0.2226836020181817 7.752170124693653e-05 -0.00014999509067103306 -0.00020851552908852678 3.20483709128151e-05 -0.9647060140062889 -0.10954501386024944
4.002571428571429 -0.8626402691004673 -0.21079951944698727 -6.306977261738464e-05 -0.00024523872232201996 0.00013362444558836516 3.119271452099535e-05 -0.969962925355909 -0.10586655438972382
4.003 -0.866942511269324 -0.20150730687820664 8.914817640091069e-05 -0.00025025600791402325 0.0002030020676658917 -4.3220786029707966e-05 -0.9686489502962458 -0.10399546687879632
4.003428571428572 -0.8693973027881596 -0.19707142561082955 0.00015444414707794035 -0.0003759560437907045 -0.00010669449482617096 4.235084627189172e-05 -0.9615831121043215 -0.09755180824263197
4.003857142857143 -0.864416595039542 -0.18925267641899618 0.0003831683304120242 -0.00036634505246416535 1.4413882272794762e-06 0.00018980946082093172 -0.9715017756801956 -0.11052319269248569
4.0042857142857144 -0.8759453542152866 -0.18155473117224102 -1.2234786401171e-07 -0.00036389555219395363 0.00012438097323822956 -9.789913990637222e-05 -0.964977750978288 -0.09917691926483213
4.004714285714286 -0.871305451895365 -0.17336443490553383 0.00016483710684328453 -0.00024188514570818985 -0.00023213812494666532 6.399216465309142e-05 -0.9589264364980806 -0.1091419743989075
4.005142857142857 -0.8737560252074095 -0.1636051902729651 0.00013901298299984932 -0.0003577230444291921 -0.0001076233371723789 1.8165900253647694e-05 -0.9681856148847294 -0.09559254036338743
4.005571428571429 -0.8736060152137319 -0.15906261619436615 -0.00016231881801088722 -0.00022276899540500794 0.0004218607081190811 -6.424312088583794e-05 -0.9595793236427549 -0.09340084800781105
4.006 -0.8775285528212724 -0.15596869638463395 -0.00010470468686232142 -0.0004673539495601226 0.0003846611644286423 3.6646099511615956e-05 -0.970159108502644 -0.09214927621878731
4.006428571428572 -0.8764288240637884 -0.14984803383540524 -0.00010672598101412291 -0.00043302442085154394 6.944705131055773e-05 -0.00016799810837618754 -0.9673543354364099 -0.09212981530415362
4.006857142857143 -0.8798088984622067 -0.13778693457822375 2.7293310476748577e-05 -0.0003808917516289817 -0.0001955242957925518 -2.1811695575148625e-05 -0.9658486256485196 -0.0855551484713963
4.007285714285715 -0.8841999499331581 -0.1308956352985538 0.0001399008616751636 -0.0008849226266150565 0.00020463905770671422 0.0003321134461569635 -0.9684217049230838 -0.0795870723152263
4.007714285714286 -0.8813084859734176 -0.1269448831403867 -0.0002573187882480278 -1.0203939436008924e-05 -7.1986859239483e-05 2.568362349935898e-05 -0.9625119330814292 -0.08567849263842466
4.0081428571428575 -0.8822873151636841 -0.12322376191885681 -8.390883363177671e-05 -0.0003996731084106952 3.836443760307926e-05 0.00021125662059700906 -0.9689892738471367 -0.08795602036635637
4.008571428571429 -0.8851880930737004 -0.10850984274091707 0.00018336483941759212 -0.0002987240285902417 6.097257004325535e-05 -3.2586984013066386e-05 -0.963631677423691 -0.07959616401757016
4.009 -0.8861081346464081 -0.10308302089479371 0.0005199138376784654 -0.00021136836717392665 6.385330439623941e-06 -5.165710358651783e-05 -0.9751764783385835 -0.08446388416427447
4.009428571428572 -0.8834617367354082 -0.09901977449639121 0.00031174201405340487 -0.0002056475380838606 0.0002425274177115318 2.234293443826031e-05 -0.975264160442487 -0.07559517901273058
4.009857142857143 -0.8872123261942106 -0.087750726020967 0.0005441846466829401 -0.00015624942780313907 -0.00010133544254930346 0.000244418693495945 -0.9691218004709772 -0.07050428533836842
4.010285714285715 -0.889279163966397 -0.08254087460134656 7.882573514984586e-05 -0.00030366954544002833 1.6495495810710238e-05 -4.352992861538894e-05 -0.9660912945391958 -0.07400445298246892
4.010714285714286 -0.8897110980774602 -0.07487433368664001 0.0005407631160375222 -1.796442747262824e-05 -0.00045193193285363975 3.6246347433532564e-05 -0.9686353894027127 -0.07170795683525562
4.011142857142858 -0.8848103233744695 -0.0722196238863294 4.4468316022005976e-05 -0.00024406291537797873 -0.0003199183521297561 1.166045942532463e-05 -0.971169424446671 -0.0666154868216393
4.011571428571429 -0.8859630160677076 -0.05831054524785849 0.0001240321262657399 -0.00036336670195910483 0.00010455586473966336 -0.0003472892183240682 -0.9705801068152601 -0.06631628522113009
4.012 -0.8916774739706488 -0.05348343969005109 -0.00025810040441907097 -0.0006748258804020861 -8.228297261417652e-05 1.955156371229342e-05 -0.9753995292341547 -0.06352639686407441
4.012428571428571 -0.8868868752808805 -0.04368036720438725 -0.00010276007430292491 -0.0004919238837748998 -1.9212647480160053e-06 -1.4119656683253343e-05 -0.9613844691212456 -0.056654508017229495
4.0128571428571425 -0.8946807266316739 -0.03636038585272766 5.920532069407571e-05 -0.0004103770172752773 0.00019563911775368254 3.816251003364983e-05 -0.9648858176285029 -0.061706888184625976
4.013285714285714 -0.8850519134634321 -0.031072671997666546 -0.00038783870158194304 -0.00025834357910681585 -4.1045631668417636e-05 -3.5325789437061455e-05 -0.9609813567198803 -0.057634010554180395
4.013714285714285 -0.8882384706498059 -0.021458590729742284 5.169942639064264e-05 -0.0005024194343160654 -0.0002966886727149813 4.484498250597364e-05 -0.9765659304708684 -0.051375369412431905
4.014142857142857 -0.8883301037772101 -0.01533255954362793 7.71932684280308e-05 -0.0004035295998128997 0.00023944923838008586 -0.00030956259343080237 -0.9708711366886833 -0.045034931849432976
4.014571428571428 -0.8863188612237829 -0.01211326343283871 -0.0005427472108294568 -0.00030811442961313593 0.00022310786892183062 0.00015057456091030155 -0.9698698467641439 -0.05206571891968346
4.015 -0.8951513989587135 -0.00011653595127463825 -0.0001194770687954606 -0.0003264771136323338 -6.628337658108598e-05 0.00015181608110292376 -0.9646739104847735 -0.05074371709559579
4.015428571428571 -0.8919142130487707 0.010716483125827507 0.00025848063263576545 -0.0004631355315100081 -0.00012479333080820128 0.00017398317937662686 -0.9720738574616393 -0.05001755761697038
4.015857142857143 -0.888313753166206 0.017034199254084288 -0.0002433490565235966 -0.0003863744901545523 9.015388038333029e-05 0.00021243657901327785 -0.9711771346110496 -0.04682548293716202
4.016285714285714 -0.8899750772820074 0.02241499813077902 -0.00016365082012550675 -0.000430582168751934 9.72677199770544e-05 -8.81488354505527e-05 -0.9665519604736482 -0.040965401260543724
4.0167142857142855 -0.8887260334721115 0.027805468719405167 0.00012437845699029898 -0.00034816600278291513 -2.0927397659239953e-05 -0.0003114577036332517 -0.9662155279175882 -0.04780016977849311
4.017142857142857 -0.8865956756920714 0.037839800400798665 -0.00020491925264884645 8.796017368887833e-05 0.00022128037883667437 0.0002269699639251439 -0.9606695268633911 -0.04057501254302955
4.017571428571428 -0.8904206785267282 0.04215113959672908 -0.0004076979865702774 -0.0006292746772680076 -0.00015446531477417068 1.6178986793726436e-06 -0.9729589163565939 -0.04112707983610226
4.018 -0.8860413744466382 0.049347721351249825 -0.0003020763831750467 2.7519764686603872e-05 0.00014646431627356188 -0.0004155780828533864 -0.9702603901712745 -0.04014253989894302
4.018428571428571 -0.8921344815831519 0.056727874128760084 -0.00031849428183163204 -0.0007219093505804268 0.0002691837821055973 -0.0001455975159407464 -0.9700170890926084 -0.03159256401837996
4.018857142857143 -0.8824362620232287 0.06718982467625324 -0.0006151985200074616 -0.000413101354661235 -6.48696349914343e-05 3.5095551219345534e-05 -0.9622827544165695 -0.02651104075933352
4.019285714285714 -0.8835193361659011 0.07832105356319803 -0.0005197259761635703 -0.0007625183240386392 -2.2974794762458635e-05 0.00017508259683173823 -0.9697392667099842 -0.027894911685131658
4.019714285714286 -0.8869444399578676 0.08445691199483396 -0.00014838636555846387 0.0001694363291053868 0.00017904117379449167 0.0002922645333241507 -0.9644957153578239 -0.028995062422341237
4.020142857142857 -0.8853825358914423 0.08753208161458875 0.00017032182038170888 -0.00023933347962761686 -5.153846165144602e-06 3.934725439581102e-05 -0.9680603161888207 -0.0228783600476583
4.0205714285714285 -0.8848074310360617 0.10321621592168316 0.0002295287127252299 -0.00012844310022907325 -8.028501393956003e-05 -7.393934524697586e-05 -0.969116039167853 -0.026131006192965885
4.021 -0.8829681098229445 0.1026030906431415 -5.0536467536005284e-05 0.00012095624144187975 -4.236641460290926e-05 8.007270773615054e-05 -0.9681816487012382 -0.01873609949028791
4.021428571428571 -0.880115331329441 0.11476266289062856 -0.00023548592150375935 -0.0006418667292555439 -7.496356682260001e-08 -1.0253368613249587e-05 -0.9692122269371878 -0.01845945149116106
4.021857142857143 -0.8810475156947261 0.11698351022520453 -8.569012340646036e-05 -0.0004987010203782179 2.1367878658176945e-05 -0.0004394546545242181 -0.9686926061507868 -0.014771873871281541
4.022285714285714 -0.8746485651523704 0.12131733504251438 -0.0004058250205849235 -0.0005328459292662758 -7.530648761895077e-05 0.0002933162998365032 -0.9765191150253151 -0.0110182837090692
4.022714285714286 -0.8797600288127896 0.13869672532466207 -0.0003586060468977751 -4.871268777749829e-05 -5.145197080459315e-05 7.062505501497872e-05 -0.9643356635560663 -0.013595943369785174
4.023142857142857 -0.8741473523193689 0.1418480016108744 -0.00027699479968927473 -0.00021969942937808987 8.603882709590253e-05 0.00013865212630864712 -0.9673965138820351 -0.007387011979415189
4.023571428571429 -0.8780847786522242 0.14363014280887904 -0.00015474455675204066 -0.0007433199602321906 0.00014256855618455716 7.237149345443315e-05 -0.962610579647111 -0.003974639743172668
4.024 -0.8739245828641117 0.15572196125722731 -0.0006481861761030723 0.00014179810030973068 -0.0002279730243390171 -4.804346432452518e-05 -0.9714271707170729 -0.006707444237048047
4.0244285714285715 -0.875103573368172 0.1597634658109625 0.00011813181008035479 -0.00011926040608776969 0.0001640288933031696 0.00018886214478512075 -0.9698257565103163 -0.002625723293634343
4.024857142857143 -0.8736399772875056 0.1713027163578608 -0.0002924426534252748 -0.0003019847584235623 -0.00012357683347730215 0.00011601441567344059 -0.9677762966372783 -0.0007301472634249841
4.025285714285714 -0.8752499128591732 0.17917570064065333 -0.00022563099929079466 -0.0007481741725102071 0.0001804041520192207 -0.00012483600377655605 -0.9668213625476334 0.0016980691087263862
4.025714285714286 -0.8715605194357594 0.18751215794869053 -0.0001183608451692944 -2.7442303265239878e-05 -1.7574284514014458e-05 -0.0003313610560183759 -0.9760724737483707 0.008238852999783913
4.026142857142857 -0.8748271735693992 0.19126086124829123 -0.0004416685528113595 -0.00020108383453898543 -0.0003181845890685485 -0.00012685966668450797 -0.9715950074728206 0.003974895595830467
4.026571428571429 -0.8605139108010675 0.19980663265052695 -0.0005552794751802106 -0.0001841439212677344 0.00011287442975964534 -7.052114626277857e-05 -0.9733838533019005 0.009117343905961828
4.027 -0.8645201780810179 0.20782916231869922 4.671983015931163e-05 -0.0004289392690101065 0.00011614171602991998 0.0002696294222275187 -0.9706293614349448 0.004887522286971633
4.027428571428572 -0.8679900556589227 0.20818378344909824 -0.00015776355843794723 0.000242302714638768 0.00031991734999050486 -9.807776973844637e-05 -0.9663318266597581 0.015976325267739722
4.027857142857143 -0.8642147763028395 0.2175074755530948 -0.0002975672477613662 -0.0002024507669049874 0.00018386322705313824 0.00015252500254973476 -0.9730229680945636 0.011610224311334799
4.0282857142857145 -0.8618785556720183 0.23347985272925456 -0.00034869529976542526 -0.00020996748169544653 0.00029068583068082117 -0.00010042708712715538 -0.97227414533279 0.021511320688618527
4.028714285714286 -0.8640977178393305 0.23044502832717914 -0.0003853582368199599 -7.729462903978732e-05 0.00017975830034191065 0.00020301102839650846 -0.9697577545930218 0.01343703155426293
4.029142857142857 -0.8586673240322743 0.2446042289899916 -0.00042810936367701535 0.00021704861145609985 8.996135978465479e-05 -5.327095677030863e-05 -0.9689980452976938 0.024081805795707786
4.029571428571429 -0.8568427954297719 0.24773783810447397 -0.00048801680727745026 0.00010206056118730131 -4.297141670398545e-05 -0.00014812406766598698 -0.9636178831654099 0.020942359249304574
4.03 -0.852767452695503 0.25390120088287654 -0.0004109255589399049 -0.0002484208128585102 0.00012013329408451363 -0.00019934109474593754 -0.9722702600093562 0.03289166484488321
4.030428571428572 -0.8509704699245697 0.265632875568492 -0.0004098931367548271 -1.3068526340363957e-05 -0.00014297615914825356 9.423855712346099e-05 -0.9694285610260972 0.027658233950867826
4.030857142857143 -0.8532954202554418 0.2682556819213873 -0.00044875756014583243 -0.0005726961147736498 0.00042983759872256835 -6.098510366059191e-05 -0.9709963591389046 0.022496844572664328
4.031285714285715 -0.8452403192407695 0.2770848602080063 5.890654948049377e-05 -0.0002968445122407466 -0.00013690055906385242 -2.8452102667677617e-05 -0.9682127100802459 0.03437210983949245
4.031714285714286 -0.8420227305752087 0.2776533619625443 -0.0006649259658133406 -0.0003390443145649024 0.0003299586012606098 -0.00013529801142888015 -0.9649087505886078 0.025049021663257405
4.0321428571428575 -0.8392329086049523 0.288690039860152 -0.00027386736381029473 -0.00012649680202286227 0.0001571234777685551 0.00012688489731912234 -0.9733734562896766 0.035394523634537364
4.032571428571429 -0.8404677043409375 0.29697819217435384 -0.0001768718958073702 -0.0001060915667631138 -7.884758409137349e-05 3.9542929153198834e-05 -0.9645865605465724 0.045062526797514976
4.033 -0.8386687988698057 0.302373703044408 -0.0002658806267829351 -0.00017743192242666866 1.1559426929537037e-05 0.00015055448334807655 -0.9659966127298645 0.045208833685333294
4.033428571428572 -0.8421464004115152 0.3113584743283669 -0.00036189276180688146 -0.0003122546622021284 -2.3082973093601246e-05 -0.00020153191992884872 -0.962127992477971 0.03785277324249122
4.033857142857143 -0.8352316625499117 0.3184474580014483 -0.0006083551519718029 -0.00022710970638389183 1.980329545050734e-05 0.00018670189462012519 -0.9619460851339551 0.04449975457871806
4.034285714285715 -0.8268894692944885 0.32144496978238585 -0.0005095661716139694 -4.035108472301231e-05 9.053044771964296e-05 8.155158519035332e-05 -0.9659133166449483 0.042858644420714645
4.034714285714286 -0.820891441021338 0.33547504723541627 -0.0007329205704593869 -9.880892092524379e-05 0.0002680523320930314 -0.00019143348018279963 -0.9648489053154806 0.053006897344422654
4.035142857142857 -0.8239762670194054 0.33809884461222334 -0.000341463233552272 -2.339059852755657e-05 0.00023827502032785586 3.142493535025464e-05 -0.9694162807378363 0.051865330325133525
4.035571428571428 -0.8155563337244731 0.34395213766549293 -0.0004963221081850349 -0.0005943687727327838 -0.0003178898152571831 0.00015507675921727076 -0.9677289711459349 0.055786585682597305
4.036 -0.8141239067989471 0.35512133185171646 -0.0003835405011495818 0.0003583274259900298 0.0001494059755426263 6.638021887021256e-05 -0.9685863416523744 0.05704970218911136
4.036428571428571 -0.8207790707269176 0.3531940086367054 -0.0003647843698955948 -0.000153043290672945 -2.4010326635571965e-05 -0.00029701025575724834 -0.9667471858428209 0.051871742433901954
4.0368571428571425 -0.8130762514703398 0.36628864907037084 -0.0002997712485362374 -0.00023901344243684855 8.418696982719866e-05 -9.846664677023767e-06 -0.9717632377016677 0.05323183054924438
4.037285714285714 -0.8069958607292501 0.3738646205503345 -0.00036725837332630626 -6.592358446783828e-05 0.00011385934226871582 0.00015183145843429636 -0.9635183784919261 0.060913645436275636
4.037714285714285 -0.8050863494150116 0.3728210886603727 -0.000730704768508007 0.0002810215853020496 -9.996385677372478e-05 -5.6473525292657834e-05 -0.968975224245692 0.05515001833737481
4.038142857142857 -0.8006837618513679 0.393353444956262 -0.0002153109095566689 0.00023022734099057958 -0.0004079776053798377 -0.00028407819433285417 -0.9644392494823937 0.06226914104291655
4.038571428571428 -0.8001070170045554 0.3921188218116578 -0.0006160568475354948 -4.246810585313695e-05 6.454938781021674e-05 2.5142733070321175e-07 -0.9606601477039802 0.06573051319915987
4.039 -0.7943354102135612 0.39662088941847495 -0.0003134946202778528 -0.0003366057313487873 0.00011742998788103918 1.8652930965494734e-05 -0.957870766905978 0.06525966885575539
4.039428571428571 -0.7904049075144849 0.4136206601123478 -0.0005498103730664961 0.00020268878720445185 -0.00021372869922008718 -0.0002433043725654191 -0.9630479666447517 0.06958470258422397
4.039857142857143 -0.7939911314063512 0.4113021485012789 -0.0009377986125590958 -4.383478640026783e-05 9.506449248398748e-05 -0.000268969916053437 -0.9696541102754369 0.07164573714403914
4.040285714285714 -0.7880106294465842 0.4117696214226396 -0.0003453019614229088 0.00016726606267944657 1.6953268722227418e-05 -0.00019880936170755444 -0.9627745791713785 0.0745533974783587
4.0407142857142855 -0.7881527241778392 0.4253482017166922 -7.574948774414857e-05 0.0001715071618033612 0.0002054341774224537 -0.00018580111334314363 -0.9598621079419996 0.0759812775236598
4.041142857142857 -0.7743948092126853 0.43006036112072626 -0.00023044153784638734 -0.00020397840897885542 0.0001911838181090487 0.00020665121752047797 -0.9676275041563956 0.08601533501908375
4.041571428571428 -0.7726406865583699 0.4363741614249747 -0.0003147814276309746 3.467572789974649e-05 0.0001785662836279227 -8.431874156190692e-05 -0.9656158519591711 0.08399346485669236
4.042 -0.7699039481545211 0.44670666740090376 -0.000314127733129485 0.0001480251814672039 0.00030267779067754975 0.0003321318217578936 -0.9637902680259586 0.08817977698240168
4.042428571428571 -0.7638271034796412 0.4496931087093223 -0.0007237323541757346 -9.748380083181979e-05 -5.58476079908114e-05 -0.0002627880364156674 -0.958940983325018 0.09401397116248106
4.042857142857143 -0.763875742599075 0.4475385957572193 -0.0005562109013944666 0.00034114787045102704 -0.00043919011567722653 -0.00023649024861674967 -0.9644311144652069 0.08854625316242218
4.043285714285714 -0.7580864849982452 0.46473861911251013 -0.0005324403927976884 0.000205186974396467 0.00025623151896645124 0.0002271102301531072 -0.9649061182893263 0.08677692336915545
4.043714285714286 -0.751946284314575 0.4661861863622843 -0.0003108890687402728 9.919918369349727e-05 -0.00010556207691620904 0.00041989766644112643 -0.966188435486125 0.08170758973605328
4.044142857142857 -0.752114185779587 0.4762025773455811 -0.0008242810715851591 9.966368650165897e-05 -6.394005358636892e-05 0.00019622723754302167 -0.9646826793863019 0.09635879051771157
