!Created with skrf (http://scikit-rf.org).
# Hz S RI R 50.0 
!freq ReS11 ImS11 ReS21 ImS21 ReS12 ImS12 ReS22 ImS22
4.0 -0.8502391439283259 -0.25272597331258123 0.00020294274815191895 -0.0005378300083381302 -3.538117347386571e-05 2.9938392081466862e-05 -0.9636452937285367 -0.12914066917390293
4.0004285714285714 -0.8589895567565101 -0.2461080653385799 0.0003572826582091336 -0.0003262389205846139 5.162629857315155e-06 -0.00013767639304909307 -0.9712584899613644 -0.12347392746128708
4.000857142857143 -0.8596687071020591 -0.2360896132385896 -2.1846502395357884e-05 -6.507247732877654e-05 0.00028048687499589885 -0.00013924176654296988 -0.9666174036297468 -0.11696807933429565
4.001285714285714 -0.8546017676577902 -0.23109658571769007 0.00041370799527376166 -0.0003771484394495599 0.00019010274774177926 -0.00021935396278659257 -0.9660610168592185 -0.11641151106407381
4.001714285714286 -0.8612032149262546 -0.22446646207952717 3.1092566916131063e-06 -0.0002663194747791213 -7.264313942646261e-06 -4.791174102093139e-05 -0.9665910173863786 -0.12271705096494526
4.002142857142857 -0.8609549521323715 -0.22270026334617327 -0.00017059878725025145 5.353940365432953e-05 4.682333586487212e-05 1.734635366826652e-05 -0.9651536044095964 -0.11227013350341468
4.002571428571429 -0.8637851341149043 -0.21434455110554612 1.4012069598602949e-05 -0.0003846312317829486 1.0775187473107136e-05 -0.00010546436240392895 -0.9702111104915644 -0.10562078043786959
4.003 -0.8668894442694774 -0.2008649311260632 -5.404633476938923e-05 -0.00021349168759457582 0.0001598144709712095 0.00011220631350805073 -0.9675457759673185 -0.10524468643159816
4.003428571428572 -0.869299314663678 -0.19815465514303102 0.00016715596253497568 -0.00011572591278949005 -4.628415219523063e-05 -0.00016711021529193596 -0.9618416600242103 -0.09977193118232254
4.003857142857143 -0.8647948265583772 -0.18944315803569298 0.00019363097060080462 -0.0005526321582937792 -3.3722814978813323e-06 -5.4560940313761343e-05 -0.9693926156079526 -0.11150478921125868
4.0042857142857144 -0.8777195347998296 -0.18205309699464028 0.00037596333581795075 0.00012774470347564354 3.266282826907425e-05 -0.00014471362992049525 -0.9667057946479194 -0.0997455718067114
4.004714285714286 -0.8710598972034029 -0.17318421468217615 7.91662520825063e-06 -5.4382175361371564e-05 0.00010060391538484727 -2.6243909674198587e-05 -0.9598898747930239 -0.1091276626009954
4.005142857142857 -0.8736411728351912 -0.16358946701292074 0.0001082427626430709 -0.00041136902848394933 0.00036387919555792473 -5.0400115535483495e-05 -0.967197251475285 -0.09633813257262033
4.005571428571429 -0.875319248886733 -0.1594226625753239 0.00046616717099483296 -0.0001700590354487403 0.00017549607346235697 -0.00010212954108550508 -0.9613849495090656 -0.09479713866837952
4.006 -0.8780794838238034 -0.1559755401379032 0.0001240402902455359 -0.00010800402780412297 -3.568909379011119e-05 -8.550653499260422e-05 -0.9710662019816291 -0.09286579859512063
4.006428571428572 -0.877291467817702 -0.15086978589359715 -4.092587990318257e-05 -0.0004775510254618196 -0.00013791969897906855 8.987972475058784e-05 -0.9673945124086327 -0.09116774103721646
4.006857142857143 -0.8821601064407184 -0.13755216695163253 0.00020331810714253187 -0.00044291424612916797 -0.00029094747864398036 -0.00014324476736096622 -0.9642662735273607 -0.08658189485883
4.007285714285715 -0.8831109428855239 -0.13167538821855523 0.0002366023254425441 -0.00019428290851119872 -2.8544524165921872e-05 0.0002454050552197949 -0.96830843530623 -0.08083778733864097
4.007714285714286 -0.8824788434034069 -0.12583494551185614 2.618534830074107e-05 -0.0006426077109311475 3.949316398977118e-05 -1.5919328219865902e-05 -0.9643254777570784 -0.08472791013279818
4.0081428571428575 -0.8835074339756506 -0.1234959842491397 -0.0001378514474233329 -0.00048257727567049385 9.015311446613589e-05 -0.00010152266901163745 -0.9669926004166031 -0.08926547877705963
4.008571428571429 -0.8856370560572002 -0.11084253451529436 -0.00015376625540451707 -0.0006144190066135053 -1.7581829430981213e-05 -4.275652460850712e-05 -0.9636616214821875 -0.07822914143252667
4.009 -0.8874382273762371 -0.10459772004839009 0.00012013450317621185 -0.00022399035346554712 3.3324792551988334e-05 -4.2823278271867707e-05 -0.9750477667046697 -0.0854007136829388
4.009428571428572 -0.8836245439147934 -0.09971906627370632 -3.3868460019664195e-05 -0.0002735574688741751 -0.00018351736103733765 -2.9943462961415438e-05 -0.9780246465426248 -0.0751787574015427
4.009857142857143 -0.8884328235517052 -0.08852337479816967 0.00022284087601630493 -0.00035811010381375357 0.0002434616746447447 -6.196348607336563e-05 -0.967891622080438 -0.07009928733580321
4.010285714285715 -0.8880424424552432 -0.08168615258074444 -0.00025383956451169467 -0.0005944192897377805 4.914114714467071e-05 8.528270109428022e-05 -0.9654495687451627 -0.073768703218229
4.010714285714286 -0.8893032162822342 -0.07600131293324691 -0.0002354764757896004 -0.0001666796072136686 -2.0415625682444725e-05 1.0959529710804249e-05 -0.9694481357319416 -0.07345967878839058
4.011142857142858 -0.885480844525211 -0.07245154946894505 0.0002155306475662359 -0.00022480888627280732 3.085653458781264e-05 -4.500628560196287e-05 -0.9707427653414135 -0.06749532563684832
4.011571428571429 -0.8863124236209404 -0.056706444114018796 -0.0006141099403001403 -0.00031049638611221973 0.00029119592402429225 -0.0004058617336051515 -0.9703959422987762 -0.06655470860930389
4.012 -0.8905870183760082 -0.05357877412281919 0.00012116857670509387 -0.0005609151696550929 0.0002750271545733655 -0.0001858884458883839 -0.974790128502382 -0.06362513569846395
4.012428571428571 -0.8876487890730898 -0.044589605980159264 -0.0007120597056194959 -0.00023015763769812031 0.00011189012323241536 -9.586357917823177e-05 -0.9637608082134967 -0.05642452915600317
4.0128571428571425 -0.8931418026434015 -0.034972124368542815 7.403366517488437e-05 -0.00035114563824549885 -2.956031070361498e-05 0.0002719132420437266 -0.9658722998505664 -0.0646906554732704
4.013285714285714 -0.8849475910251732 -0.03243614139230332 2.4211745515517303e-05 -0.0004547769674078487 -2.7223015383256314e-05 -4.318866253992851e-05 -0.9653996837879464 -0.05958750051459113
4.013714285714285 -0.8882616302894307 -0.022449355006402053 5.086667872091008e-05 -0.00030558347326338205 9.48994447983069e-05 -0.00011692854800297087 -0.9760289146474507 -0.05413915386799858
4.014142857142857 -0.8867432055553823 -0.013777557281319925 -2.445764167683663e-05 -0.00024705186534495116 4.712252164344362e-05 1.40503741021231e-05 -0.9729235253045564 -0.047628600938977965
4.014571428571428 -0.8872143128344188 -0.011361255058937541 -5.3290631374807226e-05 -0.00033725330893592093 0.00015221589353788328 4.92038565216531e-05 -0.971402707084646 -0.051661171459188956
4.015 -0.8957318426872569 0.0004224827361512913 -9.77405508108885e-05 4.9751902377742053e-05 -0.0001467087570919959 5.200802322720261e-05 -0.965623107501312 -0.05119253564985753
4.015428571428571 -0.891649114620946 0.010750686759915633 -0.00024690811032849076 -0.0004527153953073652 0.0003374237637799782 -0.00040099344477395246 -0.9725265672454437 -0.049104085200880755
4.015857142857143 -0.8900089837720495 0.01712193127449505 9.102686159594916e-05 -0.0001792120839353356 5.1084405024843004e-05 8.022934359855328e-05 -0.9713278230242813 -0.04645045580565962
4.016285714285714 -0.8895565311398241 0.021196308457114083 0.00011305423848656335 -0.00021303024577512363 4.255674629702965e-05 0.0004022324098443617 -0.964462907399093 -0.04257122411417913
4.0167142857142855 -0.8896933412916139 0.028860984483671637 -1.394479546786118e-05 0.0005020246695516496 0.00021647080579164762 -7.354241065173786e-05 -0.9654118378996359 -0.04781673498213371
4.017142857142857 -0.8868724853574725 0.03893510209840959 0.0003441082318472474 -4.824789776739252e-05 -0.00016555838235778246 -0.00015310457537184548 -0.9606486465147863 -0.039866491646900266
4.017571428571428 -0.8907058151591283 0.04173149684862084 -3.796959042193926e-05 0.0001337269571299304 0.0002757769101286286 -2.935154708943077e-05 -0.9716265753199402 -0.04099927201890104
4.018 -0.8881833884814127 0.0502112107889399 7.358273212692389e-05 -0.0001938197796678825 8.377915805509765e-05 -5.851889935804165e-05 -0.968983243431571 -0.040648463696472584
4.018428571428571 -0.8910800474506884 0.05838320924027045 -0.00037241110730891366 -0.00043255516720584465 0.00029534145632067376 2.8522066859787654e-05 -0.973310288987103 -0.034763127764006384
4.018857142857143 -0.8837556994082791 0.0665392258763931 -8.890124705231762e-05 -0.0004528554083665887 0.00015013980568756477 0.0002754329100299215 -0.9599081686101024 -0.027025620932007267
4.019285714285714 -0.8831086983707538 0.07792028753961021 -0.000548843862366373 -0.00019188954677623564 7.426532879289122e-05 9.663370823983525e-05 -0.9710484061742223 -0.029056535555752962
4.019714285714286 -0.8890100806195412 0.08408689302165334 -0.00024252045995610394 -0.0006266042411720164 -1.9743886192969787e-05 0.00013824408191866232 -0.9647025846930295 -0.02952528107371083
4.020142857142857 -0.8881040199859664 0.08763939052812411 -0.0001812092890255759 -0.0004418496158764429 4.662874415079356e-05 -0.00020902781239820391 -0.9705295351346427 -0.025702060235867016
4.0205714285714285 -0.8858589552605913 0.10298351346942898 -0.00021568224213592936 -0.00048306450008050805 -5.271549979196191e-05 0.000250802541881938 -0.969272100896848 -0.02848996298380073
4.021 -0.8835325325722692 0.10110193280837029 -0.00013127627583384407 -0.0001659956898790806 0.00023883909541897808 -3.541183054595425e-05 -0.9656838960940874 -0.02041927499708144
4.021428571428571 -0.8815388994766759 0.11465377681118519 -6.749917989644319e-05 -0.0005258008711015328 -0.00026429472572025715 0.0003684727786613725 -0.9696289821941122 -0.019768578965035435
4.021857142857143 -0.8826500404449491 0.11714431928302221 -0.00011581070175108636 -0.0005865303982964048 0.0001866187905291351 0.00021852318308420815 -0.968789210496603 -0.015783987983897303
4.022285714285714 -0.8749798697537763 0.12147861984632523 -0.0004892244229422702 3.19700010560466e-05 -0.00029086445247923144 7.852787859493249e-05 -0.9751645943225273 -0.010000365629544858
4.022714285714286 -0.8799179245390036 0.1377169205012357 -4.192018220302961e-05 -0.0003992207837384939 5.711105256249765e-05 -8.712073166993738e-05 -0.9658017826510399 -0.015677788993936185
4.023142857142857 -0.8770344765672108 0.1426019857904054 -0.00027807108079207666 -0.0007168470009325124 3.5022236785108894e-06 6.383654154585726e-05 -0.9701269882253544 -0.008780983011957335
4.023571428571429 -0.8790990141797126 0.14334702602725172 5.427690634957474e-05 -0.000433538073116171 -0.0002190985007665071 -0.00020980083459989324 -0.9621547369141423 -0.006179778928694204
4.024 -0.8739034053193306 0.15445530586305295 -0.0009117946318606018 -0.0003284517621024193 0.00012371746905842147 0.00022749476901644217 -0.9705643995375264 -0.011385187197905643
4.0244285714285715 -0.8759701224728137 0.1605808638832604 -0.00029968102105955497 5.868878315207471e-05 -6.8059874647180315e-06 -0.0001424554618905175 -0.9713435334330184 -0.001786888790717065
4.024857142857143 -0.8750042715222487 0.17275010267520882 -0.00023034432586785722 -8.964349765603102e-05 0.0003044492186178558 0.00017458627518183645 -0.9684959859623918 -0.0018636074691431223
4.025285714285714 -0.8739060892438741 0.1788599147381612 -0.0009049592503227516 -0.00016605962322905412 -0.0003795051401378221 -7.311547172174769e-05 -0.965986445541828 0.0021213238928389374
4.025714285714286 -0.8726608166887689 0.1866216487993707 -0.00032618863887374556 -0.00034915863718747923 -3.1151270718152425e-05 -0.00013649074160767478 -0.9765919272055382 0.007416432585395471
4.026142857142857 -0.8737233985296855 0.1903785530285202 -0.00015045569865010342 -0.00029251336423142534 -0.00013386489084974646 2.6850972960831032e-05 -0.9685502637446594 0.0031232844801826302
4.026571428571429 -0.861969461788453 0.20212098518904992 -0.00024063264912261453 -0.00028121610770491545 0.00011439473204586197 7.691402048277677e-05 -0.973061938583376 0.0077111708448967115
4.027 -0.8655498967056295 0.20633295992276923 -0.0005767371998587149 -0.00013716264783854694 -7.499000776203648e-05 -0.00038122483221248224 -0.971389566248028 0.001471793269679078
4.027428571428572 -0.8671437061754814 0.20932049892463442 -0.0005321737441807869 -0.00011498746075636632 -0.00025550615016053463 1.6811411551094086e-05 -0.9648087841774441 0.01564578693276481
4.027857142857143 -0.8625426487312249 0.21592824239106662 -0.00035820204706531867 -0.00017119786826358106 -0.00027015996462864266 8.531538516779988e-05 -0.9732006784754655 0.009870251723341559
4.0282857142857145 -0.8624878307948335 0.23255470743796608 -0.0002481728810843529 -0.0002606960622044074 0.00017754386893315726 6.474300631811643e-05 -0.9739880580081316 0.020882409313743917
4.028714285714286 -0.8664409652242008 0.22962692648859243 -0.0004165644140780729 -0.00011290252423736993 0.0002955047699177251 -0.00025172116501260373 -0.9702167685038914 0.013016874101999773
4.029142857142857 -0.8597337220747262 0.24357146311448993 -0.00036378512272137716 -0.0007388235127527064 -0.0001059532969982218 -2.0320844521134325e-05 -0.9681371022453918 0.02357426194746506
4.029571428571429 -0.8590198092324782 0.2452067900447286 -0.0004323447885176287 -9.96330406612795e-05 -0.0001393595252857857 0.00021065081934511812 -0.9657999095954145 0.020102307018403855
4.03 -0.8519798703212722 0.25382925532091566 -4.313487991661848e-05 -0.00011583307306593124 -0.00016869084082386188 -7.967944737312113e-05 -0.9724608762473927 0.03332465919521124
4.030428571428572 -0.84959394441007 0.2635369056083998 -0.000608762356781493 -9.481971509279772e-05 0.00016440096557977766 0.00018075113806967187 -0.9692542021759603 0.03004567562335988
4.030857142857143 -0.8540235060775925 0.2679411257801472 -0.000486621189018821 -0.00014785612732663546 5.5245440421972465e-06 -0.00019028700110806964 -0.9726381539038214 0.021791069881156942
4.031285714285715 -0.8466605723890177 0.2765765344598075 -0.00045857781506654344 -0.0006416411173288497 8.725695946963563e-06 -0.00022751407491080993 -0.9691064891294218 0.035232407727291054
4.031714285714286 -0.8423378700487852 0.2772106350790294 -0.0006322957412865212 -0.0002534212061007431 0.0003970376620886716 0.00016315637942661368 -0.9656291358311468 0.023214961938479637
4.0321428571428575 -0.8395389153022058 0.28945055814868503 -0.00024071002509406573 6.652052641683771e-06 0.0004237440835747243 0.00016486022264088334 -0.9722835873975119 0.03507577525702265
4.032571428571429 -0.839894731524118 0.29662637472078995 -0.0004053954396827234 0.00019034056721770694 0.0003251511512536989 0.000270349166580342 -0.9669025985150912 0.042339605876634115
4.033 -0.8405992506493565 0.30180468595984034 -0.00011909168356519773 2.9190298173808266e-05 -0.00012031681091003884 0.000156109716746259 -0.9656483298663404 0.04630745681963731
4.033428571428572 -0.8430382410747709 0.31083257729692576 -0.00016081901310427353 -0.0006102882926228253 -0.00026605938040288684 0.00024264990762766628 -0.9635595795924126 0.0384146425840549
4.033857142857143 -0.8352791577941536 0.31764882570355485 -0.00038662138614261097 -0.00021852841718072901 8.524239542562447e-06 -3.4954981411693765e-05 -0.9636805464578047 0.045515244829684505
4.034285714285715 -0.8282759290684502 0.32224882829496143 -0.00026879764295050277 6.510080193649157e-05 -0.0003337445159489044 4.470839895119393e-05 -0.9667640504283448 0.04215749991225962
4.034714285714286 -0.8209009882356195 0.3354016542729537 -0.000319077890812156 5.8264707959058385e-05 0.0001857223098425406 0.0002352137289446113 -0.9652754426006139 0.05205285158478787
4.035142857142857 -0.822694285514701 0.33786072630420416 -0.000326355057632471 -9.772352748206978e-05 -0.00011519712105066187 6.563999434435985e-05 -0.9690026657975394 0.05054038923458982
4.035571428571428 -0.8161708811321783 0.3455002842502905 -0.00027379867893371693 -9.305879420280098e-05 -8.060587522849256e-05 0.00013316440086527938 -0.9654851388839407 0.05485179923955698
4.036 -0.8145150278746903 0.35442703489812755 -0.0001823036010164702 5.384428488763259e-05 -0.00023292092261223142 2.982569189607985e-05 -0.9683505972354061 0.05665726443319007
4.036428571428571 -0.821766882935417 0.354461203902848 -0.0005330544362364594 2.0516654676597227e-05 -1.2217042559135697e-06 -8.22914623745317e-05 -0.9689520596357191 0.0504840095725986
4.0368571428571425 -0.8150254889977259 0.366026776333124 8.396878074881326e-05 -0.0002658909914900814 -0.00014172798701425786 8.007362460852394e-05 -0.9693397693176584 0.052855347801693604
4.037285714285714 -0.8071195700622228 0.372798235769533 -0.0006909628229252948 -0.00021055495609135984 6.0347492070754366e-05 6.89588481512474e-06 -0.9643877494297722 0.05863987860992642
4.037714285714285 -0.8050991457827056 0.3741433889812644 -0.0005960587780766847 -6.071681514482929e-05 -0.00035668401250391014 -0.00012244042650381122 -0.9687339404621086 0.05667947077537251
4.038142857142857 -0.8004920793999776 0.3924764712122469 -0.00018842282152630325 -0.0004567234441235093 0.0003247912654734892 -1.7438071484620206e-05 -0.9630440720063487 0.06095176822002813
4.038571428571428 -0.8013586050551994 0.39344057216209366 -0.0005181451703904265 -0.00035593758204052934 7.092610361458769e-05 -0.0001655899583342627 -0.9607588384152165 0.06487473087197289
4.039 -0.7969429215152904 0.39551908601480906 -0.0002470803532958169 7.175310630484846e-05 0.00022939514839551072 -0.00010081905473041626 -0.9598484297421456 0.06567203269483428
4.039428571428571 -0.7899349017298258 0.41363924914083894 4.831050631512483e-05 0.0002570824049388788 -0.0001488848126214257 0.0001210226532538115 -0.964027030505485 0.06694791694028308
4.039857142857143 -0.7937874062106007 0.4132555863203944 -1.4913768054153192e-05 -4.541027153516365e-05 -9.359898782819146e-05 -0.0001433096996484177 -0.9709051300758631 0.06863605969541714
4.040285714285714 -0.7891618926410895 0.4131202992878327 -0.0006345662867087004 -0.00010798993245835208 -1.2033762942347077e-05 0.00014545075875348006 -0.9637651058673978 0.07595090586274518
4.0407142857142855 -0.7888982559009116 0.42466249457477306 -0.0004121862710084626 -2.2381982176262932e-05 0.00011130790534587375 7.354761183931536e-05 -0.9595293926392423 0.07636751397296959
4.041142857142857 -0.7739594932858122 0.42957779765935283 -0.0003537778197481663 -2.0188560955955166e-06 -0.00014109868229477052 -0.0001041673428100681 -0.9695650198588907 0.08528354846373644
4.041571428571428 -0.7727069838232079 0.43686028705517854 -0.00012510517379233545 0.00013562736289713414 6.379577458783774e-05 5.610610803693583e-05 -0.9669174731372221 0.08282473900814455
4.042 -0.7707033993643067 0.4472618652843365 -0.0004345743855392969 -0.00011499690786631833 -0.00026717416411413056 -0.00013143587513278257 -0.9624511626923444 0.08880298006846937
4.042428571428571 -0.7644763749931786 0.4496907875177448 -0.0005657816004982166 0.00010814307177796503 0.00015687990439743966 -6.393585361490781e-05 -0.9602960523093429 0.09289195443079712
4.042857142857143 -0.7653718800480231 0.4450146087566952 -0.0004209406797402898 0.00021484698246977216 -2.7564990739063698e-05 -0.00012631098971493688 -0.9655699627940602 0.08726903338882964
4.043285714285714 -0.7583656141254367 0.4654717371386561 5.915681268215957e-05 -0.00016739440398316646 0.00021385467549796396 3.2053582026064896e-05 -0.9650553948446531 0.08503557183204581
4.043714285714286 -0.7523106164447312 0.4661116553669147 -0.00013132811553151778 0.00018566800729960723 0.0005993382756803262 3.484710475674461e-05 -0.9665494738249196 0.08058203456343616
4.044142857142857 -0.7518854408051525 0.4755187485478586 -0.0001775035226256125 7.695393930228627e-05 -2.27982033946391e-05 0.0001322934917596674 -0.9629098337103069 0.09630484824711483
