!Created with skrf (http://scikit-rf.org).
# Hz S RI R 50.0 
!freq ReS11 ImS11 ReS21 ImS21 ReS12 ImS12 ReS22 ImS22
4.0 -0.83861710237632 -0.25467010382992694 3.4387152556818125e-05 -0.0002304743188898591 0.00018473921563429214 -3.280950880636187e-05 -0.9634431652229095 -0.12928060224982885
4.0004285714285714 -0.8469415551122357 -0.25023459959989514 -6.559850331515212e-05 -0.00011394224626773572 8.574699546462089e-05 -2.3493512993959185e-05 -0.9706247543351073 -0.12292572835831755
4.000857142857143 -0.8500759298200236 -0.23852678355286305 -6.53726271902619e-05 -0.00033163341158163223 -8.968191976773312e-05 9.000200285828586e-05 -0.9648212557052872 -0.11745310642533831
4.001285714285714 -0.8434642346899182 -0.23445973352646368 -0.00039007486301361735 -0.0005003269617374131 0.00012660568542084482 -5.6197716099250194e-05 -0.9656234437398798 -0.11661713464855497
4.001714285714286 -0.8501630430441062 -0.2245580538200137 -0.000340104744803212 -0.00013679040130464275 -9.489537682166317e-05 3.365963737608425e-05 -0.9652077022881269 -0.12126312356109357
4.002142857142857 -0.8495010570247465 -0.22572538999311623 0.00021656755230073894 -0.0001144913994119223 -3.973108911244734e-06 5.186722852444913e-05 -0.9651538966074559 -0.11074041254925322
4.002571428571429 -0.8518286110219768 -0.2152517996226892 -9.379399077305237e-05 -0.000287948887965575 0.0003347810342555422 0.00011841834201640366 -0.9701674036080019 -0.1059249242388691
4.003 -0.8552515403332317 -0.20436121031169183 4.9064961877297636e-05 -0.0004773097778406685 9.19302413532793e-05 2.7200276724428745e-05 -0.9699451999043036 -0.10638321190367749
4.003428571428572 -0.8588713429439425 -0.2021154800674598 -0.0005281607231182335 -0.00044579547596687336 7.50622737088722e-05 0.0001649021982177386 -0.9621929930613138 -0.10044729830387059
4.003857142857143 -0.853797453594712 -0.19318846021603234 -0.00018039328186861367 -0.0010664859078939244 8.774073718201312e-05 0.00018919714350007033 -0.9700122202958718 -0.10849766511370869
4.0042857142857144 -0.8642728941528766 -0.18551583527500728 -0.0007235984522043927 -0.0003207437310691481 5.3579034723608364e-05 5.936121871782058e-05 -0.9657060963372558 -0.09993585470668888
4.004714285714286 -0.8608030146894639 -0.17692016816139153 -0.00015011445288237903 -0.0002122251016559326 0.0001519616759865218 -0.00014997935126219398 -0.9606954653292847 -0.11035709274517108
4.005142857142857 -0.864358272278103 -0.16839174753297137 -0.00010981628113516405 -0.00035520118743389114 8.401787202533027e-05 6.884734546717158e-05 -0.9680077948544659 -0.09643104032026568
4.005571428571429 -0.8647942694108223 -0.1632492058396407 -0.00032256798222957903 -0.0006537169233509823 -0.0003098933130574996 7.222539358961544e-05 -0.9615591933582873 -0.09637992538197257
4.006 -0.8654209156345457 -0.1577806452338592 -0.00040739664363411224 8.048925790955279e-05 9.665788358010883e-05 -0.00016947092168725323 -0.9713966456979084 -0.09287718888059095
4.006428571428572 -0.8663558466578087 -0.1543409340449134 -4.295030094152799e-05 -0.0004506686859720507 0.00014751564397339888 -0.00013900410965805726 -0.9693923323044183 -0.09228869803414594
4.006857142857143 -0.8707518043907289 -0.14173986479523182 -3.419677400825545e-06 -0.00015577489787165196 0.00016445576067545485 -8.423682280042055e-05 -0.9652807931665031 -0.08667713363402046
4.007285714285715 -0.8736716795688214 -0.13470060486621502 -0.00016727972235036726 -0.0006426595607491965 -6.922372816072704e-05 3.430753539478163e-05 -0.968848545184564 -0.07903502587974569
4.007714285714286 -0.872038194378638 -0.13004158686048406 -0.00021445180253728787 -0.0002494244184650206 8.533381169398207e-05 -0.00035042412194907676 -0.9626382145746696 -0.08370595716757497
4.0081428571428575 -0.8715563000589985 -0.1270653483314597 -0.0004119743480634101 -0.0003323670652679865 -3.7511726637472286e-05 -0.00014802483444792004 -0.9677647207858647 -0.0890132971852911
4.008571428571429 -0.8756456773830745 -0.11202342822825333 -6.522345974388254e-05 3.0763577842595983e-06 -3.7367170285472514e-05 0.00012903937562028816 -0.962622938385244 -0.07983370835250019
4.009 -0.8763246503902771 -0.1080037478236174 -0.0002374700343749796 -0.00045211100436729846 -0.00011730929148572764 7.057939984610545e-05 -0.9729930248270355 -0.08403329053486754
4.009428571428572 -0.8735350062540028 -0.1037923448783942 -0.0001385584667576354 -0.0001639208782530091 -0.00013011960636087505 -0.00019067822359026954 -0.9760768405790405 -0.07622716311394823
4.009857142857143 -0.8756987935342885 -0.09075413982936585 -0.00028366216389772705 -0.00013093914772068234 0.00022996867727132704 0.00028582993352548947 -0.9679002932663779 -0.06896659686842445
4.010285714285715 -0.8792130766796316 -0.08610430102440177 -9.429599749069607e-05 -0.0003439418816796997 0.00019337215566467844 0.0001332685830409377 -0.9654724778479056 -0.07421577663007022
4.010714285714286 -0.8777555491220818 -0.08025632318988313 -0.0002225339535632411 -0.00033719343578630874 3.0403765977039887e-05 0.000354438950912042 -0.9696289765805981 -0.07170068579220078
4.011142857142858 -0.8747388478860914 -0.07673245391466675 -0.00014770512107880896 -0.00047094043707184664 -0.00010644846056762105 -9.221230620181909e-05 -0.9686635985810177 -0.06466870213867593
4.011571428571429 -0.8760778016369831 -0.06283025593371426 -0.00036839929294436673 -0.00011574531332331075 -0.00017664373260450496 4.947021680246809e-05 -0.9706183298522343 -0.06676911790657701
4.012 -0.8793303521543359 -0.06005965776745067 -6.415947257521252e-05 -0.000327885874563039 -3.711700716532687e-05 0.0003262934578459969 -0.9755763423362298 -0.06477156268484308
4.012428571428571 -0.8765527266659183 -0.04988075822352526 -0.0002887785187993949 -0.00035362213988494336 -4.9062792024812053e-05 -0.0001872694788729777 -0.963823602907842 -0.056389251515736184
4.0128571428571425 -0.8862135359299065 -0.039551335366688534 -0.0005983524923936104 -0.0001630368878405558 -9.109222234311537e-05 7.362196188513207e-05 -0.9673538254116049 -0.0636349859155835
4.013285714285714 -0.8744036900437498 -0.037241993603654995 -0.0008881192017150984 -0.00014057336219275472 -0.0004967553666522506 1.990039113930091e-05 -0.9619192910253989 -0.05961534803026908
4.013714285714285 -0.8775411251780895 -0.028312923704969774 9.250197230635769e-06 -0.0007728254211063675 -0.00012449804176702898 4.687157628683174e-05 -0.9743599690511031 -0.05249707921504844
4.014142857142857 -0.8787949482003174 -0.019764696257667424 -0.00022778230313339097 -0.0004111643855806168 0.0003517268920196514 -8.580982556363802e-05 -0.9705782957913277 -0.04713994083254451
4.014571428571428 -0.8752556188630225 -0.015641456455578573 0.00024371962853877454 -0.0001489019937128019 4.814274004616266e-05 -8.005816189485658e-05 -0.9689001653354268 -0.052435923013137674
4.015 -0.8856467484608147 -0.005255341225068839 -0.00027135244088075436 -0.0006981413840807554 2.689941875957148e-05 -0.0001226474106973938 -0.9654425160454406 -0.052577063871201285
4.015428571428571 -0.8821476722316122 0.005571733881513975 -0.0006674783631565432 -0.0002470377318732962 1.5828691651320865e-06 -5.499002630941502e-05 -0.9711228612780956 -0.05035751607216772
4.015857142857143 -0.8799661355471031 0.011623573335153204 -0.00047641595122404056 -0.00022360086202246227 4.840382360746111e-05 -0.00039051738876493724 -0.9702697380437967 -0.04443120691649205
4.016285714285714 -0.8794984114272254 0.017476480290686013 -0.0008530172075116326 -0.00018796626071922369 1.1837844592271297e-05 0.00017121001710561983 -0.9655653704770113 -0.041840066639325414
4.0167142857142855 -0.88108942508901 0.023213688150336854 -0.00037296425629877765 -0.000598345798950407 -5.158232244857897e-05 2.724088783512168e-05 -0.9662086763075315 -0.04918484328858072
4.017142857142857 -0.8763055769452784 0.03263349039978794 -0.00028613641437635337 -0.0007263961664679573 -4.719677525477304e-05 -0.00012187807120713013 -0.9631048255795753 -0.039796881117266765
4.017571428571428 -0.8813404633283181 0.03633220831356651 -0.0001702621602032743 -0.0007492037186213697 -8.596047411423547e-05 -0.00010451362157416416 -0.9746040172374714 -0.04179627144935159
4.018 -0.8772042711483496 0.043235961926360304 -0.0001306917236878266 -0.00048659217215977926 9.608185918305031e-05 0.0001923419884982809 -0.9688933637205545 -0.03883465665753187
4.018428571428571 -0.8817076246470423 0.052264801835837024 6.400108895579217e-06 -0.0005332396291041152 -1.474985860180899e-05 -1.520012434717285e-05 -0.9718829150167386 -0.03399138313509088
4.018857142857143 -0.873487299390698 0.06108233377171809 -0.0006072428954044775 0.00017041651947958007 -0.000321096620260553 0.00012114232700163385 -0.962222224275341 -0.02804240717471719
4.019285714285714 -0.8733044365075344 0.07066695986660411 -0.00037201603795893637 -0.0003927848934025777 -1.6084841685950284e-05 0.0001385995346436584 -0.9698711746819131 -0.028908488207212008
4.019714285714286 -0.8786561737223119 0.07702313046926458 -0.0004936573499326683 -5.931818565634205e-05 -0.00015706031259427085 0.00013595892531957188 -0.9644342068777079 -0.02814521008154558
4.020142857142857 -0.8778845456356723 0.08152524315480278 -0.0002618320098781422 7.137177724154305e-05 9.477975085449456e-05 -0.0002381601717377635 -0.9690412428404019 -0.025649673388383507
4.0205714285714285 -0.8761718840952968 0.0979912714679135 -0.00043769264389329437 0.00019354971113555653 5.9576222882063574e-05 -0.000154972613161605 -0.9673720655256737 -0.02613370259633625
4.021 -0.8728591586618925 0.09489805756871153 7.435382129704425e-05 -4.870518904174704e-05 0.0001705156243214702 0.0003433838249649885 -0.9652441115626176 -0.021329887853202306
4.021428571428571 -0.8717558864172702 0.10666773972300815 -0.0004429765182039777 -0.00039664205043456055 8.090680200927709e-05 0.00014281528956269917 -0.9682380305430888 -0.018079859063188892
4.021857142857143 -0.8734003599763382 0.11138527829330333 -0.0003949305543272056 1.2995841067644824e-05 0.00047218662523452543 -4.0023610920558654e-05 -0.9675104055735072 -0.015421903185975843
4.022285714285714 -0.8647959326665376 0.11444851234983355 -0.0005924008665604436 -5.601782855028329e-05 -0.0002333212055982016 7.258801686379009e-05 -0.9747200418185814 -0.010424458078850944
4.022714285714286 -0.871963037640882 0.13225216337773665 -0.0008838563470555681 6.636728047317615e-05 0.0001920915826547899 3.009901214402775e-05 -0.9640428108379548 -0.015131263371048195
4.023142857142857 -0.866659760743721 0.1362955639665273 -0.0002727590502829466 -0.0005291357559248135 -0.0001419221609988502 -0.0002462004082818897 -0.9681823400936324 -0.0065925655166388375
4.023571428571429 -0.8676535492148681 0.13837642810735085 -0.0005338984998313424 -0.00014155830030521637 -6.733032815972598e-05 -2.503843575770166e-05 -0.9621400534230256 -0.005710690081033137
4.024 -0.8625479025109424 0.15092031892543376 -0.00011648910512826607 -0.00024401473613855124 -0.0003559348572597211 -0.0002437220525497191 -0.9696268176753939 -0.006989657543090102
4.0244285714285715 -0.8653462421916487 0.15241540290176797 -0.0006763645631622269 -0.00024226233378593922 0.00016289238755109255 -8.950398999372963e-05 -0.9701516250912611 -0.003272829800822518
4.024857142857143 -0.8666709827705585 0.1653637357800033 -0.0005537013833081513 1.2908557295774258e-06 -0.0003433415707773499 -6.087597511550994e-05 -0.9678097230734973 -0.0020453708569383665
4.025285714285714 -0.8668906531810884 0.17350076232466757 1.5993663697949777e-06 0.000357961656353251 0.00015982531161163428 -0.00010810116108405456 -0.9668383946315415 0.003261939133611423
4.025714285714286 -0.8618725111034173 0.1791807983867686 -0.0003189581882781375 0.00012801778122078296 -5.242231474487572e-05 -0.00021348726557814576 -0.9765688792997317 0.008861171262993876
4.026142857142857 -0.8666816046523268 0.18338833117645523 -0.00033639615598452915 -0.00023364252159229897 1.5776355676586697e-05 0.00015541190820900108 -0.9690050763213176 0.0032375767110690715
4.026571428571429 -0.8500804760937267 0.19298194702336494 -0.00010198114046640597 -0.0003074512919285151 -8.402531716494911e-05 3.453630050584228e-05 -0.9730770484238751 0.007886858402165955
4.027 -0.8565693563622697 0.20063743275218462 -0.0004588886106613846 -2.529881125926931e-06 0.00010901865669772302 -3.683917121870007e-05 -0.9715308760614744 0.0041571752691875906
4.027428571428572 -0.8590228039213299 0.20089626193505059 -0.0007162305246239763 0.0002483033675187399 5.173427702336829e-05 0.00047307552677042285 -0.9647463104138301 0.017004273151584474
4.027857142857143 -0.8539980157492252 0.21123259391992324 -0.0003286387805651027 -0.000397178876196958 -1.0475980201466329e-05 -0.00032756060901063024 -0.9730309005802007 0.009878950904775417
4.0282857142857145 -0.8516645576269474 0.22453830892619037 -0.0005252946908394057 -0.0001696436162151574 7.1897335193364e-05 -8.724161141430683e-05 -0.9721464702717701 0.021715768968167553
4.028714285714286 -0.8563929875300457 0.2221926490563308 -0.00028921249346481806 -0.00011123410152866086 0.0002125925837407852 -6.90991118826931e-05 -0.9700839721075961 0.013889237172768468
4.029142857142857 -0.8505200368142795 0.23706801456172266 -0.00019652727731496531 -0.00028983848216689956 0.00013777608919983043 3.62533940608221e-05 -0.9677979830030572 0.02320296853309691
4.029571428571429 -0.8484584883170309 0.23978272111793902 -0.00021791801539431006 0.00024488910490281233 2.7145636609147618e-05 7.00526105749899e-05 -0.9641130106024682 0.021568301246801196
4.03 -0.8433124706997588 0.24403089457878552 -0.00026409021333331025 -0.00011207285429372981 4.519152122042972e-05 -0.00011736059920773741 -0.9739691352706622 0.031762178985307934
4.030428571428572 -0.8426331021543418 0.25621658987724644 -0.0003745227252078134 -0.00010787303054850481 -0.00025175814275555156 -0.00017195116375248094 -0.9700618691800217 0.029791032901645885
4.030857142857143 -0.8444764426710925 0.2599817510597083 -0.0001304616281840734 0.00018445192401215924 0.00017884627335713584 0.00012504606648789618 -0.9734862689753268 0.021903221470184416
4.031285714285715 -0.8363593084948061 0.26807396088910734 -0.0001910636402045968 8.342078758108051e-05 -6.595923980117863e-05 0.00015307339787449826 -0.9677425892201225 0.0335471043112229
4.031714285714286 -0.8355648695269461 0.270480591544408 -0.0006321459143781555 4.143612888767313e-05 0.00016080807338341327 0.00016990310713408007 -0.9637311562485157 0.02312142143494747
4.0321428571428575 -0.829961806560019 0.2807362997252508 -0.0002451609999583138 0.00010856153708319391 -1.0614424745477043e-05 0.0003747654419314606 -0.9733200684583584 0.03444234565724114
4.032571428571429 -0.8330639516062129 0.28806594223209325 -0.0004376353745385466 0.00026341974750679 -1.2835169814045087e-05 -0.00011075567325314294 -0.9680167150600009 0.04261427416861671
4.033 -0.8317976198085933 0.2934320514210143 -0.0007006114688489216 9.090719054243744e-06 0.0003170939120595814 8.966497379276572e-05 -0.9652233810948929 0.0458225140232507
4.033428571428572 -0.8337530779043637 0.30176641148942807 -0.000498658164493433 3.715385021156041e-06 -2.9645230766714272e-05 3.73639328217844e-05 -0.9617201142876259 0.03992248271330567
4.033857142857143 -0.8258149191714463 0.30864457895129405 -0.0006379178805049271 0.0004309523809697943 -0.00010708082736452499 0.00011128401411091206 -0.9625651795115313 0.04431381948937835
4.034285714285715 -0.8200048967734069 0.313682009064682 -8.612693492044648e-05 0.00018604395329075858 -4.7031639318134596e-05 0.00017180521140348166 -0.967141360531091 0.04134805401682352
4.034714285714286 -0.812164806866492 0.3266838786963212 -3.055720963120815e-05 0.0001281539270224289 -4.618788475992442e-06 7.608141609416367e-06 -0.9664503086465929 0.049440750796404136
4.035142857142857 -0.8165751271162368 0.3299837883073222 -0.0006744527726628393 -9.471202007063641e-05 -0.00016035301650379552 0.00016912820939553647 -0.9680705740144798 0.05133642171685637
4.035571428571428 -0.8079955618360127 0.3369139066326946 -0.0006340559456732344 0.00034885009280583815 1.6927367969851768e-06 6.931932204713019e-05 -0.9661544154179372 0.05706824925339551
4.036 -0.8058770854355565 0.347325565698456 -0.0008857571141746404 0.00045789101460442296 -1.3325522238674303e-06 -0.0003022213197868811 -0.9693520736774837 0.05616208453055437
4.036428571428571 -0.8143978873387127 0.34507994083483673 -0.0007846674655284521 0.00015089543440481695 9.411164341329003e-05 0.0001375820559936302 -0.9696407817704675 0.051518165393545756
4.0368571428571425 -0.806713060656131 0.3566207364459904 -0.0006130324070254739 0.00022048627955944432 1.5696321622648206e-06 -0.00014012841436629168 -0.9711488806756152 0.05271043851238195
4.037285714285714 -0.7988444015794647 0.3655856677614381 -2.3409205405449593e-05 7.417736688295005e-05 -0.00014568379215436003 -4.865420232768327e-05 -0.963306131318092 0.05905682948049399
4.037714285714285 -0.797297500162101 0.36543359642109463 -0.0005129296760820996 0.00047606686030919945 -0.00016609917401803017 -0.0001496067933087774 -0.9684637568732539 0.05411158554612164
4.038142857142857 -0.7916882376360216 0.38442505776634295 -0.00039075303534756003 0.0005562640278657596 2.1040187973081126e-05 -0.00016592471067591053 -0.9653205764206241 0.06184794227874392
4.038571428571428 -0.7943939443134118 0.3833034529031686 -0.00016382342288726243 0.00018113650123515384 4.976644063243799e-05 2.7954761201139258e-05 -0.96147384959751 0.0644258400476504
4.039 -0.7888126772559644 0.3869738011961057 -0.00044856145326896375 0.0004917011836249314 -0.00019223143285247983 -0.00019025776402702602 -0.9587409720048015 0.06307294745541427
4.039428571428571 -0.7819930909254061 0.4048483572776689 -0.0004689723357553644 1.4251621154379671e-05 -8.17083282925523e-05 -0.0003496911106997959 -0.963888194940398 0.068246291493741
4.039857142857143 -0.7854066616353801 0.4018388085419102 -0.00022910530466126815 0.00032497756481611115 -7.381931539902754e-05 8.453946797444171e-05 -0.9700100810622228 0.06965463392226141
4.040285714285714 -0.7828500529555941 0.40394519265579004 -0.0002140818981223239 -0.00010488214074226173 0.00014293441336312465 0.00013467229876982975 -0.963154503078827 0.07586262729942221
4.0407142857142855 -0.7811884475336446 0.41730856188679577 -0.0003245474607846623 9.072470913719422e-05 4.021280982375023e-05 2.051522669954237e-06 -0.9579735781588214 0.0748483183661771
4.041142857142857 -0.7669250529674868 0.42038319441664423 -0.0006275217992169756 0.00020253217329332306 0.00029016552138750267 5.167387995509397e-05 -0.9697564865491527 0.08326017923052062
4.041571428571428 -0.766990539971961 0.4268849422016983 -0.0006086992360303781 0.00013053086229626975 0.00022455059191736995 -0.0001998949958490858 -0.9661874460837585 0.08278058784844113
4.042 -0.7642176462376639 0.43800116807315537 -0.0005336264368903343 0.00015572084080212221 0.0002589724733053489 7.2938323770134166e-06 -0.962647450183174 0.0892982787084875
4.042428571428571 -0.7586170096178704 0.4416700421530551 0.000115303696293985 0.00046322320045212714 0.0001794744547388204 0.00011536330856381882 -0.9569071894597003 0.0910354391689127
4.042857142857143 -0.75805081850087 0.4378024160197037 -0.0003065446988363963 -4.2029047368809545e-05 4.9338372275851985e-05 -2.9305296519569906e-05 -0.9666952336278677 0.08702340546846479
4.043285714285714 -0.7519868896919597 0.4555274432686868 -0.0004415906610905379 0.00021278764226838863 -0.0001788246549981296 -6.485491170236929e-05 -0.965254929249852 0.08461035384707122
4.043714285714286 -0.7463976996863648 0.4571491272898162 -1.475075122258212e-05 6.429538880874866e-05 0.00025704102500552777 -5.408007001555477e-05 -0.9656403134357778 0.0808646807301677
4.044142857142857 -0.7467872826075366 0.46793325579368406 -0.000418825290163906 0.00024780627133400083 5.682312225165156e-05 0.00017636346948151022 -0.9637738401332006 0.09556780270223231
